(1487342025.615950) can0 187#E21408C800100300
(1487342025.615951) can0 085#7F76800016407F71
(1487342025.616946) can0 3CC#3000000000000000
(1487342025.616947) can0 3A8#0100271700000000
(1487342025.618070) can0 091#7F0B7F040EDEF000
(1487342025.618071) can0 092#6FB76FA3736D20DE
(1487342025.619081) can0 076#3E87C0800FFF0000
(1487342025.619082) can0 077#0ADD08027FF7F1FE
(1487342025.619083) can0 07D#0000F4B0001FA805
(1487342025.619083) can0 213#FFFF000400020040
(1487342025.620081) can0 214#000000000000F4B0
(1487342025.620082) can0 083#0020000000000000
(1487342025.620082) can0 216#3F71981500000000
(1487342025.620083) can0 217#0948094C09480948
(1487342025.621127) can0 2A1#FFFFFFFF00000000
(1487342025.621128) can0 167#72800710001A0000
(1487342025.621128) can0 202#040D400060380ADD
(1487342025.621129) can0 204#C0007D02D1000000
(1487342025.622147) can0 415#0ADCFC0708030803
(1487342025.622147) can0 41D#8000600000000000
(1487342025.622148) can0 261#0000000000000000
(1487342025.622148) can0 4B0#01008000B00000F4
(1487342025.623490) can0 242#0290200AD1000001
(1487342025.624477) can0 40A#C104014107F670C1
(1487342025.624478) can0 42C#8C40000009B00000
(1487342025.624478) can0 3CA#FE80080000000000
(1487342025.625959) can0 082#7E0814008D804000
(1487342025.626949) can0 085#7F76800015507F71
(1487342025.626950) can0 078#0068000000000000
(1487342025.627976) can0 091#7F0F7F0409DFF000
(1487342025.627976) can0 092#6FB76FA4736D1EDF
(1487342025.628949) can0 217#094C095009480948
(1487342025.630203) can0 047#2000000000000000
(1487342025.631205) can0 165#10CC1E0000000000
(1487342025.631206) can0 167#72800710001A0000
(1487342025.631206) can0 200#00007FF080080000
(1487342025.632343) can0 202#040D480060380ADC
(1487342025.632343) can0 204#C0007D02D1000000
(1487342025.632344) can0 230#300600009E000000
(1487342025.632344) can0 42F#7D04002E660F02CF
(1487342025.634860) can0 186#140C01FA003805FA
(1487342025.635895) can0 187#E11408C800200300
(1487342025.636894) can0 085#7F76800014607F71
(1487342025.637895) can0 455#A000000000000000
(1487342025.637896) can0 3A8#0100271600000000
(1487342025.637896) can0 091#7F147F0700E0F000
(1487342025.638894) can0 092#6FB66FA4736F1CE0
(1487342025.638895) can0 076#3E87C0800FFF0000
(1487342025.638895) can0 077#0ADD08027FF7FDFE
(1487342025.638896) can0 07D#0000F3C0001FC806
(1487342025.640021) can0 213#FFFF00040001FF40
(1487342025.640022) can0 214#000000000000F3C0
(1487342025.640022) can0 216#497CA11F00000000
(1487342025.640023) can0 217#094809500948094C
(1487342025.640023) can0 33B#0000000000000000
(1487342025.641022) can0 415#0ADFC01308030803
(1487342025.641023) can0 167#72800710001A0000
(1487342025.641023) can0 202#040C500060380ADC
(1487342025.641024) can0 204#C0007D02D1000000
(1487342025.641956) can0 41D#8000600000000000
(1487342025.641957) can0 4B0#01008000C00000F3
(1487342025.645952) can0 082#7D0814008D804000
(1487342025.646951) can0 078#0168800000000000
(1487342025.646955) can0 085#7F76800013707F71
(1487342025.646955) can0 3CC#3000000000000000
(1487342025.647986) can0 091#7F157F0AFBE1F000
(1487342025.647987) can0 092#6FB16FA473721DE1
(1487342025.648987) can0 217#0948095409480948
(1487342025.650340) can0 047#2000000000000000
(1487342025.651340) can0 05C#00B000F1201E0000
(1487342025.651340) can0 165#10CC1E0000000000
(1487342025.651341) can0 167#72800710001A0000
(1487342025.651341) can0 200#00007FF080090000
(1487342025.652340) can0 202#040B580060380ADC
(1487342025.652340) can0 204#C0007D02D1000000
(1487342025.652341) can0 230#300600009E000000
(1487342025.654267) can0 3CA#FE80080000000000
(1487342025.655267) can0 186#140D01FA003805FA
(1487342025.655267) can0 187#E11408C800200300
(1487342025.655268) can0 18A#0020180114000000
(1487342025.656267) can0 085#7F75800013807F71
(1487342025.657269) can0 3A8#0100271600000000
(1487342025.658267) can0 091#7F0C7F0904E2F000
(1487342025.658267) can0 092#6FAA6FA3737620E2
(1487342025.658268) can0 076#3E87C0800FFF0000
(1487342025.659267) can0 077#0ADD08027FF7FDFE
(1487342025.659267) can0 05D#8357A75F35000000
(1487342025.659268) can0 07D#0000F2D0001FC809
(1487342025.659268) can0 213#FFFF00040001FF40
(1487342025.660268) can0 214#000000000000F2D0
(1487342025.660269) can0 216#5384AB2900000000
(1487342025.660269) can0 217#09480954094C0944
(1487342025.660270) can0 415#0AE0C41108030803
(1487342025.661269) can0 41D#8000600000000000
(1487342025.661270) can0 167#72800710001A0000
(1487342025.661271) can0 4B0#01008000D00000F2
(1487342025.661271) can0 202#0409600060380ADD
(1487342025.661272) can0 204#C0007D02D1000000
(1487342025.662267) can0 42F#7D04002E660F02CF
(1487342025.663517) can0 242#0290200BD1000001
(1487342025.666019) can0 082#7B0814008D804000
(1487342025.667017) can0 085#7F75800012907F71
(1487342025.667018) can0 078#0168800000000000
(1487342025.668018) can0 091#7EFB7F0717E3F000
(1487342025.668019) can0 092#6FA96FA1737820E3
(1487342025.669018) can0 217#09480950094C0944
(1487342025.670642) can0 047#2000000000000000
(1487342025.671643) can0 165#10CC1E0000000000
(1487342025.671644) can0 167#72800710001A0000
(1487342025.672642) can0 178#000001FF0E74CE73
(1487342025.672642) can0 200#00007FF080090000
(1487342025.672643) can0 202#0408680060380ADD
(1487342025.673644) can0 204#C0007D02D1000000
(1487342025.673645) can0 230#300600009E000000
(1487342025.673645) can0 261#0000000000000000
(1487342025.674642) can0 42C#8C40000009B00000
(1487342025.674643) can0 186#140D01FA003805FA
(1487342025.675643) can0 187#E11408C800200300
(1487342025.676642) can0 085#7F75800011A07F71
(1487342025.676642) can0 3CC#3000000000000000
(1487342025.677646) can0 3A8#0100271600000000
(1487342025.678769) can0 091#7EEC7F0428E4F000
(1487342025.678769) can0 076#3E86C0800FFF0000
(1487342025.678770) can0 077#0ADE08037FF7F1FE
(1487342025.678770) can0 07D#0000F1E0001FE807
(1487342025.679767) can0 092#6FAC6FA073781DE4
(1487342025.679768) can0 213#FFFF000400020040
(1487342025.679768) can0 214#000000000000F1E0
(1487342025.679769) can0 216#5B8EB53200000000
(1487342025.680768) can0 217#094C0950094C0948
(1487342025.680769) can0 415#0AE0C81008030803
(1487342025.680769) can0 416#5A00F40001000000
(1487342025.680770) can0 167#72800710001A0000
(1487342025.681769) can0 202#0407700060380ADD
(1487342025.681770) can0 204#C0007D02D1000000
(1487342025.681770) can0 41D#8000600000000000
(1487342025.681774) can0 4B0#01008000E00000F1
(1487342025.684267) can0 3CA#FE80080000000000
(1487342025.685269) can0 05A#00000045F2210000
(1487342025.686270) can0 082#7A0814008D804000
(1487342025.686270) can0 078#0469000000000000
(1487342025.687268) can0 085#7F75800010B07F71
(1487342025.688268) can0 04A#0200000000000000
(1487342025.688269) can0 04B#00C0D8D8D8D8C000
(1487342025.688270) can0 04C#105FFFC000000000
(1487342025.688270) can0 091#7EE17F0135E5F000
(1487342025.689269) can0 092#6FB56FA0737318E5
(1487342025.689270) can0 217#094C0950094C094C
(1487342025.690269) can0 047#2000000000000000
(1487342025.691269) can0 165#10CC1E0000000000
(1487342025.691270) can0 167#72800710001A0000
(1487342025.691270) can0 200#00007FF080080000
(1487342025.692267) can0 202#0405780060380ADE
(1487342025.692268) can0 204#C0007D02D1000000
(1487342025.692268) can0 230#300600009E000000
(1487342025.692269) can0 42F#7D04002E660F02CF
(1487342025.694394) can0 186#140D01FA003805FA
(1487342025.695391) can0 187#E11408C800200300
(1487342025.696392) can0 085#7F7580000FC07F71
(1487342025.697396) can0 3A8#0100271600000000
(1487342025.698392) can0 091#7EE07EFF38E6F000
(1487342025.698393) can0 092#6FBD6FA0736A18E6
(1487342025.698394) can0 076#3E86C0800FFF0000
(1487342025.698394) can0 077#0ADE08027FF7F5FD
(1487342025.699392) can0 07D#0000F0F0001FF7FE
(1487342025.699392) can0 213#FFFF000400020040
(1487342025.699393) can0 214#000000000000F0F0
(1487342025.699393) can0 216#6598BE3C00000000
(1487342025.700519) can0 217#094C0950094C094C
(1487342025.700519) can0 33B#0000000000000000
(1487342025.700520) can0 415#0AE0CC0F08030803
(1487342025.700520) can0 41D#8000600000000000
(1487342025.701521) can0 167#72800610001A0000
(1487342025.701522) can0 202#0414000060380ADE
(1487342025.701522) can0 204#C0007D02D1000000
(1487342025.701523) can0 4B0#01008000F00000F0
(1487342025.703392) can0 242#0290200DD1000001
(1487342025.706020) can0 082#790814008D804000
(1487342025.707017) can0 078#0168800000000000
(1487342025.707017) can0 085#7F7580000ED07F71
(1487342025.707018) can0 3CC#3000000000000000
(1487342025.707018) can0 422#000000933802FE02
(1487342025.708017) can0 423#CDA0000000000000
(1487342025.708018) can0 091#7EE77EFB34E7F000
(1487342025.708018) can0 430#37000ED1C8897700
(1487342025.708018) can0 092#6FC26FA0736616E7
(1487342025.709018) can0 217#094C09500948094C
(1487342025.710268) can0 047#2000000000000000
(1487342025.711267) can0 165#10CC1E0000000000
(1487342025.711268) can0 167#72800710001A0000
(1487342025.711268) can0 200#00007FF080090000
(1487342025.711269) can0 202#0413080060380ADE
(1487342025.712271) can0 204#C0007D02D1000000
(1487342025.712272) can0 230#300600009E000000
(1487342025.714270) can0 3CA#FE80080000000000
(1487342025.715267) can0 186#140D01FA003805FA
(1487342025.715267) can0 187#E11408C800200300
(1487342025.716268) can0 085#7F7580000DE07F71
(1487342025.717394) can0 091#7EF37EF929E8F000
(1487342025.718393) can0 092#6FC36FA0736812E8
(1487342025.718394) can0 3A8#0100271600000000
(1487342025.718394) can0 076#3E86C0800FFF0000
(1487342025.719394) can0 077#0ADF07FF7FF805FD
(1487342025.719394) can0 07D#0000FF00001FB7FD
(1487342025.719395) can0 213#FFFF000400020040
(1487342025.719395) can0 214#000000000000FF00
(1487342025.720393) can0 083#0020000000000000
(1487342025.720394) can0 216#6FA1C84600000000
(1487342025.720394) can0 217#094C094C0948094C
(1487342025.720398) can0 2A1#FFFFFFFF00000000
(1487342025.720398) can0 415#0AE0D00E08030803
(1487342025.721396) can0 167#72800710001A0000
(1487342025.721397) can0 41D#8000600000000000
(1487342025.721397) can0 202#0412100060380ADE
(1487342025.721398) can0 204#C0007D02D1000000
(1487342025.722393) can0 454#3646200372204242
(1487342025.722394) can0 261#0000000000000000
(1487342025.722394) can0 4B0#01008000000000FF
(1487342025.722394) can0 42F#7D04002E660F02CF
(1487342025.724143) can0 42C#8C40000009B00000
(1487342025.726019) can0 082#790814008D804000
(1487342025.726995) can0 085#7F7480000DF07F71
(1487342025.726996) can0 078#0168800000000000
(1487342025.728017) can0 091#7EFD7EFA1DE9F000
(1487342025.728017) can0 092#6FC06FA2736E0CE9
(1487342025.729021) can0 217#094C094C09480948
(1487342025.729021) can0 3A7#0E401A045F700000
(1487342025.730267) can0 047#2000000000000000
(1487342025.731266) can0 165#10CC1E0000000000
(1487342025.731267) can0 167#72800710001A0000
(1487342025.731267) can0 200#00007FF080080000
(1487342025.731268) can0 202#0411180060380ADE
(1487342025.732269) can0 204#C0007D02D1000000
(1487342025.732269) can0 230#300600009E000000
(1487342025.733963) can0 186#140A01FA003805FA
(1487342025.734947) can0 187#E01408C800300300
(1487342025.736107) can0 085#7F7380001E007F70
(1487342025.737108) can0 3CC#3000000000000000
(1487342025.737108) can0 455#A000000000000000
(1487342025.738142) can0 3A8#0100271600000000
(1487342025.738143) can0 091#7F097EFB0EEAF000
(1487342025.738143) can0 092#6FBB6FA273720CEA
(1487342025.739142) can0 076#3E86C0800FFF0000
(1487342025.739143) can0 077#0ADE07FF7FF809FD
(1487342025.739143) can0 07D#0000FE10001FA800
(1487342025.739144) can0 213#FFFF00040001FF40
(1487342025.740142) can0 214#000000000000FE10
(1487342025.740143) can0 216#78ABD24E00000000
(1487342025.740143) can0 217#0948094C09480948
(1487342025.740144) can0 3A6#0E401A045F700000
(1487342025.741146) can0 415#0ADCD41108030803
(1487342025.741147) can0 167#72800610001A0000
(1487342025.741148) can0 202#0410200060380ADE
(1487342025.741148) can0 204#C0007D02D0000000
(1487342025.741149) can0 41D#8000600000000000
(1487342025.742142) can0 4B0#01008000100000FE
(1487342025.743391) can0 242#0290200DD1000001
(1487342025.744392) can0 3CA#FE80080000000000
(1487342025.746019) can0 082#780814008D804000
(1487342025.747019) can0 078#0068000000000000
(1487342025.747019) can0 085#7F7380001C107F71
(1487342025.748017) can0 091#7F127EF906EBF000
(1487342025.748018) can0 092#6FB76FA373750BEB
(1487342025.749017) can0 217#0948094C09480948
(1487342025.750268) can0 047#2000000000000000
(1487342025.751267) can0 05C#005000F7201E0000
(1487342025.751267) can0 165#10CC1E0000000000
(1487342025.751268) can0 167#72800610001A0000
(1487342025.752269) can0 200#00007FF080090000
(1487342025.752269) can0 202#040F280060380ADE
(1487342025.752270) can0 204#C0007D02D0000000
(1487342025.752270) can0 230#300600009E000000
(1487342025.753270) can0 42F#7D04002E660F02CF
(1487342025.754267) can0 186#140A01FA003805FA
(1487342025.754268) can0 187#E01408C800300300
(1487342025.755393) can0 18A#0020180114000000
(1487342025.756394) can0 085#7F7280001D207F70
(1487342025.757767) can0 091#7F147EF606ECF000
(1487342025.758767) can0 092#6FB56FA173780BEC
(1487342025.758768) can0 076#3E84C0800FFF0000
(1487342025.758768) can0 077#0ADE07FF7FF801FD
(1487342025.758769) can0 05D#83578F5F3B000000
(1487342025.759767) can0 07D#0000FD20001FD806
(1487342025.759768) can0 213#FFFF00040001FF40
(1487342025.759769) can0 214#000000000000FD20
(1487342025.759769) can0 216#82B5DA5800000000
(1487342025.760767) can0 217#0948094C09480948
(1487342025.760767) can0 33B#0000000000000000
(1487342025.760768) can0 3A8#0100271600000000
(1487342025.760768) can0 167#72800710001A0000
(1487342025.761770) can0 202#040F300060380ADD
(1487342025.761770) can0 204#C0007D02D0000000
(1487342025.761771) can0 415#0ADDD80F08030803
(1487342025.761771) can0 41D#8000600000000000
(1487342025.762768) can0 4B0#01008000200000FD
(1487342025.766019) can0 078#0168800000000000
(1487342025.767017) can0 082#760814008D804000
(1487342025.767018) can0 085#7F7280001B307F71
(1487342025.767018) can0 3CC#3000000000000000
(1487342025.768017) can0 091#7F097EF412EDF000
(1487342025.768018) can0 092#6FB56FA0737A09ED
(1487342025.768019) can0 217#094C094C0948094C
(1487342025.770269) can0 047#2000000000000000
(1487342025.771268) can0 165#10CC1E0000000000
(1487342025.771269) can0 167#72800710001A0000
(1487342025.772268) can0 178#000001FF0E74CE73
(1487342025.772269) can0 200#00007FF080090000
(1487342025.772269) can0 202#040E380060380ADD
(1487342025.773271) can0 204#C0007D02D0000000
(1487342025.773272) can0 230#300600009E000000
(1487342025.773273) can0 261#0000000000000000
(1487342025.774267) can0 186#140801FA003805FA
(1487342025.774268) can0 187#E01408C800300300
(1487342025.774268) can0 3CA#FE80080000000000
(1487342025.775270) can0 42C#8C40000009B00000
(1487342025.776393) can0 085#7F7180001B407F71
(1487342025.777394) can0 3A8#0100271300000000
(1487342025.778392) can0 091#7EFD7EF41EEEF000
(1487342025.778393) can0 092#6FB66FA073760BEE
(1487342025.778393) can0 076#3E83C0800FFF0000
(1487342025.779392) can0 077#0ADE07FE7FF7FDFD
(1487342025.779392) can0 07D#0000FC30001FF806
(1487342025.779393) can0 213#FFFF00040001FF40
(1487342025.779393) can0 214#000000000000FC30
(1487342025.780392) can0 216#8CBDE46200000000
(1487342025.780392) can0 217#094C094C0948094C
(1487342025.780393) can0 415#0ADEDC0D08020802
(1487342025.780393) can0 416#5B00F30001000000
(1487342025.780394) can0 41D#8000600000000000
(1487342025.781395) can0 167#72800710001A0000
(1487342025.781396) can0 4B0#01008000300000FC
(1487342025.781397) can0 202#040D400060380ADD
(1487342025.781397) can0 204#C0007D02D0000000
(1487342025.782393) can0 5B3#B300FFFFFFFFFFFF
(1487342025.782393) can0 42F#7D04002E660F02CF
(1487342025.783392) can0 242#0290200CD1000001
(1487342025.784892) can0 05A#00000045E8C10000
(1487342025.786021) can0 082#750814008D804000
(1487342025.787017) can0 078#0569800000000000
(1487342025.787018) can0 085#7F7180001A507F71
(1487342025.788017) can0 04A#0200000000000000
(1487342025.788018) can0 04B#00C0D8D8D8D8C000
(1487342025.789018) can0 04C#105FFFC000000000
(1487342025.789018) can0 091#7EFA7EF420EFF000
(1487342025.789019) can0 092#6FB96FA0736B12EF
(1487342025.789019) can0 217#094C094C0948094C
(1487342025.790267) can0 047#2000000000000000
(1487342025.791268) can0 165#10CC1E0000000000
(1487342025.791268) can0 167#72800710001A0000
(1487342025.791269) can0 200#00007FF080080000
(1487342025.791269) can0 202#040C480060380ADD
(1487342025.792268) can0 204#C0007D02D0000000
(1487342025.792269) can0 230#300600009E000000
(1487342025.793521) can0 186#140901FA003805FA
(1487342025.794644) can0 187#E01408C800300300
(1487342025.794647) can0 3D8#0000000080456030
(1487342025.794648) can0 3CD#0000000000000000
(1487342025.796018) can0 085#7F7080001A607F71
(1487342025.797018) can0 3CC#3000000000000000
(1487342025.798017) can0 091#7EFA7EF51EF0F000
(1487342025.799018) can0 092#6FBB6FA0736218F0
(1487342025.799019) can0 076#3E83C0800FFF0000
(1487342025.799019) can0 077#0ADE07FE7FF7FDFD
(1487342025.799019) can0 07D#0000FB40001FE802
(1487342025.799020) can0 213#FFFF00040001FF40
(1487342025.800018) can0 214#000000000000FB40
(1487342025.800019) can0 216#96C7EE6B00000000
(1487342025.800020) can0 217#094C094C09480948
(1487342025.800020) can0 3A8#0100271300000000
(1487342025.801019) can0 415#0ADCE00E08020802
(1487342025.801020) can0 167#72800610001A0000
(1487342025.801021) can0 202#040B500060380ADD
(1487342025.801021) can0 204#C0007D02D0000000
(1487342025.802018) can0 41D#8000600000000000
(1487342025.802018) can0 4B0#01008000400000FB
(1487342025.804267) can0 3CA#FE80080000000000
(1487342025.806019) can0 082#740814008D804000
(1487342025.807017) can0 078#0068000000000000
(1487342025.807018) can0 085#7F70800019707F71
(1487342025.807018) can0 422#000000933802FE02
(1487342025.807019) can0 423#CDA0000000000000
(1487342025.807972) can0 430#37000ED1C8897700
(1487342025.807973) can0 091#7EFB7EF71AF1F000
(1487342025.807974) can0 092#6FBA6F9E736517F1
(1487342025.809018) can0 217#094C094C09480948
(1487342025.810268) can0 047#2000000000000000
(1487342025.811266) can0 165#10CC1E0000000000
(1487342025.811267) can0 167#72800610001A0000
(1487342025.811268) can0 200#00007FF080080000
(1487342025.812269) can0 202#040A580060380ADD
(1487342025.812270) can0 204#C0007D02D0000000
(1487342025.812270) can0 230#300600009E000000
(1487342025.813271) can0 42F#7D04002E660F02CF
(1487342025.813272) can0 084#1100003020250900
(1487342025.814393) can0 186#140901FA003805FA
(1487342025.814393) can0 187#E01408C800300300
(1487342025.816018) can0 085#7F6F80001A807F70
(1487342025.817270) can0 3A8#0100271300000000
(1487342025.818233) can0 091#7EFB7EF818F2F000
(1487342025.818233) can0 092#6FB66F9E73700FF2
(1487342025.818234) can0 076#3E81C0800FFF0000
(1487342025.819269) can0 077#0ADD07FE7FF801FD
(1487342025.819269) can0 07D#0000FA50001F9801
(1487342025.819270) can0 213#FFFF00040001FF40
(1487342025.819270) can0 214#000000000000FA50
(1487342025.820269) can0 083#0020000000000000
(1487342025.820269) can0 216#9ED1F77500000000
(1487342025.820270) can0 217#094C094C09480948
(1487342025.820270) can0 2A1#FFFFFFFF00000000
(1487342025.821271) can0 33B#0000000000000000
(1487342025.821272) can0 167#72800710001A0000
(1487342025.821272) can0 202#040A600060380ADC
(1487342025.821273) can0 204#C0007D02D1000000
(1487342025.822268) can0 415#0ADDE40C08020802
(1487342025.822268) can0 261#0000000000000000
(1487342025.822269) can0 41D#8000600000000000
(1487342025.822269) can0 4B0#01008000500000FA
(1487342025.823518) can0 242#0290200ED1000001
(1487342025.824517) can0 3B3#4048020F10050002
(1487342025.824517) can0 40A#C110409060250000
(1487342025.824518) can0 42C#8C40000009B00000
(1487342025.826020) can0 082#740814008D804000
(1487342025.827020) can0 085#7F6F800018907F71
(1487342025.827021) can0 078#0168800000000000
(1487342025.827021) can0 3CC#3000000000000000
(1487342025.828016) can0 091#7EF77EF81BF3F000
(1487342025.828017) can0 092#6FB36FA073730CF3
(1487342025.829018) can0 217#0948094C09480948
(1487342025.830267) can0 047#2000000000000000
(1487342025.831267) can0 165#10CC1E0000000000
(1487342025.831268) can0 167#72800710001A0000
(1487342025.831268) can0 200#00007FF080080000
(1487342025.831269) can0 202#0409680060380ADC
(1487342025.832269) can0 204#C0007D02D1000000
(1487342025.832269) can0 230#300600009E000000
(1487342025.833395) can0 186#140B01FA003805FA
(1487342025.834393) can0 187#DF1408C800400300
(1487342025.834393) can0 3CA#FE80080000000000
(1487342025.836019) can0 085#7F6F800017A07F71
(1487342025.837145) can0 455#A000000000000000
(1487342025.838142) can0 091#7EF37EF422F4F000
(1487342025.838142) can0 092#6FB06FA2736C13F4
(1487342025.839142) can0 076#3E80C0800FFF0000
(1487342025.839142) can0 077#0ADD07FF7FF7FDFD
(1487342025.839143) can0 07D#0000F960001FD801
(1487342025.839143) can0 213#FFFF00040001FF40
(1487342025.840142) can0 214#000000000000F960
(1487342025.840142) can0 216#A8DA017F00000000
(1487342025.840143) can0 217#0948094C09480948
(1487342025.840143) can0 3A8#0100271000000000
(1487342025.841145) can0 415#0ADEE80A08020802
(1487342025.841146) can0 167#72800710001A0000
(1487342025.841146) can0 41D#8000600000000000
(1487342025.841147) can0 202#0408700060380ADC
(1487342025.841147) can0 204#C0007D02D1000000
(1487342025.842141) can0 4B0#01008000600000F9
(1487342025.842142) can0 42F#7D04002E660F02CF
(1487342025.845895) can0 078#0168800000000000
(1487342025.846892) can0 082#730814008D804000
(1487342025.846892) can0 085#7F6E800018B07F70
(1487342025.847892) can0 091#7EF27EF422F5F000
(1487342025.848892) can0 092#6FB16FA3736616F5
(1487342025.848893) can0 217#094C095009480948
(1487342025.850267) can0 047#2000000000000000
(1487342025.851268) can0 05C#00F000ED201E0000
(1487342025.851269) can0 165#10CC1E0000000000
(1487342025.851270) can0 167#72800610001A0000
(1487342025.851270) can0 200#00007FF080080000
(1487342025.852267) can0 202#0407780060380ADC
(1487342025.852267) can0 204#C0007D02D1000000
(1487342025.852268) can0 230#300600009E000000
(1487342025.853271) can0 186#140801FA003805FA
(1487342025.854268) can0 187#DF1408C800400300
(1487342025.854269) can0 18A#0020180114000000
(1487342025.855980) can0 085#7F6E800017C07F70
(1487342025.857019) can0 3CC#3000000000000000
(1487342025.858017) can0 3A8#0100271000000000
(1487342025.858017) can0 091#7EF57EF41EF6F000
(1487342025.858018) can0 092#6FB46FA473690EF6
(1487342025.858961) can0 076#3E80C0800FFF0000
(1487342025.858962) can0 077#0ADC07FE7FF7F9FD
(1487342025.858963) can0 05D#8357B75F31000000
(1487342025.858963) can0 07D#0000F870001FC800
(1487342025.860017) can0 213#FFFF00040001FF40
(1487342025.860017) can0 214#000000000000F870
(1487342025.860018) can0 216#B3E40B8800000000
(1487342025.860018) can0 217#094C094C09480944
(1487342025.861023) can0 415#0ADFEC0808010801
(1487342025.861024) can0 41D#8000600000000000
(1487342025.861025) can0 167#72800610001A0000
(1487342025.861025) can0 202#0416000060380ADC
(1487342025.862018) can0 204#C0007D02D1000000
(1487342025.862019) can0 4B0#01008000700000F8
(1487342025.863393) can0 242#0290200ED1000001
(1487342025.864393) can0 3CA#FE80080000000000
(1487342025.866017) can0 082#740814008D804000
(1487342025.867017) can0 078#0068000000000000
(1487342025.867017) can0 085#7F6E800015D07F71
(1487342025.868017) can0 091#7EFA7EF418F7F000
(1487342025.868017) can0 092#6FB66FA5736D06F7
(1487342025.868018) can0 217#094C094C09480948
(1487342025.869394) can0 083#0020002000000000
(1487342025.870393) can0 047#2000000000000000
(1487342025.871392) can0 165#10CC1E0000000000
(1487342025.871393) can0 167#72800610001A0000
(1487342025.872518) can0 178#000002000E73CE73
(1487342025.872519) can0 200#00007FF080080000
(1487342025.873517) can0 202#0414080060380ADD
(1487342025.873518) can0 204#C0007D02D1000000
(1487342025.873518) can0 186#140701FA003805FA
(1487342025.873518) can0 187#DF1408C800400300
(1487342025.874517) can0 230#300600009E000000
(1487342025.874517) can0 261#0000000000000000
(1487342025.874518) can0 42C#8C40000009B00000
(1487342025.875517) can0 42F#7D04002E660F02CF
(1487342025.876517) can0 085#7F6D800015E07F71
(1487342025.877520) can0 091#7EFE7EF413F8F000
(1487342025.878517) can0 092#6FB76FA5736F02F8
(1487342025.878518) can0 3A8#0100271000000000
(1487342025.878519) can0 076#3E80C0800FFF0000
(1487342025.878519) can0 077#0ADC07FE7FF7FDFE
(1487342025.879517) can0 07D#0000F780001FB801
(1487342025.879518) can0 213#FFFF00040001FF40
(1487342025.879518) can0 214#000000000000F780
(1487342025.879519) can0 216#BBEE149200000000
(1487342025.880518) can0 217#0948094C09480948
(1487342025.880519) can0 33B#0000000000000000
(1487342025.880519) can0 415#0ADEF00808010801
(1487342025.880519) can0 416#5C00F20001000000
(1487342025.881646) can0 167#72800610001A0000
(1487342025.881647) can0 202#0413100060380ADD
(1487342025.881647) can0 204#C0007D02D1000000
(1487342025.881647) can0 41D#8000600000000000
(1487342025.882642) can0 4B0#01008000800000F7
(1487342025.884895) can0 05A#00000045EE610000
(1487342025.885896) can0 078#0569800000000000
(1487342025.886895) can0 082#750814008D804000
(1487342025.886896) can0 085#7F6D800014F07F71
(1487342025.886896) can0 3CC#3000000000000000
(1487342025.887896) can0 04A#0200000000000000
(1487342025.887897) can0 04B#00C0D8D8D8D8C000
(1487342025.887897) can0 04C#105FFFC000000000
(1487342025.888895) can0 091#7EFF7EF411F9F000
(1487342025.888895) can0 092#6FB86FA1737102F9
(1487342025.888896) can0 217#0948094C094C0948
(1487342025.890267) can0 047#2000000000000000
(1487342025.891267) can0 165#10CC1E0000000000
(1487342025.891268) can0 167#72800610001A0000
(1487342025.891268) can0 200#00007FF080080000
(1487342025.891269) can0 202#0412180060380ADD
(1487342025.892268) can0 204#C0007D02D1000000
(1487342025.892268) can0 230#300600009E000000
(1487342025.893273) can0 186#140601FA003805FA
(1487342025.893274) can0 187#DF1408C800400300
(1487342025.894270) can0 3CA#FE80080000000000
(1487342025.896017) can0 085#7F6C800024007F71
(1487342025.897147) can0 3A8#0100271000000000
(1487342025.898268) can0 091#7EFA7EF415FAF000
(1487342025.898268) can0 092#6FB86F9F737301FA
(1487342025.898269) can0 076#3E80C0800FFF0000
(1487342025.899274) can0 077#0ADC07FE7FF7FDFE
(1487342025.899275) can0 07D#0000F690001FC802
(1487342025.899275) can0 213#FFFF00040001FF40
(1487342025.899276) can0 214#000000000000F690
(1487342025.900267) can0 216#C5F71E9C00000000
(1487342025.900267) can0 217#09480950094C0948
(1487342025.900268) can0 415#0ADAF40B08010801
(1487342025.900269) can0 41D#8000600000000000
(1487342025.901269) can0 4B0#01008000900000F6
(1487342025.901270) can0 167#72800610001A0000
(1487342025.901270) can0 202#0411200060380ADD
(1487342025.901271) can0 204#C0007D02D0000000
(1487342025.902277) can0 42F#7D04002E660F02CF
(1487342025.903393) can0 242#0290200DD1000001
(1487342025.906020) can0 078#0168800000000000
(1487342025.907017) can0 082#760814008D804000
(1487342025.907017) can0 085#7F6B800025107F70
(1487342025.907018) can0 422#000000933802FE02
(1487342025.907018) can0 423#CDA0000000000000
(1487342025.908017) can0 430#37000ED1C8897700
(1487342025.908018) can0 091#7EF47EF41AFBF000
(1487342025.908018) can0 092#6FB56F9D737701FB
(1487342025.908019) can0 217#09480950094C0948
(1487342025.910392) can0 047#2000000000000000
(1487342025.911392) can0 165#10F41F0000000000
(1487342025.911393) can0 167#72800610001A0000
(1487342025.911393) can0 200#00007FF080080000
(1487342025.911394) can0 202#04112800603A0ADC
(1487342025.912392) can0 204#C0007D02D0000000
(1487342025.912393) can0 230#300600009E000000
(1487342025.913392) can0 186#140601FA003805FA
(1487342025.913392) can0 187#DF1408C800400300
(1487342025.916018) can0 085#7F6B800024207F70
(1487342025.917043) can0 3CC#3000000000000000
(1487342025.918017) can0 091#7EEE7EF41FFCF000
(1487342025.918017) can0 092#6FB06FA0737900FC
(1487342025.919017) can0 076#3E7FC0800FFF0000
(1487342025.919017) can0 077#0ADC07FE7FF7FDFD
(1487342025.919018) can0 07D#0000F5A0001FD800
(1487342025.919018) can0 213#FFFF00040001FF40
(1487342025.920019) can0 214#000000000000F5A0
(1487342025.920020) can0 216#CF0128A400000000
(1487342025.920020) can0 083#0020002000000000
(1487342025.920021) can0 217#094C095009500948
(1487342025.921023) can0 2A1#FFFFFFFF00000000
(1487342025.921024) can0 3A8#0100271000000000
(1487342025.921024) can0 415#0AE0F80408000800
(1487342025.921025) can0 167#72800610001A0000
(1487342025.922018) can0 202#04103000603A0ADC
(1487342025.922019) can0 204#C0007D02D0000000
(1487342025.922020) can0 261#0000000000000000
(1487342025.922020) can0 41D#8000600000000000
(1487342025.923018) can0 4B0#01008000A00000F5
(1487342025.924017) can0 42C#8C40000009B00000
(1487342025.925022) can0 3CA#FE80080000000000
(1487342025.926143) can0 082#750814008D804000
(1487342025.927142) can0 078#0068000000000000
(1487342025.927142) can0 085#7F6B800022307F71
(1487342025.928142) can0 091#7EE87EF424FDF000
(1487342025.928142) can0 092#6FAD6FA4737700FD
(1487342025.929144) can0 217#094C095409500948
(1487342025.929145) can0 3A7#0E401A045F700000
(1487342025.930393) can0 047#2000000000000000
(1487342025.931393) can0 165#10F41F0000000000
(1487342025.931393) can0 167#72800610001A0000
(1487342025.931394) can0 200#00007FF080090000
(1487342025.932518) can0 202#040F3800603A0ADC
(1487342025.932518) can0 204#C0007D02D0000000
(1487342025.932519) can0 230#300600009E000000
(1487342025.932519) can0 42F#7D04002E660F02CF
(1487342025.933520) can0 186#140501FA003805FA
(1487342025.933520) can0 187#DE1408C800500300
(1487342025.936020) can0 085#7F6B800021407F71
(1487342025.937018) can0 455#A000000000000000
(1487342025.938020) can0 3A8#0100271000000000
(1487342025.938020) can0 091#7EE57EF426FEF000
(1487342025.938021) can0 092#6FAF6FA6737200FE
(1487342025.939019) can0 076#3E7DC0800FFF0000
(1487342025.939019) can0 077#0ADD07FE7FF7F9FD
(1487342025.939020) can0 07D#0000F4B0001FF7FF
(1487342025.939020) can0 213#FFFF00040001FF40
(1487342025.939997) can0 214#000000000000F4B0
(1487342025.939997) can0 216#D80B30AE00000000
(1487342025.939998) can0 217#094C09500950094C
(1487342025.939998) can0 33B#0000000000000000
(1487342025.941019) can0 3A6#0E401A045F700000
(1487342025.941020) can0 167#728006100019FF00
(1487342025.941023) can0 202#040D4000603A0ADD
(1487342025.941024) can0 204#C0007D02D0000000
(1487342025.942017) can0 415#0AE1FC0208000800
(1487342025.942018) can0 41D#8000600000000000
(1487342025.942018) can0 4B0#01008000B00000F4
(1487342025.943394) can0 242#0290200CD1000001
(1487342025.945892) can0 078#0168800000000000
(1487342025.946892) can0 082#740814008D804000
(1487342025.946893) can0 085#7F6A800022507F70
(1487342025.946894) can0 3CC#3000000000000000
(1487342025.948016) can0 091#7EE07EF42AFFF000
(1487342025.948017) can0 092#6FB46FA5736EFFFF
(1487342025.949022) can0 217#094C09500950094C
(1487342025.950269) can0 047#2000000000000000
(1487342025.951267) can0 05C#009000F3201E0000
(1487342025.951268) can0 165#10F41F0000000000
(1487342025.951269) can0 167#72800610001A0000
(1487342025.951269) can0 200#00007FF080090000
(1487342025.952267) can0 202#040C4800603A0ADD
(1487342025.952268) can0 204#C0007D02CF000000
(1487342025.952268) can0 230#300600009E000000
(1487342025.953395) can0 186#140501FA003805FA
(1487342025.953395) can0 187#DE1408C800500300
(1487342025.953396) can0 18A#0020180114000000
(1487342025.953396) can0 3E5#0000000080000000
(1487342025.954394) can0 3CA#FE80080000000000
(1487342025.956017) can0 085#7F6A800020607F71
(1487342025.957771) can0 091#7EDB7EF42E00F000
(1487342025.958767) can0 092#6FB86FA1736A0200
(1487342025.958767) can0 076#3E7DC0800FFF0000
(1487342025.958768) can0 077#0ADE07FE7FF7F9FE
(1487342025.958768) can0 05D#83579F5F37000000
(1487342025.959767) can0 07D#0000F3C0001FD7FC
(1487342025.959768) can0 213#FFFF00040001FF40
(1487342025.959768) can0 214#000000000000F3C0
(1487342025.959769) can0 216#E2133AB800000000
(1487342025.960766) can0 217#095009500950094C
(1487342025.960767) can0 3A8#0100270D00000000
(1487342025.960768) can0 415#0AE0C01208000800
(1487342025.960768) can0 167#72800610001A0000
(1487342025.961769) can0 41D#8000600000000000
(1487342025.961770) can0 202#040A5000603A0ADE
(1487342025.961771) can0 204#C0007D02CF000000
(1487342025.961771) can0 4B0#01008000C00000F3
(1487342025.962766) can0 42F#7D04002E660F02CF
(1487342025.965894) can0 078#0168800000000000
(1487342025.966892) can0 082#740814008D804000
(1487342025.966893) can0 085#7F6A80001F707F71
(1487342025.967892) can0 091#7EDF7EF42901F000
(1487342025.968893) can0 092#6FBB6F9F736BFF01
(1487342025.968894) can0 217#09500950094C094C
(1487342025.970271) can0 047#2000000000000000
(1487342025.971262) can0 165#10CC1F0000000000
(1487342025.971263) can0 167#72800610001A0000
(1487342025.972263) can0 178#000001FF0E74CE73
(1487342025.972263) can0 200#00007FF0800D0000
(1487342025.972264) can0 186#140401FA003805FA
(1487342025.973389) can0 187#DE1408C800500300
(1487342025.973389) can0 202#04095800603A0ADE
(1487342025.973389) can0 204#C0007D02CF000000
(1487342025.973390) can0 230#300600009E000000
(1487342025.974387) can0 261#0000000000000000
(1487342025.975385) can0 42C#8C40000009B00000
(1487342025.976385) can0 085#7F6980001F807F71
(1487342025.976386) can0 3CC#3000000000000000
(1487342025.977387) can0 3A8#0100270D00000000
(1487342025.978386) can0 091#7EE77EF32102F000
(1487342025.978387) can0 092#6FBC6F9F7371F702
(1487342025.978387) can0 076#3E7CC0800FFF0000
(1487342025.979386) can0 077#0ADE07FE7FF7FDFD
(1487342025.979386) can0 07D#0000F2D0001FB7F9
(1487342025.979387) can0 213#FFFF00040001FF40
(1487342025.979387) can0 214#000000000000F2D0
(1487342025.980394) can0 216#EC1D44C100000000
(1487342025.980395) can0 217#09500950094C094C
(1487342025.980395) can0 415#0AE2C40F08000800
(1487342025.980395) can0 416#5D00F10001000000
(1487342025.981389) can0 167#728006100019FF00
(1487342025.981389) can0 202#04086000603A0ADE
(1487342025.981389) can0 204#C0007D02CF000000
(1487342025.981390) can0 41D#8000600000000000
(1487342025.981390) can0 4B0#01008000D00000F2
(1487342025.983388) can0 242#0290200CD1000001
(1487342025.984385) can0 3CA#FE80080000000000
(1487342025.985386) can0 05A#00000045F4010000
(1487342025.985386) can0 168#0000000000000000
(1487342025.986386) can0 082#740814008D804000
(1487342025.986386) can0 078#0669000000000000
(1487342025.987386) can0 085#7F6980001E907F71
(1487342025.987386) can0 04A#0200000000000000
(1487342025.988386) can0 04B#00C0D8D8D8D8C000
(1487342025.988386) can0 04C#105FFFC000000000
(1487342025.988387) can0 091#7EEF7EF41703F000
(1487342025.988387) can0 092#6FB96F9F7377F303
(1487342025.989386) can0 217#09500950094C094C
(1487342025.990390) can0 047#2000000000000000
(1487342025.991386) can0 165#10CC1F0000000000
(1487342025.991387) can0 167#728006100019FF00
(1487342025.991387) can0 200#00007FF0800D0000
(1487342025.992512) can0 202#04066800603A0ADF
(1487342025.992513) can0 204#C0007D02CF000000
(1487342025.992513) can0 230#300600009E000000
(1487342025.992514) can0 186#140401FA003805FA
(1487342025.993512) can0 187#DE1408C800500300
(1487342025.993512) can0 42F#7D04002E660F02CF
(1487342025.996010) can0 085#7F6980001CA07F72
(1487342025.997763) can0 091#7EF37EF31304F000
(1487342025.998761) can0 092#6FB56F9F7378F504
(1487342025.998761) can0 076#3E7CC0800FFF0000
(1487342025.998762) can0 077#0ADF07FE7FF801FD
(1487342025.998762) can0 07D#0000F1E0001FD7FD
(1487342025.999761) can0 213#FFFF00040001FF40
(1487342025.999762) can0 214#000000000000F1E0
(1487342025.999762) can0 216#F4274DCB00000000
(1487342025.999762) can0 217#095009500948094C
(1487342026.000738) can0 33B#0000000000000000
(1487342026.000739) can0 3A8#0100270D00000000
(1487342026.000739) can0 415#0AE4C80C08000800
(1487342026.000739) can0 167#72800610001A0000
(1487342026.001764) can0 202#04057000603A0ADF
(1487342026.001764) can0 204#C0007D02CF000000
(1487342026.001764) can0 41D#8000600000000000
(1487342026.001765) can0 4B0#01008000E00000F1
(1487342026.005763) can0 078#0168800000000000
(1487342026.006762) can0 082#730814008D804000
(1487342026.006763) can0 085#7F6880001DB07F71
(1487342026.006763) can0 3CC#3000000000000000
(1487342026.006763) can0 422#000000933802FE02
(1487342026.007761) can0 423#CDA0000000000000
(1487342026.007762) can0 430#3F000ED1E8897700
(1487342026.007762) can0 091#7EF27EF11505F000
(1487342026.008761) can0 092#6FB06F9F7377FA05
(1487342026.008762) can0 217#095009500948094C
(1487342026.010263) can0 047#2000000000000000
(1487342026.011261) can0 165#10CC1F0000000000
(1487342026.011262) can0 167#72800610001A0000
(1487342026.011262) can0 200#00007FF0800D0000
(1487342026.011262) can0 202#04037800603A0AE0
(1487342026.012261) can0 204#C0007D02CF000000
(1487342026.012261) can0 230#300600009E000000
(1487342026.012261) can0 186#140401FA003805FA
(1487342026.013388) can0 187#DE1408C800500300
(1487342026.014386) can0 3CA#FE80080000000000
(1487342026.016012) can0 085#7F6880001CC07F71
(1487342026.017263) can0 3A8#0100270D00000000
(1487342026.018263) can0 091#7EEE7EF01906F000
(1487342026.018266) can0 092#6FAC6FA07379FA06
(1487342026.018266) can0 076#3E7CC0800FFF0000
(1487342026.019261) can0 077#0ADF07FE7FF7FDFD
(1487342026.019262) can0 07D#0000F0F0001FF800
(1487342026.019262) can0 213#FFFF00040001FF40
(1487342026.019262) can0 214#000000000000F0F0
(1487342026.020261) can0 216#FE3057D500000000
(1487342026.020262) can0 083#0020002000000000
(1487342026.020262) can0 217#094C095009480950
(1487342026.020262) can0 2A1#FFFFFFFF00000000
(1487342026.021389) can0 415#0AE2CC0D08000800
(1487342026.021389) can0 167#72800610001A0000
(1487342026.021390) can0 41D#8000600000000000
(1487342026.021390) can0 202#04120000603A0AE0
(1487342026.021390) can0 204#C0007D02CF000000
(1487342026.022385) can0 4B0#01008000F00000F0
(1487342026.022386) can0 261#0000000000000000
(1487342026.022386) can0 42F#7D04002E660F02CF
(1487342026.023635) can0 242#0290200CD1000001
(1487342026.024635) can0 40A#C000000805EBEF00
(1487342026.024635) can0 42C#8C40000009B00000
(1487342026.026013) can0 082#730814008D804000
(1487342026.027011) can0 078#0168800000000000
(1487342026.027012) can0 085#7F6880001BD07F71
(1487342026.028013) can0 091#7EE77EF01F07F000
(1487342026.028014) can0 092#6FAE6FA0737CF407
(1487342026.029014) can0 217#0950095009480950
(1487342026.030262) can0 047#2000000000000000
(1487342026.031264) can0 165#10CC1F0000000000
(1487342026.031265) can0 167#72800610001A0000
(1487342026.031265) can0 200#00007FF0800D0000
(1487342026.031265) can0 202#04110800603A0AE0
(1487342026.032263) can0 204#C0007D02D0000000
(1487342026.032263) can0 230#300600009E000000
(1487342026.032264) can0 186#140401FA003805FA
(1487342026.033389) can0 187#DD1408C800600300
(1487342026.036012) can0 085#7F6880001AE07F71
(1487342026.037012) can0 3CC#3000000000000000
(1487342026.038013) can0 455#A000000000000000
(1487342026.038013) can0 3A8#0100270D00000000
(1487342026.038014) can0 091#7EE27EF02308F000
(1487342026.039014) can0 076#3E7AC0800FFF0000
(1487342026.039014) can0 077#0ADF07FD7FF7F5FD
(1487342026.039015) can0 07D#0000FF00001FF7FF
(1487342026.039015) can0 092#6FB76FA17378ED08
(1487342026.040013) can0 213#FFFF00040001FF40
(1487342026.040013) can0 214#000000000000FF00
(1487342026.040014) can0 216#083A61DD00000000
(1487342026.040014) can0 217#0950094C0948094C
(1487342026.041015) can0 415#0AE0D00E07FF07FF
(1487342026.041016) can0 167#72800610001A0000
(1487342026.041016) can0 202#04101000603A0AE0
(1487342026.041016) can0 204#C0007D02D0000000
(1487342026.042011) can0 41D#8000600000000000
(1487342026.042012) can0 4B0#01008000000000FF
(1487342026.044262) can0 3CA#FE80080000000000
(1487342026.045764) can0 078#0068000000000000
(1487342026.046760) can0 082#730814008D804000
(1487342026.046761) can0 085#7F68800019F07F71
(1487342026.047764) can0 091#7EE07EF12309F000
(1487342026.048761) can0 092#6FBF6FA3736CEE09
(1487342026.048762) can0 217#094C094C0948094C
(1487342026.050264) can0 047#2000000000000000
(1487342026.051264) can0 05C#003000F9201E0000
(1487342026.051264) can0 165#10CC1F0000000000
(1487342026.051265) can0 167#72800610001A0000
(1487342026.052261) can0 200#00007FF0800D0000
(1487342026.052262) can0 202#040F1800603A0AE0
(1487342026.052262) can0 186#140401FB003805FB
(1487342026.052263) can0 187#DD1408C800600300
(1487342026.053389) can0 18A#0020180114000000
(1487342026.053390) can0 204#C0007D02D0000000
(1487342026.053390) can0 230#300600009E000000
(1487342026.053393) can0 42F#7D04002E660F02CF
(1487342026.056011) can0 085#7F68800028007F71
(1487342026.057137) can0 3A8#0100270A00000000
(1487342026.058136) can0 091#7EE27EF31E0AF000
(1487342026.058137) can0 092#6FC26FA3735DF90A
(1487342026.058137) can0 076#3E77C0800FFF0000
(1487342026.059138) can0 077#0ADF07FD7FF7FDFD
(1487342026.059138) can0 05D#8357875F3D000000
(1487342026.059139) can0 07D#0000FE10001FF7FB
(1487342026.059139) can0 213#FFFF00040001FF40
(1487342026.060265) can0 214#000000000000FE10
(1487342026.060265) can0 169#0082C00000000000
(1487342026.060265) can0 216#114469E700000000
(1487342026.060266) can0 217#094C094C09480948
(1487342026.061263) can0 33B#0000000000000000
(1487342026.061263) can0 167#72800610001A0000
(1487342026.061264) can0 202#040E2000603A0AE0
(1487342026.061264) can0 204#C0007D02D0000000
(1487342026.062260) can0 415#0ADED40F07FF07FF
(1487342026.062261) can0 41D#8000600000000000
(1487342026.062261) can0 4B0#01008000100000FE
(1487342026.063386) can0 242#0290200AD1000001
(1487342026.065764) can0 078#0168800000000000
(1487342026.066887) can0 082#730814008D804000
(1487342026.066888) can0 085#7F68800027107F71
(1487342026.066888) can0 3CC#3000000000000000
(1487342026.067885) can0 091#7EEA7EF4140BF000
(1487342026.067886) can0 092#6FBF6FA27355040B
(1487342026.068886) can0 217#094C094C09480948
(1487342026.070265) can0 047#2000000000000000
(1487342026.071387) can0 165#10CC1F0000000000
(1487342026.071388) can0 167#72800710001A0000
(1487342026.072386) can0 186#140401FB003905FB
(1487342026.072386) can0 178#000002000E74CE73
(1487342026.072387) can0 187#DD1408C800600300
(1487342026.072387) can0 200#00007FF0800D0000
(1487342026.073388) can0 202#040E2800603A0ADF
(1487342026.073389) can0 204#C0007D02D0000000
(1487342026.073389) can0 230#300600009E000000
(1487342026.073389) can0 261#0000000000000000
(1487342026.074386) can0 42C#8C40000009B00000
(1487342026.074387) can0 3CA#FE80080000000000
(1487342026.076012) can0 085#7F68800026207F71
(1487342026.077388) can0 091#7EF47EF30A0CF000
(1487342026.078385) can0 092#6FB66FA073550E0C
(1487342026.078386) can0 3A8#0100270700000000
(1487342026.078386) can0 076#3E77C0800FFF0000
(1487342026.079386) can0 077#0ADF07FE7FF809FE
(1487342026.079386) can0 07D#0000FD20001F77FE
(1487342026.079387) can0 213#FFFF00040001FF40
(1487342026.079387) can0 214#000000000000FD20
(1487342026.080387) can0 216#1B4D73F100000000
(1487342026.080388) can0 217#0950095009480948
(1487342026.080388) can0 415#0AE0D80C07FE07FE
(1487342026.080388) can0 416#5E00F00001000000
(1487342026.080389) can0 41D#8000600000000000
(1487342026.081390) can0 167#72800710001A0000
(1487342026.081390) can0 4B0#01008000200000FD
(1487342026.081390) can0 202#040D3000603A0ADF
(1487342026.081391) can0 204#C0007D02D0000000
(1487342026.082387) can0 42F#7D04002E660F02CF
(1487342026.084886) can0 05A#00000045EAA10000
(1487342026.085887) can0 078#0569800000000000
(1487342026.086887) can0 082#730814008D804000
(1487342026.086887) can0 085#7F68800025307F71
(1487342026.087885) can0 04A#0200000000000000
(1487342026.087886) can0 04B#00C0D8D8D8D8C000
(1487342026.087886) can0 04C#105FFFC000000000
(1487342026.088887) can0 091#7EF97EF2050DF000
(1487342026.088887) can0 092#6FAF6FA0735A0F0D
(1487342026.088887) can0 217#09500950094C0948
(1487342026.090263) can0 047#2000000000000000
(1487342026.091262) can0 165#10CC1F0000000000
(1487342026.091265) can0 167#72800710001A0000
(1487342026.091265) can0 200#00007FF0800D0000
(1487342026.091266) can0 202#040C3800603A0ADF
(1487342026.092261) can0 186#140401FB003905FB
(1487342026.092261) can0 187#DD1408C800600300
(1487342026.092261) can0 204#C0007D02D0000000
(1487342026.092262) can0 230#300600009E000000
(1487342026.096014) can0 085#7F67800025407F71
(1487342026.097013) can0 3CC#3000000000000000
(1487342026.098011) can0 3A8#0100270700000000
(1487342026.098012) can0 091#7EF77EF1070EF000
(1487342026.098012) can0 092#6FAB6FA27362080E
(1487342026.099011) can0 076#3E77C0800FFF0000
(1487342026.099011) can0 077#0ADE07FE7FF7FDFD
(1487342026.099011) can0 07D#0000FC30001F5800
(1487342026.099012) can0 213#FFFF00040001FF40
(1487342026.100010) can0 214#000000000000FC30
(1487342026.100011) can0 216#25577DFA00000000
(1487342026.100011) can0 217#094C0950094C0948
(1487342026.100011) can0 415#0AE3DC0807FE07FE
(1487342026.101013) can0 41D#8000600000000000
(1487342026.101013) can0 4B0#01008000300000FC
(1487342026.101014) can0 167#72800610001A0100
(1487342026.101014) can0 202#040B4000603A0ADF
(1487342026.101993) can0 204#C0007D02D0000000
(1487342026.103512) can0 242#0290200BD1000001
(1487342026.104511) can0 3CA#FE80080000000000
(1487342026.105888) can0 078#0068000000000000
(1487342026.106885) can0 082#740814008D804000
(1487342026.106886) can0 085#7F67800024507F71
(1487342026.106886) can0 422#000000923802FE02
(1487342026.106886) can0 423#CDA0000000000000
(1487342026.107885) can0 430#37000ED1C889F700
(1487342026.107886) can0 091#7EF27EEE0E0FF000
(1487342026.108885) can0 092#6FAC6FA27364040F
(1487342026.108886) can0 217#094C0950094C0948
(1487342026.110261) can0 047#2000000000000000
(1487342026.111261) can0 165#10CC1F0000000000
(1487342026.111262) can0 167#72800610001A0100
(1487342026.111262) can0 186#140401FB003905FB
(1487342026.112261) can0 187#DD1408C800600300
(1487342026.112261) can0 200#00007FF0800D0000
(1487342026.112262) can0 202#040A4800603A0ADF
(1487342026.112262) can0 204#C0007D02D1000000
(1487342026.113386) can0 230#300600009E000000
(1487342026.113387) can0 42F#7D04002E661002CF
(1487342026.116011) can0 085#7F67800023607F71
(1487342026.117637) can0 091#7EEE7EEC1310F000
(1487342026.118762) can0 092#6FB16FA173610210
(1487342026.118763) can0 076#3E77C0800FFF0000
(1487342026.118763) can0 077#0ADE07FD7FF7F1FD
(1487342026.118763) can0 07D#0000FB40001F9800
(1487342026.119760) can0 213#FFFF00040001FF40
(1487342026.119761) can0 214#000000000000FB40
(1487342026.119761) can0 216#2E61860400000000
(1487342026.119761) can0 083#0020002000000000
(1487342026.120761) can0 217#094C0950094C0948
(1487342026.120762) can0 2A1#FFFFFFFF00000000
(1487342026.120762) can0 33B#0000000000000000
(1487342026.120763) can0 167#72800810001A0100
(1487342026.121761) can0 202#04085000603A0AE0
(1487342026.121761) can0 204#C0007D02D1000000
(1487342026.121761) can0 3A8#0100270700000000
(1487342026.121762) can0 261#0000000000000000
(1487342026.122760) can0 415#0AE0E00A07FE07FE
(1487342026.122761) can0 41D#8000600000000000
(1487342026.122761) can0 4B0#01008000400000FB
(1487342026.123761) can0 42C#8C40000009B00000
(1487342026.125888) can0 078#0168800000000000
(1487342026.126888) can0 082#740814008D804000
(1487342026.126888) can0 085#7F67800022707F71
(1487342026.126888) can0 3CC#3000000000000000
(1487342026.127886) can0 091#7EEE7EED1111F000
(1487342026.127888) can0 092#6FB56FA07362FD11
(1487342026.128887) can0 217#094C094C094C0948
(1487342026.129888) can0 3A7#0E401A045F700000
(1487342026.130885) can0 047#2000000000000000
(1487342026.130886) can0 165#10CC1F0000000000
(1487342026.130886) can0 167#72800810001A0100
(1487342026.131888) can0 186#140401FC003905FC
(1487342026.131888) can0 187#DC1408C800700300
(1487342026.131889) can0 200#00007FF0800F0000
(1487342026.131889) can0 202#04075800603A0AE0
(1487342026.132887) can0 204#C0007D02D1000000
(1487342026.132887) can0 230#300600009E000000
(1487342026.134263) can0 3CA#FE80080000000000
(1487342026.136012) can0 085#7F67800021807F71
(1487342026.137011) can0 455#A000000000000000
(1487342026.138013) can0 3A8#0100270700000000
(1487342026.138013) can0 091#7EEF7EF00C12F000
(1487342026.138014) can0 092#6FB66FA0736AF312
(1487342026.139012) can0 076#3E77C0800FFF0000
(1487342026.139013) can0 077#0ADE07FC7FF7F9FD
(1487342026.139013) can0 07D#0000FA50001F87FF
(1487342026.139013) can0 213#FFFF00040001FF40
(1487342026.140012) can0 214#000000000000FA50
(1487342026.140012) can0 216#386B900E00000000
(1487342026.140013) can0 217#094C094C094C0948
(1487342026.140013) can0 3A6#0E401A045F700000
(1487342026.141015) can0 415#0ADEE40B07FD07FD
(1487342026.141016) can0 167#72800810001A0100
(1487342026.141016) can0 41D#8000600000000000
(1487342026.141016) can0 202#04066000603A0AE0
(1487342026.142137) can0 204#C0007D02D1000000
(1487342026.142137) can0 4B0#01008000500000FA
(1487342026.142138) can0 42F#7D04002E661002CF
(1487342026.143264) can0 242#0290200CD1000001
(1487342026.145763) can0 078#0168800000000000
(1487342026.146761) can0 082#740814008D804000
(1487342026.146761) can0 085#7F66800021907F71
(1487342026.147762) can0 091#7EEE7EF40813F000
(1487342026.148763) can0 092#6FB56FA07372EB13
(1487342026.148763) can0 217#094C0950094C094C
(1487342026.150265) can0 047#2000000000000000
(1487342026.151262) can0 05C#00D000EF201E0000
(1487342026.151263) can0 165#10CC1F0000000000
(1487342026.151263) can0 186#140401FC003905FC
(1487342026.151264) can0 167#72800810001A0100
(1487342026.152261) can0 187#DC1408C800700300
(1487342026.152262) can0 18A#0020180114000000
(1487342026.152262) can0 200#00007FF0800F0000
(1487342026.152263) can0 202#04066800603A0ADF
(1487342026.153386) can0 204#C0007D02D2000000
(1487342026.153386) can0 230#300600009E000000
(1487342026.156011) can0 085#7F66800020A07F71
(1487342026.157012) can0 3CC#3000000000000000
(1487342026.158011) can0 3A8#0100270700000000
(1487342026.158012) can0 091#7EEB7EF40A14F000
(1487342026.158012) can0 092#6FB16FA07371EF14
(1487342026.159010) can0 076#3E77C0800FFF0000
(1487342026.159011) can0 077#0ADE07FD7FF7FDFD
(1487342026.159012) can0 05D#8357AF5F33000000
(1487342026.159012) can0 07D#0000F960001FB7FF
(1487342026.160011) can0 213#FFFF00040001FF40
(1487342026.160012) can0 214#000000000000F960
(1487342026.160012) can0 216#42739A1700000000
(1487342026.160012) can0 217#094C0950094C094C
(1487342026.161013) can0 415#0AE0E80807FD07FD
(1487342026.161013) can0 41D#8000600000000000
(1487342026.161014) can0 167#72800810001A0200
(1487342026.161014) can0 202#04057000603A0ADF
(1487342026.162012) can0 204#C0007D02D2000000
(1487342026.162012) can0 4B0#01008000600000F9
(1487342026.164261) can0 3CA#FE80080000000000
(1487342026.165638) can0 078#0068000000000000
(1487342026.166637) can0 082#740814008D804000
(1487342026.166640) can0 085#7F6680001FB07F71
(1487342026.167761) can0 091#7EE77EF40D15F000
(1487342026.168761) can0 092#6FAD6FA0736CF715
(1487342026.168761) can0 217#094C095409500948
(1487342026.168761) can0 596#9600FFFFFFFFFFFF
(1487342026.170512) can0 186#140401FC003A05FC
(1487342026.171512) can0 047#2000000000000000
(1487342026.171513) can0 187#DC1408C800700300
(1487342026.171513) can0 165#10CC1F0000000000
(1487342026.172513) can0 167#72800810001A0200
(1487342026.172514) can0 178#000002010E74CE73
(1487342026.173517) can0 200#00007FF080110000
(1487342026.173517) can0 202#04047800603A0ADF
(1487342026.173518) can0 204#C0007D02D3000000
(1487342026.173518) can0 230#300600009E000000
(1487342026.174511) can0 261#0000000000000000
(1487342026.174511) can0 42C#8C40000009B00000
(1487342026.175511) can0 42F#7D04002E661002CF
(1487342026.176638) can0 085#7F6680001EC07F71
(1487342026.177637) can0 3A8#0100270700000000
(1487342026.178635) can0 091#7EE07EF11616F000
(1487342026.178636) can0 092#6FAD6FA0736BF716
(1487342026.178636) can0 076#3E76C0800FFF0000
(1487342026.178637) can0 077#0ADE07FE7FF7F9FD
(1487342026.179635) can0 07D#0000F870001FD7FE
(1487342026.179636) can0 213#FFFF00040001FF40
(1487342026.179636) can0 214#000000000000F870
(1487342026.179636) can0 216#4C7DA32100000000
(1487342026.180636) can0 217#094C095409500948
(1487342026.180637) can0 33B#0000000000000000
(1487342026.180637) can0 415#0AE3EC0407FD07FD
(1487342026.180637) can0 416#5F00EF0001000000
(1487342026.181639) can0 167#72800910001A0200
(1487342026.181639) can0 202#04130000603A0ADF
(1487342026.181640) can0 204#C0007D02D3000000
(1487342026.181640) can0 41D#8000600000000000
(1487342026.182636) can0 41E#0000000000000000
(1487342026.182637) can0 4B0#01008000700000F8
(1487342026.183637) can0 242#0290200DD1000001
(1487342026.184886) can0 05A#00000045F0410000
(1487342026.185889) can0 078#0569800000000000
(1487342026.186886) can0 082#740814008D804000
(1487342026.186886) can0 085#7F6580001ED07F71
(1487342026.186886) can0 3CC#3000000000000000
(1487342026.188011) can0 04A#0200000000000000
(1487342026.188012) can0 04B#00C0D8D8D8D8C000
(1487342026.188012) can0 04C#105FFFC000000000
(1487342026.189011) can0 091#7EDC7EEE1C17F000
(1487342026.189012) can0 092#6FB16FA2736FEC17
(1487342026.189012) can0 217#0950095409500948
(1487342026.190262) can0 047#2000000000000000
(1487342026.191265) can0 186#140401FC003A05FC
(1487342026.191265) can0 165#10CC1F0000000000
(1487342026.191265) can0 167#72800910001A0200
(1487342026.191266) can0 187#DC1408C800700300
(1487342026.192262) can0 200#00007FF080110000
(1487342026.192263) can0 202#04120800603A0ADF
(1487342026.192263) can0 204#C0007D02D4000000
(1487342026.192264) can0 230#300600009E000000
(1487342026.194261) can0 3CA#FE80080000000000
(1487342026.196011) can0 085#7F6580001DE07F71
(1487342026.197263) can0 3A8#0100270700000000
(1487342026.198262) can0 091#7EDF7EEE1818F000
(1487342026.198263) can0 092#6FB66FA37371E318
(1487342026.198263) can0 076#3E76C0800FFF0000
(1487342026.199262) can0 077#0ADF07FD7FF7F5FD
(1487342026.199262) can0 07D#0000F780001FB7FB
(1487342026.199262) can0 213#FFFF00040001FF40
(1487342026.199263) can0 214#000000000000F780
(1487342026.200262) can0 216#5487AD2B00000000
(1487342026.200262) can0 217#095009540950094C
(1487342026.200263) can0 415#0AE6F00007FC07FC
(1487342026.200263) can0 41D#8000600000000000
(1487342026.201265) can0 4B0#01008000800000F7
(1487342026.201265) can0 167#72800910001A0200
(1487342026.201265) can0 202#04101000603A0AE0
(1487342026.201266) can0 204#C0007D02D4000000
(1487342026.202262) can0 42F#7D04002E661002D0
(1487342026.203229) can0 456#8000000000000000
(1487342026.205764) can0 078#0168800000000000
(1487342026.206762) can0 422#000000923802FE02
(1487342026.206762) can0 082#740814008D804000
(1487342026.206763) can0 085#7F6580001CF07F71
(1487342026.206763) can0 423#CDA0000000000000
(1487342026.207761) can0 430#37000ED1C8897700
(1487342026.207761) can0 091#7EE67EEE1019F000
(1487342026.208760) can0 092#6FBA6FA4736EE019
(1487342026.208761) can0 217#095009540950094C
(1487342026.210263) can0 186#140401FC003A05FC
(1487342026.211261) can0 047#2000000000000000
(1487342026.211261) can0 165#10CC1F0000000000
(1487342026.211262) can0 167#72800910001A0200
(1487342026.211262) can0 187#DC1408C800700300
(1487342026.212262) can0 200#00007FF080110000
(1487342026.212262) can0 202#040E1800603A0AE1
(1487342026.212263) can0 204#C0007D02D4000000
(1487342026.212263) can0 230#300600009E000000
(1487342026.215979) can0 085#7F6580002B007F71
(1487342026.216962) can0 3CC#3000000000000000
(1487342026.217950) can0 3A8#0100270700000000
(1487342026.217950) can0 091#7EEE7EF1041AF000
(1487342026.217951) can0 092#6FBC6FA47366E51A
(1487342026.218969) can0 076#3E74C0800FFF0000
(1487342026.218969) can0 077#0AE007FC7FF7FDFE
(1487342026.218970) can0 07D#0000F690001FD7FA
(1487342026.218970) can0 213#FFFF000400020040
(1487342026.219971) can0 214#000000000000F690
(1487342026.219972) can0 216#5E90B73300000000
(1487342026.219972) can0 083#0020002000000000
(1487342026.219972) can0 217#095009500950094C
(1487342026.220974) can0 2A1#FFFFFFFF00000000
(1487342026.220974) can0 415#0AE3F40207FC07FC
(1487342026.220975) can0 167#72800A10001A0200
(1487342026.220975) can0 202#040D2000603A0AE1
(1487342026.222011) can0 204#C0007D02D4000000
(1487342026.222011) can0 41D#8000600000000000
(1487342026.222012) can0 261#0000000000000000
(1487342026.222012) can0 4B0#01008000900000F6
(1487342026.223387) can0 242#0290200DD1000001
(1487342026.224386) can0 3CA#FE80080000000000
(1487342026.225388) can0 3EB#7E04140000200000
(1487342026.225388) can0 40A#C100334641365030
(1487342026.225388) can0 42C#8C40000009B00000
(1487342026.226388) can0 082#750814008D804000
(1487342026.226388) can0 085#7F6580002A107F71
(1487342026.226389) can0 078#0068000000000000
(1487342026.227760) can0 091#7EF57EF1FC1BF000
(1487342026.228760) can0 092#6FBB6FA07360EF1B
(1487342026.228761) can0 217#095409540950094C
(1487342026.230013) can0 186#140401FC003A05FC
(1487342026.231012) can0 187#DB1408C800800300
(1487342026.231013) can0 047#2000000000000000
(1487342026.231013) can0 165#10CC1F0000000000
(1487342026.231014) can0 167#72800A10001A0200
(1487342026.232012) can0 200#00007FF080110000
(1487342026.232012) can0 202#040C2800603A0AE1
(1487342026.232012) can0 204#C0007D02D4000000
(1487342026.233011) can0 230#300600009E000000
(1487342026.233012) can0 42F#7D04002E661102D0
(1487342026.236012) can0 085#7F65800029207F71
(1487342026.237098) can0 455#A000000000000000
(1487342026.238017) can0 3A8#0100270400000000
(1487342026.238019) can0 091#7EFA7EF0F71CF000
(1487342026.238019) can0 092#6FB56F9E7365F11C
(1487342026.239018) can0 076#3E74C0800FFF0000
(1487342026.239019) can0 077#0AE107FD7FF801FE
(1487342026.239023) can0 07D#0000F5A0001FA7FF
(1487342026.239024) can0 213#FFFF000400020040
(1487342026.240018) can0 214#000000000000F5A0
(1487342026.240019) can0 216#689ABF3D00000000
(1487342026.240019) can0 217#0954095809500950
(1487342026.240020) can0 33B#0000000000000000
(1487342026.241021) can0 415#0AE4F80007FC07FC
(1487342026.241022) can0 41D#8000600000000000
(1487342026.241023) can0 167#72800A10001A0200
(1487342026.241024) can0 202#040B3000603A0AE1
(1487342026.242017) can0 204#C0007D02D5000000
(1487342026.242018) can0 4B0#01008000A00000F5
(1487342026.245521) can0 078#0168800000000000
(1487342026.246644) can0 082#760814008D804000
(1487342026.246645) can0 085#7F65800028307F71
(1487342026.246646) can0 3CC#3000000000000000
(1487342026.247767) can0 091#7EF77EEEFB1DF000
(1487342026.248767) can0 092#6FAE6F9E7374E81D
(1487342026.248768) can0 217#095009580950094C
(1487342026.250142) can0 186#140401FC003A05FC
(1487342026.251142) can0 047#2000000000000000
(1487342026.251143) can0 05C#007000F5201E0000
(1487342026.251144) can0 165#10CC1F0000000000
(1487342026.251144) can0 167#72800A10001A0300
(1487342026.252143) can0 187#DB1408C800800300
(1487342026.252144) can0 18A#0020180114000000
(1487342026.252145) can0 200#00007FF080110000
(1487342026.252146) can0 202#04093800603A0AE2
(1487342026.253109) can0 204#C0007D02D5000000
(1487342026.253110) can0 230#300600009E000000
(1487342026.254228) can0 3CA#FE80080000000000
(1487342026.255984) can0 085#7F65800027407F71
(1487342026.257646) can0 3A8#0100270400000000
(1487342026.258642) can0 091#7EF37EEB011EF000
(1487342026.258643) can0 092#6FAC6FA0737EDD1E
(1487342026.258644) can0 076#3E74C0800FFF0000
(1487342026.258645) can0 05D#8357975F39000000
(1487342026.259643) can0 077#0AE207FD7FF7FDFD
(1487342026.259644) can0 07D#0000F4B0001FA801
(1487342026.259645) can0 213#FFFF000400020040
(1487342026.259646) can0 214#000000000000F4B0
(1487342026.260642) can0 216#71A4C94700000000
(1487342026.260643) can0 217#0954095809500950
(1487342026.260644) can0 415#0AE8FCFB07FC07FC
(1487342026.260644) can0 167#72800A10001A0300
(1487342026.261644) can0 41D#8000600000000000
(1487342026.261645) can0 202#04084000603A0AE2
(1487342026.261646) can0 204#C0007D02D4000000
(1487342026.261646) can0 4B0#01008000B00000F4
(1487342026.262643) can0 42F#7D04002E661102D0
(1487342026.263645) can0 242#0290200DD1000001
(1487342026.265646) can0 078#0168800000000000
(1487342026.266642) can0 082#760814008D804000
(1487342026.266643) can0 085#7F65800026507F71
(1487342026.267642) can0 091#7EEF7EEA051FF000
(1487342026.268769) can0 092#6FB06FA4737AD81F
(1487342026.268770) can0 217#09500954094C094C
(1487342026.270022) can0 186#140401FC003A05FC
(1487342026.271017) can0 187#DB1408C800800300
(1487342026.271018) can0 047#2000000000000000
(1487342026.271019) can0 165#10CC1F0000000000
(1487342026.272019) can0 188#4000000000000000
(1487342026.272020) can0 167#72800A10001A0300
(1487342026.272020) can0 178#000002000E74CE73
(1487342026.273022) can0 200#00007FF080110000
(1487342026.273023) can0 202#04064800603A0AE3
(1487342026.273024) can0 204#C0007D02D4000000
(1487342026.273024) can0 230#300600009E000000
(1487342026.274017) can0 261#0000000000000000
(1487342026.275017) can0 42C#8C40000009B00000
(1487342026.276144) can0 085#7F65800025607F71
(1487342026.277146) can0 3CC#3000000000000000
(1487342026.278142) can0 3A8#0100270400000000
(1487342026.278148) can0 091#7EF07EED0020F000
(1487342026.278148) can0 092#6FB76FA7736ED920
(1487342026.279145) can0 076#3E74C0800FFF0000
(1487342026.279146) can0 077#0AE207FB7FF7F5FD
(1487342026.279147) can0 07D#0000F3C0002017FF
(1487342026.279147) can0 213#FFFF000400020040
(1487342026.280142) can0 214#000000000000F3C0
(1487342026.280143) can0 216#7BACD35000000000
(1487342026.280144) can0 217#09540950094C094C
(1487342026.280145) can0 415#0AE5C00D07FC07FC
(1487342026.280146) can0 416#5000FE0001000000
(1487342026.281146) can0 41D#8000600000000000
(1487342026.281147) can0 167#72800B10001A0300
(1487342026.281147) can0 202#04055000603A0AE3
(1487342026.281148) can0 204#C0007D02D6000000
(1487342026.282142) can0 4B0#01008000C00000F3
(1487342026.284643) can0 3CA#FE80080000000000
(1487342026.285648) can0 05A#00000045E6E10000
(1487342026.286642) can0 078#0469000000000000
(1487342026.286643) can0 082#770814008D804000
(1487342026.286644) can0 085#7F65800024707F71
(1487342026.287642) can0 04A#0200000000000000
(1487342026.288644) can0 04B#00C0D8D8D8D8C000
(1487342026.288645) can0 04C#105FFFC000000000
(1487342026.288646) can0 091#7EF37EEFFA21F000
(1487342026.288647) can0 092#6FBB6FA77368DA21
(1487342026.289771) can0 217#09500950094C0950
(1487342026.290770) can0 186#140401FC003A05FC
(1487342026.290771) can0 187#DB1408C800800300
(1487342026.290771) can0 047#2000000000000000
(1487342026.290772) can0 165#10CC1F0000000000
(1487342026.291767) can0 167#72800B10001A0300
(1487342026.291769) can0 200#00007FF080110000
(1487342026.291769) can0 202#04035800603A0AE4
(1487342026.292769) can0 204#C0007D02D6000000
(1487342026.292770) can0 230#300600009E000000
(1487342026.292770) can0 42F#7D04002E661102D0
(1487342026.296021) can0 085#7F65800023807F71
(1487342026.297271) can0 3A8#0100270400000000
(1487342026.298267) can0 091#7EF77EEFF522F000
(1487342026.298268) can0 092#6FBA6FA3736BDB22
(1487342026.298269) can0 076#3E74C0800FFF0000
(1487342026.299269) can0 077#0AE307FC7FF7FDFF
(1487342026.299270) can0 07D#0000F2D0001FC7FF
(1487342026.299271) can0 213#FFFF000400020040
(1487342026.299272) can0 214#000000000000F2D0
(1487342026.300267) can0 216#85B7DC5A00000000
(1487342026.300268) can0 217#0950095009480950
(1487342026.300269) can0 33B#0000000000000000
(1487342026.300269) can0 415#0AE1C41007FB07FB
(1487342026.301397) can0 41D#8000600000000000
(1487342026.301399) can0 167#72800B10001A0300
(1487342026.301399) can0 202#04026000603A0AE4
(1487342026.301400) can0 204#C0007D02D6000000
(1487342026.301400) can0 4B0#01008000D00000F2
(1487342026.303268) can0 242#0290200ED1000001
(1487342026.305019) can0 59E#9E00FFFFFFFFFFFF
(1487342026.306018) can0 078#0168800000000000
(1487342026.307143) can0 082#780814008D804000
(1487342026.307144) can0 085#7F65800022907F71
(1487342026.307145) can0 3CC#3000000000000000
(1487342026.307146) can0 422#000000923802FE02
(1487342026.307146) can0 423#CDA0000000000000
(1487342026.308143) can0 430#37000ED1C8897700
(1487342026.308144) can0 091#7EF97EEEF323F000
(1487342026.308145) can0 092#6FB66FA07370DC23
(1487342026.308145) can0 217#09500950094C0950
(1487342026.309146) can0 43A#0000020000000000
(1487342026.310142) can0 186#140401FC003A05FC
(1487342026.310143) can0 187#DB1408C800800300
(1487342026.311142) can0 047#2000000000000000
(1487342026.311143) can0 165#10CC1F0000000000
(1487342026.311144) can0 167#72800B10001A0400
(1487342026.311149) can0 200#00007FF080110000
(1487342026.312143) can0 202#04026800603A0AE3
(1487342026.312143) can0 204#C0007D02D6000000
(1487342026.312144) can0 230#300600009E000000
(1487342026.314226) can0 3CA#FE80080000000000
(1487342026.315964) can0 085#7F65800021A07F71
(1487342026.317146) can0 3A8#0100270400000000
(1487342026.318142) can0 091#7EF47EEDF824F000
(1487342026.318143) can0 092#6FB36FA07372DC24
(1487342026.319143) can0 076#3E74C0800FFF0000
(1487342026.319144) can0 077#0AE307FC7FF801FE
(1487342026.319144) can0 07D#0000F1E0001FB801
(1487342026.319145) can0 213#FFFF000400020040
(1487342026.320143) can0 214#000000000000F1E0
(1487342026.320144) can0 216#8EC1E66400000000
(1487342026.320145) can0 083#0020002000000000
(1487342026.320145) can0 217#09500950094C094C
(1487342026.320146) can0 2A1#FFFFFFFF00000000
(1487342026.321146) can0 415#0AE2C80E07FB07FB
(1487342026.321147) can0 167#72800B10001A0400
(1487342026.321148) can0 41D#8000600000000000
(1487342026.321148) can0 202#04027000603A0AE2
(1487342026.322143) can0 204#C0007D02D6000000
(1487342026.322144) can0 4B0#01008000E00000F1
(1487342026.322145) can0 261#0000000000000000
(1487342026.323142) can0 42F#7D04002E661202D0
(1487342026.324142) can0 3B3#4048020F10050002
(1487342026.324144) can0 3C3#60C0000000004000
(1487342026.325272) can0 42C#8C40000009B00000
(1487342026.326269) can0 082#770814008D804000
(1487342026.326271) can0 078#0168800000000000
(1487342026.327267) can0 085#7F65800020B07F71
(1487342026.328269) can0 091#7EED7EEB0025F000
(1487342026.328270) can0 092#6FB16F9F7375DB25
(1487342026.328271) can0 217#0950095409480948
(1487342026.329271) can0 3A7#0E401A045F700000
(1487342026.330269) can0 186#140701FC003A05FC
(1487342026.330270) can0 187#DA1408C800900300
(1487342026.330271) can0 047#2000000000000000
(1487342026.331267) can0 165#10CC1F0000000000
(1487342026.331268) can0 167#72800C10001A0400
(1487342026.331269) can0 200#00007FF080110000
(1487342026.331269) can0 202#04017800603A0AE2
(1487342026.332396) can0 204#C0007D02D6000000
(1487342026.332397) can0 230#300600009E000000
(1487342026.336021) can0 085#7F64800021C07F70
(1487342026.337022) can0 3CC#3000000000000000
(1487342026.338017) can0 3E2#0000000080000000
(1487342026.338018) can0 455#A000000000000000
(1487342026.338019) can0 091#7EE37EEB0926F000
(1487342026.339017) can0 092#6FB26F9E7378D726
(1487342026.339018) can0 076#3E74C0800FFF0000
(1487342026.339019) can0 077#0AE307FC7FF7FDFD
(1487342026.339020) can0 07D#0000F0F0001FD7FF
(1487342026.339020) can0 213#FFFF00040001FF40
(1487342026.340017) can0 214#000000000000F0F0
(1487342026.340018) can0 216#98C9F06D00000000
(1487342026.340019) can0 217#09500950094C0948
(1487342026.340019) can0 3A6#0E401A045F700000
(1487342026.341022) can0 3A8#0100270400000000
(1487342026.341023) can0 415#0AE5CC0A07FB07FB
(1487342026.341024) can0 167#72800C10001A0400
(1487342026.341024) can0 202#04100000603A0AE2
(1487342026.342018) can0 204#C0007D02D7000000
(1487342026.342019) can0 41D#8000600000000000
(1487342026.342020) can0 4B0#01008000F00000F0
(1487342026.343268) can0 242#0290200ED1000001
(1487342026.344393) can0 3CA#FE80080000000000
(1487342026.345771) can0 078#0068000000000000
(1487342026.346770) can0 082#760814008D804000
(1487342026.346771) can0 085#7F64800020D07F70
(1487342026.347772) can0 091#7EDB7EEB1027F000
(1487342026.348770) can0 092#6FB16FA07379D427
(1487342026.348776) can0 217#09540950094C0948
(1487342026.349772) can0 186#140901FC003A05FC
(1487342026.349773) can0 187#DA1408C800900300
(1487342026.350767) can0 18A#0020180114000000
(1487342026.350768) can0 047#2000000000000000
(1487342026.350769) can0 05C#001000FB201E0000
(1487342026.350769) can0 165#10CC1F0000000000
(1487342026.351769) can0 167#72800C10001A0400
(1487342026.351770) can0 200#00007FF080110000
(1487342026.351771) can0 202#040F0800603A0AE2
(1487342026.352892) can0 204#C0007D02D7000000
(1487342026.352893) can0 230#300600009E000000
(1487342026.352894) can0 42F#7D04002E661202D0
(1487342026.356019) can0 085#7F6480001FE07F70
(1487342026.357148) can0 3A8#0100270400000000
(1487342026.358142) can0 091#7ED57EE91728F000
(1487342026.358143) can0 092#6FB36FA27376D228
(1487342026.359143) can0 076#3E73C0800FFF0000
(1487342026.359144) can0 077#0AE207FB7FF7F9FD
(1487342026.359144) can0 05D#8357BF5F2F000000
(1487342026.359145) can0 07D#0000FF00001FF7FB
(1487342026.359146) can0 213#FFFF00040001FF40
(1487342026.360142) can0 214#000000000000FF00
(1487342026.360143) can0 216#A2D3F97700000000
(1487342026.360144) can0 217#09500954094C094C
(1487342026.360145) can0 33B#0000000000000000
(1487342026.361089) can0 415#0AE4D00A07FB07FB
(1487342026.361090) can0 167#72800C10001A0400
(1487342026.361090) can0 202#040D1000604B0AE3
(1487342026.361091) can0 204#C0007D02D7000000
(1487342026.362142) can0 41D#8000600000000000
(1487342026.362144) can0 4B0#01008000000000FF
(1487342026.365532) can0 078#0168800000000000
(1487342026.366528) can0 082#750814008D804000
(1487342026.366529) can0 085#7F6480001DF07F71
(1487342026.366529) can0 3CC#3000000000000000
(1487342026.367751) can0 091#7ED07EE71D29F000
(1487342026.368777) can0 092#6FB56FA67374CD29
(1487342026.368778) can0 217#09500954094C094C
(1487342026.369776) can0 186#140A01FC003A05FC
(1487342026.369777) can0 187#DA1408C800900300
(1487342026.370778) can0 047#2000000000000000
(1487342026.371778) can0 165#10CC280000000000
(1487342026.371779) can0 167#72800C10001A0400
(1487342026.371779) can0 178#000002000E74CE73
(1487342026.372777) can0 200#00007FF080110000
(1487342026.372778) can0 265#2001010410000000
(1487342026.372779) can0 202#040C1800604B0AE3
(1487342026.372780) can0 204#C0007D02D7000000
(1487342026.373781) can0 230#300600009E000000
(1487342026.373782) can0 261#0000000000000000
(1487342026.373782) can0 453#3257364570646166
(1487342026.373783) can0 42C#8C40000009B00000
(1487342026.374777) can0 3CA#FE80080000000000
(1487342026.376028) can0 085#7F6480002C007F71
(1487342026.377406) can0 3A8#0100270400000000
(1487342026.378403) can0 091#7ECB7EE7212AF000
(1487342026.378404) can0 092#6FB66FA87375C82A
(1487342026.378404) can0 076#3E73C0800FFF0000
(1487342026.379401) can0 077#0AE107FA7FF7FDFD
(1487342026.379402) can0 07D#0000FE10001FE7F7
(1487342026.379403) can0 213#FFFF00040001FF40
(1487342026.379403) can0 214#000000000000FE10
(1487342026.380401) can0 216#AADD038100000000
(1487342026.380403) can0 217#095009500950094C
(1487342026.380403) can0 415#0AE4D40907FB07FB
(1487342026.380404) can0 416#5100FD0001000000
(1487342026.380404) can0 41D#8000600000000000
(1487342026.381407) can0 167#72800C10001A0400
(1487342026.381408) can0 4B0#01008000100000FE
(1487342026.381409) can0 202#040B2000604B0AE3
(1487342026.381409) can0 204#C0007D02D8000000
(1487342026.382403) can0 42F#7D04002E661202D1
(1487342026.383403) can0 242#0290200CD1000001
(1487342026.384403) can0 350#0000000000000000
(1487342026.384404) can0 3E0#0000000080000000
(1487342026.385420) can0 05A#00000045EC810000
(1487342026.386528) can0 082#750814008D804000
(1487342026.386529) can0 085#7F6480002B107F71
(1487342026.386529) can0 078#0569800000000000
(1487342026.387752) can0 04A#0200000000000000
(1487342026.388735) can0 04B#00C0D8D8D8D8C000
(1487342026.388736) can0 04C#105FFFC000000000
(1487342026.388736) can0 091#7EC37EE7282BF000
(1487342026.388737) can0 092#6FB86FA97374C52B
(1487342026.389776) can0 217#0950095409500948
(1487342026.389777) can0 186#140B01FC003A05FC
(1487342026.389778) can0 187#DA1408C800900300
(1487342026.390778) can0 047#2000000000000000
(1487342026.390779) can0 165#10CC280000000000
(1487342026.391777) can0 167#72800C10001A0400
(1487342026.391778) can0 200#00007FF080110000
(1487342026.391778) can0 202#040A2800604B0AE3
(1487342026.391779) can0 204#C0007D02D8000000
(1487342026.392778) can0 230#300600009E000000
(1487342026.396031) can0 085#7F6480002A207F71
(1487342026.397029) can0 3CC#3000000000000000
(1487342026.398030) can0 3A8#0100270400000000
(1487342026.398031) can0 091#7EBB7EEB2B2CF000
(1487342026.398032) can0 092#6FB86FA77370CA2C
(1487342026.399029) can0 076#3E73C0800FFF0000
(1487342026.399030) can0 077#0AE207FA7FF7FDFF
(1487342026.399030) can0 07D#0000FD20001FE7F4
(1487342026.399031) can0 213#FFFF00040001FF40
(1487342026.400026) can0 214#000000000000FD20
(1487342026.400027) can0 216#B4E60D8900000000
(1487342026.400028) can0 217#094C09540950094C
(1487342026.400028) can0 415#0AE2D80A07FB07FB
(1487342026.401032) can0 41D#8000600000000000
(1487342026.401034) can0 4B0#01008000200000FD
(1487342026.401034) can0 167#72800D10001A0400
(1487342026.401035) can0 202#04093000604B0AE3
(1487342026.402028) can0 204#C0007D02D9000000
(1487342026.404277) can0 3CA#FE80080000000000
(1487342026.405530) can0 078#0068000000000000
(1487342026.406527) can0 422#000000923802FE02
(1487342026.406528) can0 082#760814008D804000
(1487342026.406529) can0 085#7F6380002A307F71
(1487342026.406529) can0 423#CDA0000000000000
(1487342026.407527) can0 430#37000ED1C8897700
(1487342026.407528) can0 431#057B00A609800002
(1487342026.407529) can0 091#7EB87EEE2A2DF000
(1487342026.408527) can0 092#6FB66FA3736BD42D
(1487342026.408528) can0 217#095009540950094C
(1487342026.409657) can0 186#140B01FC003A05FC
(1487342026.409658) can0 187#DA1408C800900300
(1487342026.410653) can0 047#2000000000000000
(1487342026.410654) can0 165#10CC280000000000
(1487342026.411653) can0 167#72800D10001A0400
(1487342026.411654) can0 200#00007FF080110000
(1487342026.412651) can0 202#04093800604B0AE2
(1487342026.412652) can0 204#C0007D02D9000000
(1487342026.412652) can0 230#300600009E000000
(1487342026.412653) can0 42F#7D04002E661202D1
(1487342026.416026) can0 085#7F63800029407F71
(1487342026.417654) can0 3A8#0100270400000000
(1487342026.418653) can0 091#7EB87EEE292EF000
(1487342026.418654) can0 092#6FB46FA17368DA2E
(1487342026.418655) can0 076#3E73C0800FFF0000
(1487342026.418655) can0 077#0AE307FC7FF7FDFF
(1487342026.419652) can0 07D#0000FC30001FD7EE
(1487342026.419653) can0 213#FFFF00040001FF40
(1487342026.419654) can0 214#000000000000FC30
(1487342026.419654) can0 216#BEF0159300000000
(1487342026.420657) can0 081#0000000000000000
(1487342026.420658) can0 083#0020002000000000
(1487342026.420663) can0 217#0954095809540950
(1487342026.420664) can0 167#72800D10001A0500
(1487342026.421781) can0 202#04084000604B0AE2
(1487342026.421782) can0 2A1#FFFFFFFF00000000
(1487342026.421783) can0 204#C0007D02DA000000
(1487342026.421783) can0 33B#0000000000000000
(1487342026.422779) can0 261#0000000000000000
(1487342026.422780) can0 3E6#0001040880000000
(1487342026.422780) can0 415#0AE4DC0707FB07FB
(1487342026.422781) can0 41D#8000600000000000
(1487342026.423777) can0 4B0#01008000300000FC
(1487342026.424777) can0 242#0290200DD1000001
(1487342026.424778) can0 40A#C1014B3931485232
(1487342026.424778) can0 42C#8C40000009B00000
(1487342026.425780) can0 078#0168800000000000
(1487342026.426779) can0 082#750814008D804000
(1487342026.426781) can0 085#7F62800029507F71
(1487342026.426781) can0 3CC#3000000000000000
(1487342026.427902) can0 091#7EBA7EEC282FF000
(1487342026.428901) can0 092#6FB46FA2736AD62F
(1487342026.428902) can0 217#0958095409540950
(1487342026.428903) can0 186#140C01FC003A05FC
(1487342026.429903) can0 187#D91408C800A00300
(1487342026.430903) can0 047#2000000000000000
(1487342026.430904) can0 165#10CC280000000000
(1487342026.430905) can0 167#72800D10001A0400
(1487342026.431901) can0 200#00007FF080110000
(1487342026.431902) can0 202#04074800604B0AE2
(1487342026.431903) can0 204#C0007D02DA000000
(1487342026.431903) can0 230#300600009E000000
(1487342026.434281) can0 3CA#FE80080000000000
(1487342026.436027) can0 085#7F62800028607F71
(1487342026.437157) can0 3A8#0100270400000000
(1487342026.438153) can0 455#A000000000000000
(1487342026.438154) can0 091#7EC17EE92330F000
(1487342026.438155) can0 092#6FB66FA3736DCF30
(1487342026.439155) can0 076#3E72C0800FFF0000
(1487342026.439156) can0 077#0AE407FC7FF7FDFD
(1487342026.439157) can0 07D#0000FB40001FA7EE
(1487342026.439157) can0 213#FFFF000400020040
(1487342026.439158) can0 214#000000000000FB40
(1487342026.440151) can0 216#C8FA1F9D00000000
(1487342026.440152) can0 217#0958095809540950
(1487342026.440152) can0 415#0AEAE00007FB07FB
(1487342026.440153) can0 41D#8000600000000000
(1487342026.441157) can0 4B0#01008000400000FB
(1487342026.441158) can0 167#72800D10001A0400
(1487342026.441158) can0 202#04065000604B0AE2
(1487342026.441159) can0 204#C0007D02DB000000
(1487342026.442152) can0 42F#7D04002E661202D1
(1487342026.445517) can0 078#0168800000000000
(1487342026.446519) can0 082#750814008D804000
(1487342026.446520) can0 085#7F62800027707F71
(1487342026.447767) can0 091#7ECD7EE61931F000
(1487342026.448769) can0 092#6FB86FA27371C931
(1487342026.448770) can0 217#0954095409540950
(1487342026.448770) can0 186#140901FC003A05FC
(1487342026.449768) can0 187#D91408C800A00300
(1487342026.449769) can0 18A#0020180114000000
(1487342026.450768) can0 047#2000000000000000
(1487342026.450769) can0 05C#00B000F1201E0000
(1487342026.450769) can0 165#10CC280000000000
(1487342026.451769) can0 167#72800D10001A0500
(1487342026.451770) can0 200#00007FF080110000
(1487342026.451770) can0 202#04045800604B0AE3
(1487342026.451771) can0 204#C0007D02DB000000
(1487342026.452893) can0 230#300600009E000000
(1487342026.455900) can0 085#7F62800026807F71
(1487342026.457028) can0 3CC#3000000000000000
(1487342026.458023) can0 3A8#0100270300000000
(1487342026.458023) can0 091#7EDD7EE30B32F000
(1487342026.458024) can0 092#6FB56FA37379C232
(1487342026.458997) can0 076#3E72C0800FFF0000
(1487342026.459002) can0 077#0AE407FA7FF7FDFE
(1487342026.459003) can0 05D#8357A76034000000
(1487342026.459003) can0 07D#0000FA50001FC7F1
(1487342026.460026) can0 213#FFFF000400020040
(1487342026.460027) can0 214#000000000000FA50
(1487342026.460028) can0 216#D10229A700000000
(1487342026.460028) can0 217#0954095809580950
(1487342026.461026) can0 415#0AE9E40007FB07FB
(1487342026.461028) can0 41D#8000600000000000
(1487342026.461028) can0 167#72800D10001A0500
(1487342026.461029) can0 202#04026000604B0AE4
(1487342026.462023) can0 204#C0007D02DB000000
(1487342026.462024) can0 4B0#01008000500000FA
(1487342026.463401) can0 242#0290200CD1000001
(1487342026.464397) can0 3CA#FE80080000000000
(1487342026.465653) can0 078#0068000000000000
(1487342026.466648) can0 082#760814008D804000
(1487342026.466649) can0 085#7F62800025907F71
(1487342026.467774) can0 091#7EE77EE30033F000
(1487342026.468774) can0 092#6FB16FA4737FBE33
(1487342026.468775) can0 186#140701FD003A05FD
(1487342026.468776) can0 187#D91408C800A00300
(1487342026.468776) can0 217#0954095809580950
(1487342026.470273) can0 047#2000000000000000
(1487342026.471274) can0 165#10CC280000000000
(1487342026.471275) can0 167#72800D10001A0500
(1487342026.472275) can0 178#000002010E74CE73
(1487342026.472276) can0 200#00007FF080110000
(1487342026.473403) can0 202#04006800604B0AE5
(1487342026.473404) can0 204#C0007D02DB000000
(1487342026.473404) can0 230#300600009E000000
(1487342026.473405) can0 261#0000000000000000
(1487342026.474649) can0 42C#8C40000009B00000
(1487342026.475648) can0 42F#7D04002E661302D2
(1487342026.476647) can0 085#7F62800024A07F71
(1487342026.477778) can0 3A8#0100270300000000
(1487342026.477779) can0 091#7EEC7EE5F834F000
(1487342026.478773) can0 092#6FB06FA77379C134
(1487342026.478774) can0 076#3E72C0800FFF0000
(1487342026.478774) can0 077#0AE607F97FF7FDFE
(1487342026.478775) can0 07D#0000F960001FF7F9
(1487342026.479773) can0 213#FFFF000400020040
(1487342026.479774) can0 214#000000000000F960
(1487342026.479775) can0 216#DB0C32B000000000
(1487342026.479775) can0 217#0958095809580950
(1487342026.480773) can0 33B#0000000000000000
(1487342026.480774) can0 415#0AE9E8FF07FA07FA
(1487342026.480774) can0 416#5200FC0001000000
(1487342026.480775) can0 167#72800D10001A0500
(1487342026.481778) can0 202#04FF7000604B0AE5
(1487342026.481778) can0 204#C0007D02DB000000
(1487342026.481779) can0 41D#8000600000000000
(1487342026.481779) can0 4B0#01008000600000F9
(1487342026.484898) can0 05A#00000045F2210000
(1487342026.485892) can0 078#0569800000000000
(1487342026.486892) can0 082#760814008D804000
(1487342026.486893) can0 085#7F62800023B07F71
(1487342026.486894) can0 3CC#3000000000000000
(1487342026.487892) can0 04A#0200000000000000
(1487342026.487893) can0 04B#00C0D8D8D8D8C000
(1487342026.487894) can0 04C#105FFFC000000000
(1487342026.488893) can0 091#7EEF7EE7F235F000
(1487342026.488895) can0 092#6FB36FA8736BCA35
(1487342026.488895) can0 186#140701FD003A05FD
(1487342026.488896) can0 187#D91408C800A00300
(1487342026.489892) can0 217#0958095809540950
(1487342026.490892) can0 047#2000000000000000
(1487342026.490894) can0 165#10CC280000000000
(1487342026.490894) can0 167#72800D10001A0500
(1487342026.492017) can0 200#00007FF080110000
(1487342026.492018) can0 202#04FD7800604B0AE6
(1487342026.492019) can0 204#C0007D02DB000000
(1487342026.492019) can0 230#300600009E000000
(1487342026.494271) can0 3CA#FE80080000000000
(1487342026.495893) can0 085#7F62800022C07F71
(1487342026.497772) can0 091#7EF47EE8EB36F000
(1487342026.498767) can0 092#6FB36FA77365D036
(1487342026.498768) can0 076#3E72C0800FFF0000
(1487342026.498769) can0 077#0AE707F97FF7F9FF
(1487342026.498769) can0 07D#0000F870001FF7FE
(1487342026.499735) can0 213#FFFF000400020040
(1487342026.499736) can0 214#000000000000F870
(1487342026.499737) can0 216#E5163CBA00000000
(1487342026.499737) can0 217#0958095809540954
(1487342026.500767) can0 3A8#0100270300000000
(1487342026.500768) can0 415#0AECECFB07FA07FA
(1487342026.500769) can0 41D#8000600000000000
(1487342026.500769) can0 167#72800D10001A0500
(1487342026.501771) can0 4B0#01008000700000F8
(1487342026.501772) can0 202#040C0000604B0AE6
(1487342026.501773) can0 204#C0007D02DB000000
(1487342026.502767) can0 42F#7D04002E661302D2
(1487342026.503771) can0 242#0290200DD1000001
(1487342026.505647) can0 078#0168800000000000
(1487342026.506642) can0 422#000000923802FE02
(1487342026.506643) can0 082#770814008D804000
(1487342026.506643) can0 085#7F62800021D07F71
(1487342026.506644) can0 423#CDA0000000000000
(1487342026.507643) can0 430#37000ED1C8897700
(1487342026.508641) can0 091#7EFA7EE7E537F000
(1487342026.508643) can0 092#6FAF6FA4736BD037
(1487342026.508643) can0 186#140601FD003A05FD
(1487342026.508644) can0 187#D91408C800A00300
(1487342026.508645) can0 217#0958095809580950
(1487342026.510517) can0 047#2000000000000000
(1487342026.511518) can0 165#10CC280000000000
(1487342026.511519) can0 167#72800E10001A0500
(1487342026.511519) can0 200#00007FF080110000
(1487342026.512517) can0 202#040A0800604B0AE7
(1487342026.512518) can0 204#C0007D02DB000000
(1487342026.512519) can0 230#300600009E000000
(1487342026.516022) can0 085#7F62800020E07F71
(1487342026.517018) can0 3CC#3000000000000000
(1487342026.518017) can0 3A8#0100270300000000
(1487342026.518018) can0 091#7F017EE6DD38F000
(1487342026.518018) can0 092#6FAA6FA57375C938
(1487342026.519017) can0 076#3E72C0800FFF0000
(1487342026.519018) can0 077#0AE807FA7FF7FDFF
(1487342026.519019) can0 07D#0000F780001FA7FF
(1487342026.519019) can0 213#FFFF000400020140
(1487342026.519985) can0 214#000000000000F780
(1487342026.519986) can0 216#EE2046C400000000
(1487342026.519986) can0 217#0958095809580950
(1487342026.519987) can0 083#0020002000000000
(1487342026.521021) can0 2A1#FFFFFFFF00000000
(1487342026.521023) can0 415#0AEDF0F907FA07FA
(1487342026.521023) can0 41D#8000600000000000
(1487342026.521024) can0 167#72800E10001A0500
(1487342026.522017) can0 202#04081000604B0AE8
(1487342026.522018) can0 204#C0007D02DC000000
(1487342026.522019) can0 261#0000000000000000
(1487342026.522019) can0 4B0#01008000800000F7
(1487342026.523517) can0 42C#8C40000009B00000
(1487342026.524519) can0 3CA#FE80080000000000
(1487342026.525771) can0 078#0068000000000000
(1487342026.526767) can0 082#780814008D804000
(1487342026.526768) can0 085#7F6280001FF07F71
(1487342026.527767) can0 091#7F077EE6D639F000
(1487342026.527768) can0 186#140501FD003B05FD
(1487342026.528768) can0 092#6FA86FA8737AC239
(1487342026.528770) can0 187#D81408C800B00300
(1487342026.528770) can0 217#0958095809540954
(1487342026.528771) can0 3A7#0E401A045F700000
(1487342026.530518) can0 047#2000000000000000
(1487342026.531517) can0 165#10CC280000000000
(1487342026.531518) can0 167#72800E10001A0500
(1487342026.531523) can0 200#00007FF080120000
(1487342026.532518) can0 202#04071800604B0AE8
(1487342026.532519) can0 204#C0007D02DC000000
(1487342026.532520) can0 230#300600009E000000
(1487342026.532521) can0 42F#7D04002E661302D2
(1487342026.536022) can0 085#7F6280002E007F71
(1487342026.537021) can0 455#A000000000000000
(1487342026.538143) can0 3A8#0100270300000000
(1487342026.538144) can0 091#7F087EE5D53AF000
(1487342026.538145) can0 092#6FA96FA8737CBE3A
(1487342026.539144) can0 076#3E72C0800FFF0000
(1487342026.539145) can0 077#0AE807F97FF7F1FE
(1487342026.539146) can0 07D#0000F690001FE805
(1487342026.539146) can0 213#FFFF000400020140
(1487342026.540142) can0 214#000000000000F690
(1487342026.540143) can0 216#F82950CD00000000
(1487342026.540144) can0 217#0954095809500954
(1487342026.540144) can0 33B#0000000000000000
(1487342026.540145) can0 3A6#0E401A045F700000
(1487342026.541151) can0 415#0AEAF4FB07FA07FA
(1487342026.541152) can0 41D#8000600000000000
(1487342026.541152) can0 167#72800E10001A0500
(1487342026.541153) can0 202#04052000604B0AE9
(1487342026.542142) can0 204#C0007D02DC000000
(1487342026.542143) can0 4B0#01008000900000F6
(1487342026.543392) can0 242#0290200ED1000001
(1487342026.545522) can0 078#0168800000000000
(1487342026.546520) can0 082#780814008D804000
(1487342026.546521) can0 085#7F6280002D107F71
(1487342026.546522) can0 3CC#3000000000000000
(1487342026.547768) can0 091#7F057EE5D73BF000
(1487342026.548768) can0 092#6FAC6FA7737DBA3B
(1487342026.548769) can0 186#140801FE003B05FE
(1487342026.548769) can0 187#D81408C800B00300
(1487342026.548770) can0 18A#0020180114000000
(1487342026.549767) can0 217#0954095809540954
(1487342026.550767) can0 047#2000000000000000
(1487342026.550769) can0 05C#005000F7201E0000
(1487342026.551768) can0 165#10CC280000000000
(1487342026.551769) can0 167#72800E10001A0500
(1487342026.551770) can0 200#00007FF080120000
(1487342026.551771) can0 202#04042800604B0AE9
(1487342026.551771) can0 204#C0007D02DC000000
(1487342026.552767) can0 230#300600009E000000
(1487342026.554267) can0 3CA#FE80080000000000
(1487342026.555893) can0 085#7F6280002C207F71
(1487342026.557146) can0 3A8#0100270300000000
(1487342026.558143) can0 091#7F047EE4D83CF000
(1487342026.558144) can0 092#6FB26FA2737CB93C
(1487342026.559143) can0 076#3E72C0800FFF0000
(1487342026.559144) can0 077#0AE907F97FF7F1FF
(1487342026.559144) can0 05D#83578F603A000000
(1487342026.559145) can0 07D#0000F5A000200805
(1487342026.559146) can0 213#FFFF000400020040
(1487342026.560268) can0 214#000000000000F5A0
(1487342026.560269) can0 216#023359D700000000
(1487342026.560270) can0 217#0958095809500950
(1487342026.560270) can0 415#0AE8F8FC07FA07FA
(1487342026.561273) can0 41D#8000600000000000
(1487342026.561274) can0 167#72800E10001A0500
(1487342026.561275) can0 4B0#01008000A00000F5
(1487342026.561276) can0 202#04033000604B0AE9
(1487342026.562267) can0 204#C0007D02DC000000
(1487342026.563268) can0 42F#7D04002E661302D3
(1487342026.565396) can0 078#0168800000000000
(1487342026.566396) can0 082#780814008D804000
(1487342026.566398) can0 085#7F6280002B307F71
(1487342026.567598) can0 186#140A0200003B0600
(1487342026.568643) can0 091#7F087EE3D43DF000
(1487342026.568644) can0 092#6FB46FA07378BC3D
(1487342026.568644) can0 187#D81408C800B00300
(1487342026.568645) can0 217#0958095809540954
(1487342026.570272) can0 047#2000000000000000
(1487342026.571269) can0 165#10CC280000000000
(1487342026.571270) can0 167#72800E10001A0500
(1487342026.572268) can0 178#000002000E74CE73
(1487342026.572269) can0 200#00007FF080140000
(1487342026.572270) can0 202#04023800604B0AE9
(1487342026.573398) can0 204#C0007D02DC000000
(1487342026.573399) can0 230#300600009E000000
(1487342026.573400) can0 261#0000000000000000
(1487342026.574394) can0 42C#8C40000009B00000
(1487342026.576018) can0 085#7F63800028407F72
(1487342026.577019) can0 3CC#3000000000000000
(1487342026.578018) can0 091#7F0F7EE3CC3EF000
(1487342026.578019) can0 092#6FB16FA2736FC53E
(1487342026.579017) can0 3A8#0100270300000000
(1487342026.579018) can0 076#3E72C0800FFF0000
(1487342026.579019) can0 077#0AE907F97FF7F9FD
(1487342026.579019) can0 07D#0000F4B000200804
(1487342026.580019) can0 213#FFFF000400020040
(1487342026.580020) can0 214#000000000000F4B0
(1487342026.580021) can0 216#0A3D63E100000000
(1487342026.580021) can0 217#0958095809500954
(1487342026.580988) can0 415#0AEAFCF907FA07FA
(1487342026.580989) can0 416#5300FB0001000000
(1487342026.580990) can0 167#72800E10001A0500
(1487342026.580990) can0 202#04024000604B0AE8
(1487342026.582019) can0 204#C0007D02DC000000
(1487342026.582020) can0 41D#8000600000000000
(1487342026.582021) can0 4B0#01008000B00000F4
(1487342026.583397) can0 242#0290200FD1000001
(1487342026.584392) can0 3CA#FE80080000000000
(1487342026.585396) can0 05A#00000045E8C10000
(1487342026.586392) can0 078#0469000000000000
(1487342026.586393) can0 082#780814008D804000
(1487342026.586394) can0 085#7F63800028507F71
(1487342026.587394) can0 186#140B0203003B0603
(1487342026.588519) can0 187#D81408C800B00300
(1487342026.588520) can0 04A#0200000000000000
(1487342026.588521) can0 04B#00C0D8D8D8D8C000
(1487342026.588522) can0 04C#105FFFC000000000
(1487342026.589522) can0 091#7F187EE2C33FF000
(1487342026.589523) can0 092#6FAC6FA57368CD3F
(1487342026.589524) can0 217#095C095C09540954
(1487342026.590518) can0 047#2000000000000000
(1487342026.591520) can0 165#10CC280000000000
(1487342026.591521) can0 167#72800E10001A0500
(1487342026.591522) can0 200#00007FF080140000
(1487342026.592520) can0 202#04014800604B0AE8
(1487342026.592521) can0 204#C0007D02DD000000
(1487342026.592521) can0 230#300600009E000000
(1487342026.592522) can0 42F#7D04002E661302D3
(1487342026.595897) can0 085#7F63800027607F71
(1487342026.597272) can0 3A8#0100270300000000
(1487342026.598267) can0 091#7F1C7EE0C040F000
(1487342026.598268) can0 092#6FA96FA77368CD40
(1487342026.598269) can0 076#3E72C0800FFF0000
(1487342026.599268) can0 077#0AE907F97FF7F9FD
(1487342026.599269) can0 07D#0000F3C0001FC808
(1487342026.599269) can0 213#FFFF000400020040
(1487342026.599270) can0 214#000000000000F3C0
(1487342026.600393) can0 216#14466DE900000000
(1487342026.600394) can0 217#0958095809500950
(1487342026.600395) can0 33B#0000000000000000
(1487342026.600396) can0 415#0AF0C00207FA07FA
(1487342026.600396) can0 41D#8000600000000000
(1487342026.601358) can0 167#72800E10001A0500
(1487342026.601359) can0 202#04005000604B0AE8
(1487342026.601359) can0 204#C0007D02DD000000
(1487342026.601360) can0 4B0#01008000C00000F3
(1487342026.605396) can0 078#0168800000000000
(1487342026.606392) can0 422#000000923802FE02
(1487342026.606393) can0 423#CDA0000000000000
(1487342026.606394) can0 082#780814008D804000
(1487342026.606394) can0 085#7F63800025707F72
(1487342026.607393) can0 3CC#3000000000000000
(1487342026.607395) can0 430#37000ED1C8897700
(1487342026.607395) can0 186#140B0203003B0603
(1487342026.608394) can0 187#D81408C800B00300
(1487342026.608395) can0 091#7F167EE0C541F000
(1487342026.608395) can0 092#6FAA6FA7736DC641
(1487342026.608396) can0 217#0958095809540954
(1487342026.610392) can0 047#2000000000000000
(1487342026.611378) can0 165#10CC280000000000
(1487342026.611380) can0 167#72800E10001A0500
(1487342026.611381) can0 200#00007FF080180000
(1487342026.612392) can0 202#04FD5800604B0AEA
(1487342026.612393) can0 204#C0007D02DD000000
(1487342026.612394) can0 230#300600009E000000
(1487342026.614267) can0 3CA#FE80080000000000
(1487342026.616018) can0 085#7F63800024807F72
(1487342026.617394) can0 091#7F117EE4C542F000
(1487342026.618393) can0 092#6FAF6FA77370BD42
(1487342026.618394) can0 3A8#0100270300000000
(1487342026.618395) can0 076#3E72C0800FFF0000
(1487342026.619392) can0 077#0AE907F87FF7F1FF
(1487342026.619393) can0 07D#0000F2D0001FA80C
(1487342026.619394) can0 213#FFFF000400020040
(1487342026.619394) can0 214#000000000000F2D0
(1487342026.620396) can0 216#1E5075F300000000
(1487342026.620397) can0 217#0958095809540954
(1487342026.620398) can0 083#0020002000000000
(1487342026.620398) can0 2A1#FFFFFFFF00000000
(1487342026.620399) can0 415#0AEBC40607FA07FA
(1487342026.621394) can0 167#72800E10001A0500
(1487342026.621395) can0 41D#8000600000000000
(1487342026.621396) can0 4B0#01008000D00000F2
(1487342026.621397) can0 202#04FC6000604B0AEA
(1487342026.622395) can0 204#C0007D02DD000000
(1487342026.622396) can0 261#0000000000000000
(1487342026.622397) can0 42F#7D04002E661302D3
(1487342026.623642) can0 242#0290200FD1000001
(1487342026.624642) can0 40A#C1023130373639FF
(1487342026.624643) can0 42C#8C40000009B00000
(1487342026.625771) can0 078#0168800000000000
(1487342026.626767) can0 082#780814008D804000
(1487342026.626768) can0 085#7F63800023907F72
(1487342026.627767) can0 186#140F0206003C0606
(1487342026.627768) can0 187#D71408C800C00300
(1487342026.627769) can0 091#7F167EE7BC43F000
(1487342026.628768) can0 092#6FB36FA67371B843
(1487342026.628770) can0 217#0958095809580954
(1487342026.630400) can0 047#2000000000000000
(1487342026.631393) can0 165#10CC280000000000
(1487342026.631394) can0 167#72800E10001A0500
(1487342026.631395) can0 200#00007FF0801C0000
(1487342026.631395) can0 202#04FB6800604B0AEA
(1487342026.632394) can0 204#C0007D02DD000000
(1487342026.632396) can0 230#300600009E000000
(1487342026.636019) can0 085#7F63800022A07F72
(1487342026.637020) can0 3CC#3000000000000000
(1487342026.638018) can0 455#A000000000000000
(1487342026.638019) can0 3A8#0100270300000000
(1487342026.638020) can0 091#7F1E7EEAB044F000
(1487342026.638021) can0 092#6FB46FA67370B744
(1487342026.639019) can0 076#3E72C0800FFF0000
(1487342026.639020) can0 077#0AEA07F97FF7F9FF
(1487342026.639020) can0 07D#0000F1E0001FD808
(1487342026.639021) can0 213#FFFF000400020040
(1487342026.640018) can0 214#000000000000F1E0
(1487342026.640019) can0 216#285A7FFD00000000
(1487342026.640019) can0 217#0958095809580954
(1487342026.640020) can0 415#0AEAC80607FA07FA
(1487342026.641022) can0 41D#8000600000000000
(1487342026.641023) can0 4B0#01008000E00000F1
(1487342026.641024) can0 167#72800E10001A0600
(1487342026.641025) can0 202#04FA7000604B0AEA
(1487342026.641991) can0 204#C0007D02DD000000
(1487342026.644268) can0 3CA#FE80080000000000
(1487342026.645398) can0 078#0068000000000000
(1487342026.646394) can0 082#780814008D804000
(1487342026.646395) can0 085#7F62800023B07F71
(1487342026.647394) can0 186#140E0209003C0609
(1487342026.647395) can0 187#D71408C800C00300
(1487342026.648394) can0 18A#0020180114000000
(1487342026.648395) can0 091#7F247EEDA645F000
(1487342026.648395) can0 092#6FB06FA7736CBD45
(1487342026.648396) can0 217#095C095C09580954
(1487342026.650272) can0 047#2000000000000000
(1487342026.651393) can0 05C#00F000ED201E0000
(1487342026.651394) can0 165#10CC280000000000
(1487342026.651394) can0 167#72800E10001A0600
(1487342026.652391) can0 200#00007FF0801C0000
(1487342026.652393) can0 202#04F97800604B0AEA
(1487342026.652393) can0 204#C0007D02DD000000
(1487342026.652394) can0 230#300600009E000000
(1487342026.653351) can0 42F#7D04002E661302D4
(1487342026.655893) can0 085#7F62800022C07F71
(1487342026.657773) can0 091#7F247EECA646F000
(1487342026.658767) can0 092#6FA96FA97367C646
(1487342026.658768) can0 076#3E72C0800FFF0000
(1487342026.658769) can0 077#0AEA07FB7FF7FDFE
(1487342026.658770) can0 05D#8357B76030000000
(1487342026.659768) can0 07D#0000F0F0001FD80C
(1487342026.659769) can0 213#FFFF000400020040
(1487342026.659770) can0 214#000000000000F0F0
(1487342026.659770) can0 216#3164890700000000
(1487342026.660767) can0 217#0958095C09580954
(1487342026.660768) can0 33B#0000000000000000
(1487342026.660769) can0 3A8#0100270300000000
(1487342026.660769) can0 167#72800F10001A0600
(1487342026.661772) can0 202#04080000604B0AEA
(1487342026.661774) can0 204#C0007D02DD000000
(1487342026.661775) can0 415#0AEFCC0007FA07FA
(1487342026.661776) can0 41D#8000600000000000
(1487342026.662768) can0 4B0#01008000F00000F0
(1487342026.663767) can0 242#0290200ED1000001
(1487342026.665526) can0 078#0168800000000000
(1487342026.666518) can0 082#790814008D804000
(1487342026.666519) can0 085#7F62800021D07F71
(1487342026.666520) can0 3CC#3000000000000000
(1487342026.667517) can0 186#140E020C003C060C
(1487342026.667518) can0 187#D71408C800C00300
(1487342026.667519) can0 091#7F1E7EE9AE47F000
(1487342026.668518) can0 092#6FA66FAA7366C847
(1487342026.668519) can0 217#0958095C09580954
(1487342026.670398) can0 047#2000000000000000
(1487342026.671392) can0 165#10CC280000000000
(1487342026.671393) can0 167#72801010001A0800
(1487342026.672361) can0 178#000002000E73CE73
(1487342026.672362) can0 200#00007FF080200000
(1487342026.672363) can0 202#04060800604B0AEB
(1487342026.673396) can0 204#C0007D02DD000000
(1487342026.673397) can0 230#300600009E000000
(1487342026.673397) can0 261#0000000000000000
(1487342026.674395) can0 42C#8C40000009B00000
(1487342026.674396) can0 3CA#FE80080000000000
(1487342026.676019) can0 085#7F62800020E07F71
(1487342026.677271) can0 3A8#0100270300000000
(1487342026.678268) can0 091#7F157EE6B948F000
(1487342026.678269) can0 092#6FA96FAA736DBD48
(1487342026.678270) can0 076#3E72C0800FFF0000
(1487342026.679267) can0 077#0AEB07FA7FF7F1FF
(1487342026.679269) can0 07D#0000FF00001FA80C
(1487342026.679269) can0 213#FFFF000400020140
(1487342026.679270) can0 214#000000000000FF00
(1487342026.680268) can0 216#3B6C921000000000
(1487342026.680269) can0 217#0958095C095C0954
(1487342026.680270) can0 415#0AEFD0FF07FA07FA
(1487342026.680270) can0 416#5400FA0001000000
(1487342026.681272) can0 41D#8000600000000000
(1487342026.681278) can0 167#72801010001A0800
(1487342026.681279) can0 4B0#01008000000000FF
(1487342026.681279) can0 202#04051000604B0AEB
(1487342026.681280) can0 204#C0007D02DD000000
(1487342026.682395) can0 42F#7D04002E661502D4
(1487342026.684893) can0 05A#00000045EE610000
(1487342026.685892) can0 078#0569800000000000
(1487342026.686893) can0 082#7A0814008D804000
(1487342026.686894) can0 085#7F6280001FF07F71
(1487342026.686895) can0 186#140D020F003C060F
(1487342026.687893) can0 187#D71408C800C00300
(1487342026.687895) can0 04A#0200000000000000
(1487342026.687895) can0 04B#00C0D8D8D8D8C000
(1487342026.688892) can0 04C#105FFFC000000000
(1487342026.688893) can0 091#7F0D7EE4C249F000
(1487342026.688893) can0 092#6FB16FA97375AD49
(1487342026.688894) can0 217#0958095C095C0954
(1487342026.690268) can0 047#2000000000000000
(1487342026.691393) can0 165#10CC280000000000
(1487342026.691394) can0 167#72801210001A0800
(1487342026.691395) can0 200#00007FF080230000
(1487342026.691396) can0 202#04031800604B0AEC
(1487342026.692392) can0 204#C0007D02DD000000
(1487342026.692393) can0 230#300600009E000000
(1487342026.696022) can0 085#7F6280002E007F71
(1487342026.697018) can0 3CC#3000000000000000
(1487342026.698017) can0 091#7F0D7EE5C04AF000
(1487342026.698018) can0 092#6FB86FA6737AA34A
(1487342026.699018) can0 076#3E72C0800FFF0000
(1487342026.699020) can0 077#0AED07F97FF7F1FF
(1487342026.699020) can0 07D#0000FE10001FC809
(1487342026.699021) can0 213#FFFF000400020140
(1487342026.700017) can0 214#000000000000FE10
(1487342026.700018) can0 216#45769C1A00000000
(1487342026.700019) can0 217#0958095C095C0950
(1487342026.700019) can0 3A8#0100270300000000
(1487342026.701020) can0 415#0AEFD4FE07FA07FA
(1487342026.701022) can0 41D#8000600000000000
(1487342026.701022) can0 167#72801210001A0A00
(1487342026.701023) can0 202#04022000604B0AEC
(1487342026.702017) can0 204#C0007D02DD000000
(1487342026.702018) can0 4B0#01008000100000FE
(1487342026.703392) can0 242#0290200FD1000001
(1487342026.704392) can0 3CA#FE80080000000000
(1487342026.705521) can0 078#0068000000000000
(1487342026.706519) can0 422#000000923802FE02
(1487342026.706520) can0 423#CDA0000000000000
(1487342026.706520) can0 082#7B0814008D804000
(1487342026.706521) can0 085#7F6280002D107F71
(1487342026.707520) can0 186#140D020F003C060F
(1487342026.707521) can0 187#D71408C800C00300
(1487342026.707522) can0 430#37000ED1C8897700
(1487342026.707523) can0 091#7F0F7EE6BC4BF000
(1487342026.708517) can0 092#6FBB6FA4737AA14B
(1487342026.708518) can0 217#095C095C095C0954
(1487342026.710398) can0 047#2000000000000000
(1487342026.711393) can0 165#10CC280000000000
(1487342026.711394) can0 167#72801210001A0A00
(1487342026.712392) can0 200#00007FF080250000
(1487342026.712393) can0 202#04012800604B0AEC
(1487342026.712394) can0 204#C0007D02DF000000
(1487342026.713392) can0 230#300600009E000000
(1487342026.713393) can0 42F#7D04002E661602D4
(1487342026.715892) can0 085#7F6280002C207F71
(1487342026.717147) can0 3A8#0100270300000000
(1487342026.718269) can0 091#7F0E7EE7BB4CF000
