(1487341971.514716) can0 186#140301FB009905FB
(1487341971.514717) can0 187#DE1408C800500300
(1487341971.515866) can0 076#3E80C0800FFF0000
(1487341971.516851) can0 077#1D8808017FF809FA
(1487341971.516852) can0 07D#0000F5A0001FD7F5
(1487341971.516854) can0 085#7F73800021207F6B
(1487341971.516855) can0 213#FFFF00040001FE40
(1487341971.517867) can0 214#000000000000F5A0
(1487341971.517867) can0 216#6FD4108E00000000
(1487341971.517868) can0 217#194C195419481944
(1487341971.517869) can0 3A8#0100271000000000
(1487341971.518866) can0 415#1D92F83F08000800
(1487341971.518867) can0 167#72800510001A1000
(1487341971.518868) can0 202#0449300060991D90
(1487341971.518868) can0 204#C0007D0301000000
(1487341971.519866) can0 091#7ED17F016EBCF000
(1487341971.519867) can0 092#6FB96F9C735A5ABC
(1487341971.519867) can0 261#0000000000000000
(1487341971.519868) can0 41D#8000600000000000
(1487341971.520850) can0 4B0#01008000A00000F5
(1487341971.522616) can0 42C#8C40000009B00000
(1487341971.524349) can0 3A6#0E401A045F700000
(1487341971.525721) can0 217#19481950194C1944
(1487341971.526763) can0 082#780814008E804000
(1487341971.526764) can0 085#7F73800020307F6B
(1487341971.527720) can0 3CC#3000000000000000
(1487341971.528739) can0 047#2000000000000000
(1487341971.528740) can0 165#10CD500000000000
(1487341971.528740) can0 091#7EDB7F0262BDF000
(1487341971.528742) can0 167#72800610001A1000
(1487341971.529721) can0 092#6FB86F9E735D55BD
(1487341971.529722) can0 200#00007FFB800C0000
(1487341971.529722) can0 202#0448380060991D90
(1487341971.529723) can0 204#C0007D0301000000
(1487341971.530846) can0 230#600600009E000000
(1487341971.531856) can0 078#0068000000000000
(1487341971.533627) can0 3CA#028057F000000000
(1487341971.534661) can0 186#140301FB009905FB
(1487341971.534661) can0 187#DE1408C800500300
(1487341971.535910) can0 076#3E80C0800FFF0000
(1487341971.536878) can0 077#1D8808027FF801FC
(1487341971.536878) can0 07D#0000F4B0001F77F5
(1487341971.536879) can0 085#7F7380001F407F6B
(1487341971.536880) can0 213#FFFF00040001FE40
(1487341971.537906) can0 214#000000000000F4B0
(1487341971.537909) can0 216#89EE2AA800000000
(1487341971.537909) can0 217#1944195019501944
(1487341971.537910) can0 415#1D8EFC4208000800
(1487341971.538905) can0 41D#8000600000000000
(1487341971.538906) can0 167#72800610001A1000
(1487341971.538906) can0 455#A000000000000000
(1487341971.538908) can0 202#0447400060991D90
(1487341971.539908) can0 091#7EEC7F0250BEF000
(1487341971.539909) can0 092#6FBC6F9F736844BE
(1487341971.539909) can0 204#C0007D0300000000
(1487341971.539911) can0 3A8#0100271000000000
(1487341971.540847) can0 4B0#01008000B00000F4
(1487341971.540848) can0 42F#7D04002E66110300
(1487341971.542594) can0 242#0290200ED2000001
(1487341971.545741) can0 217#19441950194C1948
(1487341971.546731) can0 082#780814008E804000
(1487341971.546731) can0 085#7F7380001E507F6B
(1487341971.547979) can0 047#2000000000000000
(1487341971.548984) can0 05C#009000F3201E0000
(1487341971.548984) can0 165#10CD500000000000
(1487341971.548985) can0 091#7EFB7F0240BFF000
(1487341971.548985) can0 092#6FC06FA073683EBF
(1487341971.550029) can0 167#72800610001A1100
(1487341971.550029) can0 200#00007FFB800C0000
(1487341971.550030) can0 202#0447480060991D8F
(1487341971.550031) can0 204#C0007D0300000000
(1487341971.551030) can0 230#600600009E000000
(1487341971.552029) can0 078#0168800000000000
(1487341971.553004) can0 422#0000008E3802FE02
(1487341971.553004) can0 423#CDA0000000000000
(1487341971.553005) can0 430#37000ED1C8897700
(1487341971.554031) can0 33B#0000000000000000
(1487341971.554032) can0 186#140301FB009905FB
(1487341971.554032) can0 187#DE1408C800500300
(1487341971.555157) can0 05D#83579F5F37000000
(1487341971.556154) can0 076#3E80C0800FFF0000
(1487341971.556155) can0 077#1D8808027FF805FD
(1487341971.557156) can0 07D#0000F3C0001FB7FD
(1487341971.557157) can0 085#7F7380001D607F6B
(1487341971.557157) can0 213#FFFF00040001FF40
(1487341971.557158) can0 214#000000000000F3C0
(1487341971.558154) can0 216#A30844C200000000
(1487341971.558155) can0 217#194819501944194C
(1487341971.558155) can0 3CC#3000000000000000
(1487341971.558156) can0 415#1D8AC05508000800
(1487341971.559154) can0 167#72800610001A1100
(1487341971.559155) can0 202#0447500060991D8E
(1487341971.559155) can0 204#C0007D02FF000000
(1487341971.559156) can0 091#7F067F0134C0F000
(1487341971.560155) can0 092#6FC06F9E735F48C0
(1487341971.560156) can0 3A8#0100271000000000
(1487341971.560156) can0 41D#8000600000000000
(1487341971.560157) can0 4B0#01008000C00000F3
(1487341971.563658) can0 3CA#028057F000000000
(1487341971.565657) can0 217#194C19501940194C
(1487341971.566655) can0 082#780814008E804000
(1487341971.567654) can0 085#7F7380001C707F6B
(1487341971.568654) can0 047#2000000000000000
(1487341971.568655) can0 165#10CD500000000000
(1487341971.569655) can0 091#7F0D7F012CC1F000
(1487341971.569656) can0 092#6FBC6F9B735C51C1
(1487341971.569656) can0 167#72800610001A1100
(1487341971.569657) can0 178#000001FD0E73CE73
(1487341971.570655) can0 200#00007FFB800C0000
(1487341971.570655) can0 202#0447580060991D8D
(1487341971.570656) can0 204#C0007D02FF000000
(1487341971.570657) can0 230#600600009E000000
(1487341971.571657) can0 261#0000000000000000
(1487341971.572667) can0 42F#7D04002E66110300
(1487341971.572667) can0 42C#8C40000009B00000
(1487341971.572668) can0 078#0569800000000000
(1487341971.575806) can0 186#140301FB009905FB
(1487341971.575806) can0 187#DE1408C800500300
(1487341971.575809) can0 076#3E80C0800FFF0000
(1487341971.576903) can0 077#1D8908027FF809FC
(1487341971.576903) can0 07D#0000F2D0001F8804
(1487341971.576903) can0 085#7F7280001D807F6A
(1487341971.576904) can0 213#FFFF00040001FF40
(1487341971.577905) can0 214#000000000000F2D0
(1487341971.577905) can0 216#BC235EDC00000000
(1487341971.577906) can0 217#1948195419401948
(1487341971.577907) can0 3A8#0100271000000000
(1487341971.578904) can0 415#1D90C44E08000800
(1487341971.578904) can0 167#72800610001A1100
(1487341971.578905) can0 202#0447600060991D8C
(1487341971.578906) can0 204#C0007D02FE000000
(1487341971.579905) can0 091#7F167F0320C2F000
(1487341971.579906) can0 092#6FB66F9A736152C2
(1487341971.579906) can0 416#5D00F10001000000
(1487341971.579907) can0 41D#8000600000000000
(1487341971.580906) can0 4B0#01008000D00000F2
(1487341971.582781) can0 242#0290200FD2000001
(1487341971.585407) can0 05A#00000045F4010000
(1487341971.586405) can0 217#19481954193C1948
(1487341971.586405) can0 082#7A0814008E804000
(1487341971.587367) can0 085#7F7380001A907F6B
(1487341971.587367) can0 3CC#3000000000000000
(1487341971.588532) can0 047#2000000000000000
(1487341971.588533) can0 165#10CD500000000000
(1487341971.588533) can0 167#72800610001A1100
(1487341971.589531) can0 200#00007FFB800C0000
(1487341971.589532) can0 04A#0200000000000000
(1487341971.589532) can0 04B#00C0D8D8D8D8C000
(1487341971.589533) can0 04C#105FFFC000000000
(1487341971.590530) can0 091#7F1E7F0614C3F000
(1487341971.590530) can0 092#6FB16F9C736253C3
(1487341971.590531) can0 202#0445680060991D8D
(1487341971.590532) can0 204#C0007D02FE000000
(1487341971.591530) can0 230#600600009E000000
(1487341971.592531) can0 078#0068000000000000
(1487341971.593531) can0 186#140001FB009905FB
(1487341971.593532) can0 083#0020000000000000
(1487341971.594529) can0 187#DE1408C800500300
(1487341971.594530) can0 18A#0020180114000000
(1487341971.594530) can0 2A1#FFFFFFFF00000000
(1487341971.594531) can0 3CA#028017F200000000
(1487341971.595905) can0 076#3E80C0800FFF0000
(1487341971.596904) can0 077#1D8908037FF7FDFB
(1487341971.596904) can0 07D#0000F1E0001F9809
(1487341971.596905) can0 085#7F73800019A07F6B
(1487341971.596906) can0 213#FFFF00040001FF40
(1487341971.597904) can0 214#000000000000F1E0
(1487341971.597904) can0 216#D63D78F600000000
(1487341971.597905) can0 217#194C195819401944
(1487341971.597906) can0 3A8#0100271000000000
(1487341971.598904) can0 415#1D92C84B08000800
(1487341971.598905) can0 167#72800610001A1100
(1487341971.598905) can0 41D#8000600000000000
(1487341971.598906) can0 202#0444700060991D8D
(1487341971.599905) can0 091#7F1D7F0713C4F000
(1487341971.599906) can0 092#6FB16F9B735D58C4
(1487341971.599906) can0 204#C0007D02FE000000
(1487341971.599907) can0 4B0#01008000E00000F1
(1487341971.600905) can0 42F#7D04002E66110300
(1487341971.605782) can0 217#1948195819481944
(1487341971.606781) can0 082#7B0814008E804000
(1487341971.606782) can0 085#7F73800018B07F6B
(1487341971.608030) can0 047#2000000000000000
(1487341971.609030) can0 165#10CD500000000000
(1487341971.609031) can0 167#72800610001A1100
(1487341971.609031) can0 200#00007FFB800C0000
(1487341971.609032) can0 091#7F0C7F0525C5F000
(1487341971.610029) can0 092#6FB16F99735A5CC5
(1487341971.610030) can0 202#0443780060991D8D
(1487341971.610030) can0 204#C0007D02FE000000
(1487341971.610031) can0 230#600600009E000000
(1487341971.611779) can0 078#0168800000000000
(1487341971.613157) can0 186#140001FB009905FB
(1487341971.614155) can0 187#DE1408C800500300
(1487341971.614156) can0 33B#0000000000000000
(1487341971.615905) can0 076#3E80C0800FFF0000
(1487341971.616907) can0 077#1D8808047FF7FDFC
(1487341971.616907) can0 07D#0000F0F0001F880B
(1487341971.616907) can0 085#7F73800017C07F6B
(1487341971.616909) can0 213#FFFF00040001FF40
(1487341971.617904) can0 214#000000000000F0F0
(1487341971.617904) can0 216#F056910F00000000
(1487341971.617905) can0 217#1948195819481944
(1487341971.617906) can0 3A8#0100271000000000
(1487341971.618904) can0 3CC#3000000000000000
(1487341971.618904) can0 167#72800610001A1100
(1487341971.618905) can0 202#0451000060991D8E
(1487341971.618906) can0 204#C0007D02FE000000
(1487341971.619907) can0 091#7EF37F063DC6F000
(1487341971.619908) can0 092#6FB26F99735E56C6
(1487341971.619908) can0 261#0000000000000000
(1487341971.619909) can0 415#1D94CC4808000800
(1487341971.620904) can0 41D#8000600000000000
(1487341971.620905) can0 4B0#01008000F00000F0
(1487341971.622657) can0 242#0290200FD2000001
(1487341971.623654) can0 40A#C104014107F670C1
(1487341971.623655) can0 42C#8C40000009B00000
(1487341971.623655) can0 3CA#028017F200000000
(1487341971.625781) can0 217#19441954194C1944
(1487341971.626779) can0 082#7B0814008E804000
(1487341971.626780) can0 085#7F72800018D07F6A
(1487341971.628031) can0 047#2000000000000000
(1487341971.629030) can0 165#10CD500000000000
(1487341971.629031) can0 091#7EDB7F0654C7F000
(1487341971.629031) can0 167#72800610001A1100
(1487341971.629033) can0 092#6FB36F9D736549C7
(1487341971.630030) can0 200#00007FFB800C0000
(1487341971.630031) can0 202#0450080060991D8E
(1487341971.630031) can0 204#C0007D02FE000000
(1487341971.630032) can0 230#600600009E000000
(1487341971.631029) can0 42F#7D04002E66110300
(1487341971.632030) can0 078#0168800000000000
(1487341971.633157) can0 186#13FF01FB009905FB
(1487341971.634156) can0 187#DD1408C800600300
(1487341971.635904) can0 076#3E80C0800FFF0000
(1487341971.636905) can0 077#1D8908037FF7FDFB
(1487341971.636905) can0 07D#0000FF00001F87FF
(1487341971.636905) can0 085#7F72800017E07F6A
(1487341971.636907) can0 213#FFFF00040001FF40
(1487341971.637905) can0 214#000000000000FF00
(1487341971.637906) can0 216#0B70AC2900000000
(1487341971.637906) can0 217#1940195419501948
(1487341971.637907) can0 415#1D8DD04E08000800
(1487341971.638906) can0 41D#8000600000000000
(1487341971.638907) can0 167#72800610001A1200
(1487341971.638907) can0 202#044E100060991D8F
(1487341971.638908) can0 204#C0007D02FE000000
(1487341971.639904) can0 091#7ECA7F0664C8F000
(1487341971.639905) can0 092#6FB66FA1736541C8
(1487341971.639905) can0 3A8#0100271000000000
(1487341971.639906) can0 455#A000000000000000
(1487341971.640905) can0 4B0#01008000000000FF
(1487341971.645781) can0 217#19441954194C194C
(1487341971.646779) can0 082#790814008E804000
(1487341971.646780) can0 085#7F72800016F07F6A
(1487341971.647779) can0 3CC#3000000000000000
(1487341971.648733) can0 047#2000000000000000
(1487341971.648734) can0 05C#003000F9201E0000
(1487341971.648734) can0 165#10CD500000000000
(1487341971.648735) can0 167#72800710001A1200
(1487341971.649745) can0 091#7EBE7F066FC9F000
(1487341971.649746) can0 092#6FBB6FA473603DC9
(1487341971.649746) can0 200#00007FFB800C0000
(1487341971.649747) can0 202#044E180060991D8E
(1487341971.650741) can0 204#C0007D02FE000000
(1487341971.650741) can0 230#600600009E000000
(1487341971.651874) can0 078#0068000000000000
(1487341971.652872) can0 422#0000008E3802FE02
(1487341971.652872) can0 423#CDA0000000000000
(1487341971.652872) can0 430#37000ED1C8897700
(1487341971.653881) can0 186#13FD01FB009905FB
(1487341971.653882) can0 187#DD1408C800600300
(1487341971.653882) can0 3CA#028017F200000000
(1487341971.654996) can0 05D#8357875F3D000000
(1487341971.656030) can0 076#3E7FC0800FFF0000
(1487341971.657030) can0 077#1D8908037FF7FDFD
(1487341971.657031) can0 07D#0000FE10001FA7F3
(1487341971.657031) can0 085#7F72800025007F6A
(1487341971.657032) can0 213#FFFF00040001FF40
(1487341971.657033) can0 214#000000000000FE10
(1487341971.658155) can0 216#258AC64300000000
(1487341971.658155) can0 217#194819501940194C
(1487341971.658157) can0 415#1D8DD44D08000800
(1487341971.658157) can0 41D#8000600000000000
(1487341971.659155) can0 167#72800710001A1200
(1487341971.659156) can0 4B0#01008000100000FE
(1487341971.659156) can0 202#044D200060991D8E
(1487341971.659157) can0 091#7EBD7F066FCAF000
(1487341971.660154) can0 092#6FC06FA173603ACA
(1487341971.660155) can0 204#C0007D02FD000000
(1487341971.660155) can0 3A8#0100271000000000
(1487341971.661156) can0 42F#7D04002E66120300
(1487341971.662654) can0 242#0290200FD2000001
(1487341971.665782) can0 217#19481950193C1948
(1487341971.666780) can0 082#770814008E804000
(1487341971.666780) can0 085#7F72800024107F6A
(1487341971.668029) can0 047#2000000000000000
(1487341971.669030) can0 165#10CD500000000000
(1487341971.669030) can0 091#7EC47F0766CBF000
(1487341971.669031) can0 092#6FC46F9D736138CB
(1487341971.670029) can0 167#72800710001A1200
(1487341971.670030) can0 178#000001FF0E73CE73
(1487341971.670030) can0 200#00007FFB800D0000
(1487341971.670032) can0 202#044D280060991D8D
(1487341971.671029) can0 204#C0007D02FD000000
(1487341971.671030) can0 230#600600009E000000
(1487341971.671030) can0 261#0000000000000000
(1487341971.672158) can0 42C#8C40000009B00000
(1487341971.673119) can0 078#0569800000000000
(1487341971.673119) can0 186#140001FB009905FB
(1487341971.673120) can0 187#DD1408C800600300
(1487341971.674157) can0 33B#0000000000000000
(1487341971.675908) can0 076#3E7FC0800FFF0000
(1487341971.676906) can0 077#1D8A08037FF809FD
(1487341971.676906) can0 07D#0000FD20001F87EF
(1487341971.676907) can0 085#7F72800023207F6A
(1487341971.676908) can0 213#FFFF00040001FF40
(1487341971.677907) can0 214#000000000000FD20
(1487341971.677907) can0 216#3FA4E05E00000000
(1487341971.677908) can0 217#194C195419381944
(1487341971.677909) can0 3CC#3000000000000000
(1487341971.678906) can0 415#1D90D84908000800
(1487341971.678906) can0 167#72800710001A1200
(1487341971.678907) can0 202#044C300060991D8D
(1487341971.678908) can0 204#C0007D02FC000000
(1487341971.679909) can0 091#7ECF7F0859CCF000
(1487341971.679909) can0 092#6FC46F9B735D3DCC
(1487341971.679910) can0 3A8#0100271000000000
(1487341971.679911) can0 416#5E00F00001000000
(1487341971.680906) can0 41D#8000600000000000
(1487341971.680906) can0 4B0#01008000200000FD
(1487341971.683657) can0 3CA#028017F200000000
(1487341971.685376) can0 05A#00000045EAA10000
(1487341971.686407) can0 217#1950195819381944
(1487341971.687405) can0 082#760814008E804000
(1487341971.687406) can0 085#7F72800022307F6A
(1487341971.688361) can0 047#2000000000000000
(1487341971.688364) can0 165#10CD500000000000
(1487341971.689409) can0 167#72800710001A1200
(1487341971.689410) can0 04A#0200000000000000
(1487341971.689411) can0 04B#00C0D8D8D8D8C000
(1487341971.689412) can0 04C#105FFFC000000000
(1487341971.690407) can0 091#7EDF7F0848CDF000
(1487341971.690408) can0 092#6FC06F9B735D40CD
(1487341971.690408) can0 200#00007FFB800D0000
(1487341971.690409) can0 202#044B380060991D8D
(1487341971.690410) can0 204#C0007D02FC000000
(1487341971.691408) can0 230#600600009E000000
(1487341971.691408) can0 42F#7D04002E66120300
(1487341971.692534) can0 078#0168800000000000
(1487341971.693533) can0 186#140101FB009905FB
(1487341971.693534) can0 187#DD1408C800600300
(1487341971.693534) can0 18A#0020180114000000
(1487341971.693535) can0 083#0020000000000000
(1487341971.694534) can0 2A1#FFFFFFFF00000000
(1487341971.695906) can0 076#3E7FC0800FFF0000
(1487341971.696906) can0 077#1D8908047FF80DFC
(1487341971.696907) can0 07D#0000FC30001F87F4
(1487341971.696907) can0 085#7F72800021407F6A
(1487341971.696909) can0 213#FFFF00040001FF40
(1487341971.697904) can0 214#000000000000FC30
(1487341971.697905) can0 216#58BDFA7800000000
(1487341971.697905) can0 217#1950195819401940
(1487341971.697906) can0 3A8#0100271000000000
(1487341971.698904) can0 415#1D97DC4108000800
(1487341971.698905) can0 167#72800710001A1200
(1487341971.698905) can0 202#044A400060991D8D
(1487341971.698907) can0 204#C0007D02FC000000
(1487341971.699904) can0 091#7EF07F0737CEF000
(1487341971.699905) can0 092#6FBB6F9C73663ACE
(1487341971.699905) can0 41D#8000600000000000
(1487341971.699906) can0 4B0#01008000300000FC
(1487341971.702657) can0 242#0290200ED2000001
(1487341971.705785) can0 217#194C195819441944
(1487341971.706782) can0 082#770814008E804000
(1487341971.706782) can0 085#7F72800020507F6A
(1487341971.707782) can0 3CC#3000000000000000
(1487341971.708780) can0 047#2000000000000000
(1487341971.708780) can0 165#10CD500000000000
(1487341971.708780) can0 091#7EFC7F042DCFF000
(1487341971.708782) can0 167#72800710001A1300
(1487341971.709907) can0 092#6FBA6F9D736C33CF
(1487341971.709908) can0 200#00007FFB800D0000
(1487341971.709908) can0 202#0448480060991D8E
(1487341971.709909) can0 204#C0007D02FC000000
(1487341971.710906) can0 230#600600009E000000
(1487341971.711904) can0 078#0068000000000000
(1487341971.712904) can0 3A7#0E401A045F700000
(1487341971.712904) can0 186#140101FB009905FB
(1487341971.712904) can0 187#DD1408C800600300
(1487341971.713904) can0 3CA#0282E7AF00000000
(1487341971.715905) can0 076#3E7FC0800FFF0000
(1487341971.716904) can0 077#1D8808047FF805FC
(1487341971.716905) can0 07D#0000FB40001FA7FF
(1487341971.716905) can0 085#7F7280001F607F6A
(1487341971.716906) can0 213#FFFF00040001FF40
(1487341971.717904) can0 214#000000000000FB40
(1487341971.717905) can0 216#72D7149200000000
(1487341971.717905) can0 217#19481954194C1944
(1487341971.717906) can0 3A8#0100271000000000
(1487341971.718908) can0 415#1D95E04208000800
(1487341971.718908) can0 167#72800710001A1300
(1487341971.718909) can0 41D#8000600000000000
(1487341971.718910) can0 202#0445500060991D90
(1487341971.719905) can0 091#7F037F0325D0F000
(1487341971.719905) can0 092#6FBB6F9E736B31D0
(1487341971.719905) can0 204#C0007D02FC000000
(1487341971.719907) can0 261#0000000000000000
(1487341971.720905) can0 454#3646200372204242
(1487341971.720905) can0 4B0#01008000400000FB
(1487341971.720908) can0 42F#7D04002E66120300
(1487341971.723654) can0 42C#8C40000009B00000
(1487341971.725783) can0 217#19481954194C1944
(1487341971.726779) can0 082#770814008E804000
(1487341971.726780) can0 085#7F7280001E707F6A
(1487341971.728030) can0 047#2000000000000000
(1487341971.729005) can0 165#10CD500000000000
(1487341971.729006) can0 091#7F047F0224D1F000
(1487341971.729006) can0 167#72800710001A1300
(1487341971.729007) can0 092#6FBC6F9E736E2CD1
(1487341971.730029) can0 200#00007FFB800D0000
(1487341971.730029) can0 202#0444580060991D90
(1487341971.730030) can0 204#C0007D02FC000000
(1487341971.730031) can0 230#600600009E000000
(1487341971.731031) can0 3A6#0E401A045F700000
(1487341971.732029) can0 078#0368800000000000
(1487341971.733032) can0 186#140201FB009905FB
(1487341971.733032) can0 187#DC1408C800700300
(1487341971.734029) can0 33B#0000000000000000
(1487341971.735905) can0 076#3E7FC0800FFF0000
(1487341971.736904) can0 077#1D8808027FF805FC
(1487341971.736905) can0 07D#0000FA50001FC803
(1487341971.736905) can0 085#7F7280001C807F6B
(1487341971.736906) can0 213#FFFF00040001FF40
(1487341971.737904) can0 214#000000000000FA50
(1487341971.737904) can0 216#8CF22DAB00000000
(1487341971.737905) can0 217#1948195819501948
(1487341971.737906) can0 3CC#3000000000000000
(1487341971.738908) can0 415#1D8FE44707FF07FF
(1487341971.738908) can0 167#72800710001A1300
(1487341971.738909) can0 202#0442600060991D91
(1487341971.738910) can0 204#C0007D02FC000000
(1487341971.739904) can0 091#7F037F0224D2F000
(1487341971.739905) can0 092#6FBB6F9F737E1BD2
(1487341971.739905) can0 3A8#0100271000000000
(1487341971.739907) can0 41D#8000600000000000
(1487341971.740906) can0 455#A000000000000000
(1487341971.740907) can0 4B0#01008000500000FA
(1487341971.742658) can0 242#0290200FD2000001
(1487341971.743654) can0 3CA#0282E7AF00000000
(1487341971.745781) can0 217#194C1958194C1948
(1487341971.746779) can0 082#760814008E804000
(1487341971.746780) can0 085#7F7280001B907F6B
(1487341971.748006) can0 047#2000000000000000
(1487341971.749078) can0 05C#00D000EF201E0000
(1487341971.749079) can0 165#10CD500000000000
(1487341971.749080) can0 167#72800710001A1300
(1487341971.749082) can0 091#7EFC7F012CD3F000
(1487341971.750030) can0 092#6FB86F9F73900BD3
(1487341971.750031) can0 200#00007FFB800D0000
(1487341971.750031) can0 202#0442680060991D90
(1487341971.750032) can0 204#C0007D02FC000000
(1487341971.751030) can0 230#600600009E000000
(1487341971.751030) can0 42F#7D04002E66120300
(1487341971.752030) can0 078#0168800000000000
(1487341971.752031) can0 186#140301FB009905FB
(1487341971.753031) can0 187#DC1408C800700300
(1487341971.753032) can0 422#0000008E3802FE02
(1487341971.753032) can0 423#CDA0000000000000
(1487341971.753034) can0 430#3F000ED1E8897700
(1487341971.754028) can0 5B3#B300FFFFFFFFFFFF
(1487341971.755155) can0 05D#8357AF5F33000000
(1487341971.756154) can0 076#3E7FC0800FFF0000
(1487341971.756154) can0 077#1D8908027FF805FD
(1487341971.757157) can0 07D#0000F96000201803
(1487341971.757157) can0 085#7F7280001AA07F6B
(1487341971.757158) can0 213#FFFF00040001FF40
(1487341971.757159) can0 214#000000000000F960
(1487341971.758155) can0 216#A70C47C500000000
(1487341971.758156) can0 217#195019581944194C
(1487341971.758156) can0 415#1D96E83F07FF07FF
(1487341971.758157) can0 41D#8000600000000000
(1487341971.759155) can0 167#72800710001A1300
(1487341971.759158) can0 202#0442700060991D8F
(1487341971.759158) can0 204#C0007D02FB000000
(1487341971.759160) can0 091#7EED7F013AD4F000
(1487341971.760156) can0 092#6FB76FA0739505D4
(1487341971.760156) can0 3A8#0100271000000000
(1487341971.760157) can0 4B0#01008000600000F9
(1487341971.765782) can0 217#1950195819401948
(1487341971.766736) can0 082#770814008E804000
(1487341971.766737) can0 085#7F7180001AB07F6B
(1487341971.767780) can0 3CC#3000000000000000
(1487341971.768779) can0 047#2000000000000000
(1487341971.768780) can0 091#7EDC7F014AD5F000
(1487341971.768780) can0 165#10CD500000000000
(1487341971.769781) can0 092#6FB86F9E738E0CD5
(1487341971.769781) can0 167#72800710001A1300
(1487341971.769782) can0 178#000001FF0E73CE73
(1487341971.769783) can0 200#00007FFB800D0000
(1487341971.770905) can0 202#0440780060991D90
(1487341971.770906) can0 204#C0007D02FB000000
(1487341971.770906) can0 230#600600009E000000
(1487341971.770907) can0 261#0000000000000000
(1487341971.771904) can0 186#140301FB009905FB
(1487341971.772908) can0 187#DC1408C800700300
(1487341971.772908) can0 42C#8C40000009B00000
(1487341971.772909) can0 078#0469000000000000
(1487341971.773906) can0 3CA#0282E7AF00000000
(1487341971.775905) can0 076#3E7FC0800FFF0000
(1487341971.776905) can0 077#1D8908027FF801FD
(1487341971.776905) can0 07D#0000F870002087FE
(1487341971.776906) can0 085#7F71800019C07F6B
(1487341971.776907) can0 213#FFFF00040001FF40
(1487341971.777906) can0 214#000000000000F870
(1487341971.777907) can0 216#C12662DF00000000
(1487341971.777907) can0 217#1950195C19401948
(1487341971.777908) can0 3A8#0100271000000000
(1487341971.778905) can0 415#1D97EC3D07FF07FF
(1487341971.778905) can0 167#72800710001A1300
(1487341971.778906) can0 416#5F00EF0001000000
(1487341971.778907) can0 202#044E000060991D91
(1487341971.779905) can0 091#7ED07EFE59D6F000
(1487341971.779906) can0 092#6FBC6F9F738212D6
(1487341971.779906) can0 204#C0007D02FB000000
(1487341971.779908) can0 41D#8000600000000000
(1487341971.780905) can0 4B0#01008000700000F8
(1487341971.780905) can0 42F#7D04002E661202FF
(1487341971.782782) can0 242#0290200ED2000001
(1487341971.785406) can0 05A#00000045F0410000
(1487341971.786405) can0 217#1950195C19401944
(1487341971.787405) can0 082#770814008E804000
(1487341971.787405) can0 085#7F71800018D07F6B
(1487341971.788405) can0 047#2000000000000000
(1487341971.788405) can0 165#10CD500000000000
(1487341971.789406) can0 167#72800710001A1300
(1487341971.789407) can0 200#00007FFB800D0000
(1487341971.789407) can0 04A#0200000000000000
(1487341971.789409) can0 04B#00C0D8D8D8D8C000
(1487341971.790530) can0 04C#105FFFC000000000
(1487341971.790531) can0 091#7ECB7EFB60D7F000
(1487341971.790531) can0 092#6FBD6FA0737A17D7
(1487341971.790532) can0 202#044D080060991D91
(1487341971.790533) can0 204#C0007D02FB000000
(1487341971.791530) can0 230#600600009E000000
(1487341971.792531) can0 186#140301FB009905FB
(1487341971.792531) can0 187#DC1408C800700300
(1487341971.792533) can0 078#0168800000000000
(1487341971.792533) can0 18A#0020180114000000
(1487341971.793532) can0 083#0020000000000000
(1487341971.794530) can0 2A1#FFFFFFFF00000000
(1487341971.794531) can0 33B#0000000000000000
(1487341971.794531) can0 3CD#0000000000000000
(1487341971.794532) can0 3D8#0000000080C53030
(1487341971.795904) can0 076#3E7EC0800FFF0000
(1487341971.796904) can0 077#1D8908017FF805FD
(1487341971.796907) can0 07D#0000F780002027F5
(1487341971.796907) can0 085#7F71800017E07F6B
(1487341971.796908) can0 213#FFFF00040001FF40
(1487341971.797904) can0 214#000000000000F780
(1487341971.797904) can0 216#DB407CF900000000
(1487341971.797905) can0 217#1950195C19441944
(1487341971.797906) can0 3A8#0100271000000000
(1487341971.798905) can0 3CC#3000000000000000
(1487341971.798906) can0 167#72800810001A1300
(1487341971.798906) can0 202#044B100060991D92
(1487341971.798907) can0 204#C0007D02FA000000
(1487341971.799906) can0 091#7ECA7EFA61D8F000
(1487341971.799906) can0 415#1D9BF03807FF07FF
(1487341971.799906) can0 092#6FBB6FA0737A18D8
(1487341971.799908) can0 41D#8000600000000000
(1487341971.800906) can0 4B0#01008000800000F7
(1487341971.804036) can0 3CA#0282E7AF00000000
(1487341971.805656) can0 217#1948195C19481948
(1487341971.806654) can0 082#790814008E804000
(1487341971.807654) can0 085#7F71800016F07F6B
(1487341971.808655) can0 047#2000000000000000
(1487341971.808655) can0 165#10CD500000000000
(1487341971.808655) can0 167#72800810001A1300
(1487341971.809656) can0 091#7EC07EFA6AD9F000
(1487341971.809656) can0 092#6FB76F9F73791DD9
(1487341971.809657) can0 200#00007FFB800D0000
(1487341971.809658) can0 202#0449180060991D93
(1487341971.810780) can0 204#C0007D02FA000000
(1487341971.810781) can0 230#600600009E000000
(1487341971.810781) can0 42F#7D04002E661202FF
(1487341971.811780) can0 186#140301FB009905FB
(1487341971.812749) can0 078#0168800000000000
(1487341971.812750) can0 187#DC1408C800700300
(1487341971.812751) can0 084#110000301F2B0900
(1487341971.815867) can0 076#3E7EC0800FFF0000
(1487341971.816873) can0 077#1D8808007FF805FD
(1487341971.816874) can0 07D#0000F690002007F3
(1487341971.816874) can0 085#7F71800025007F6B
(1487341971.816875) can0 213#FFFF00040001FF40
(1487341971.817907) can0 214#000000000000F690
(1487341971.817908) can0 216#F459961200000000
(1487341971.817908) can0 217#1948195819501948
(1487341971.817909) can0 415#1D94F43E07FF07FF
(1487341971.818904) can0 41D#8000600000000000
(1487341971.818904) can0 167#72800810001A1300
(1487341971.818905) can0 202#0447200060991D94
(1487341971.818906) can0 204#C0007D02F9000000
(1487341971.819904) can0 091#7EB27EF978DAF000
(1487341971.819905) can0 092#6FB76F9E737323DA
(1487341971.819905) can0 261#0000000000000000
(1487341971.819906) can0 3A8#0100270F00000000
(1487341971.820904) can0 4B0#01008000900000F6
(1487341971.823154) can0 242#0290200ED2000001
(1487341971.824154) can0 3B3#4048020F10050002
(1487341971.824154) can0 40A#C110409060250000
(1487341971.824155) can0 42C#8C40000009B00000
(1487341971.825906) can0 217#1948195419501948
(1487341971.826905) can0 082#780814008E804000
(1487341971.826906) can0 085#7F71800024107F6B
(1487341971.827904) can0 3CC#3000000000000000
(1487341971.828904) can0 047#2000000000000000
(1487341971.828905) can0 165#10CD500000000000
(1487341971.828905) can0 167#72800810001A1400
(1487341971.828906) can0 200#00007FFB800D0000
(1487341971.829906) can0 091#7EAA7EFA7EDBF000
(1487341971.829906) can0 092#6FBC6F9C737022DB
(1487341971.829907) can0 202#0446280060991D94
(1487341971.829908) can0 204#C0007D02F9000000
(1487341971.830905) can0 230#600600009E000000
(1487341971.831906) can0 186#140401FB009905FB
(1487341971.831907) can0 187#DB1408C800800300
(1487341971.831907) can0 078#0068000000000000
(1487341971.833658) can0 3CA#028207AA00000000
(1487341971.835910) can0 076#3E7EC0800FFF0000
(1487341971.836908) can0 077#1D8A07FF7FF801FC
(1487341971.836908) can0 07D#0000F5A0001FE7EB
(1487341971.836909) can0 085#7F71800023207F6B
(1487341971.836910) can0 213#FFFF00040001FF40
(1487341971.837906) can0 214#000000000000F5A0
(1487341971.837906) can0 216#0E73B02E00000000
(1487341971.837906) can0 217#1948195419501948
(1487341971.837908) can0 415#1D90F84107FF07FF
(1487341971.838908) can0 41D#8000600000000000
(1487341971.838909) can0 167#72800810001A1400
(1487341971.838909) can0 455#A000000000000000
(1487341971.838911) can0 202#0446300060991D93
(1487341971.839906) can0 091#7EAB7EFB7BDCF000
(1487341971.839906) can0 092#6FBF6F9B73731CDC
(1487341971.839907) can0 204#C0007D02F9000000
(1487341971.839908) can0 3A8#0100270F00000000
(1487341971.840907) can0 4B0#01008000A00000F5
(1487341971.840908) can0 42F#7D04002E661202FF
(1487341971.845782) can0 217#194C19541948194C
(1487341971.846780) can0 082#750814008E804000
(1487341971.846780) can0 085#7F71800022307F6B
(1487341971.848029) can0 047#2000000000000000
(1487341971.849031) can0 05C#007000F5201E0000
(1487341971.849031) can0 165#10CD500000000000
(1487341971.849032) can0 167#72800810001A1400
(1487341971.849033) can0 091#7EB67EFA70DDF000
(1487341971.850003) can0 092#6FBE6F9C737717DD
(1487341971.850003) can0 200#00007FFB800E0000
(1487341971.850003) can0 202#0445380060991D93
(1487341971.850005) can0 204#C0007D02F9000000
(1487341971.851029) can0 230#600600009E000000
(1487341971.852029) can0 186#140401FB009905FB
(1487341971.852029) can0 187#DB1408C800800300
(1487341971.852030) can0 078#0168800000000000
(1487341971.852031) can0 422#0000008E3802FE02
(1487341971.853032) can0 423#CDA0000000000000
(1487341971.853033) can0 430#37000ED1C8897700
(1487341971.854029) can0 33B#0000000000000000
(1487341971.855155) can0 05D#8357976038000000
(1487341971.856154) can0 076#3E7EC0800FFF0000
(1487341971.856155) can0 077#1D8A08007FF809FC
(1487341971.857159) can0 07D#0000F4B0001FE7E9
(1487341971.857160) can0 085#7F71800021407F6B
(1487341971.857161) can0 213#FFFF00040001FF40
(1487341971.857162) can0 214#000000000000F4B0
(1487341971.858157) can0 216#298EC94700000000
(1487341971.858158) can0 217#1950195419401950
(1487341971.858158) can0 3CC#3000000000000000
(1487341971.858159) can0 415#1D92FC3E07FF07FF
(1487341971.859159) can0 41D#8000600000000000
(1487341971.859159) can0 167#72800810001A1400
(1487341971.859160) can0 091#7EC97EF95DDEF000
(1487341971.859161) can0 092#6FBD6F9E737616DE
(1487341971.860156) can0 202#0445400060991D92
(1487341971.860157) can0 204#C0007D02F8000000
(1487341971.860157) can0 3A8#0100270F00000000
(1487341971.860158) can0 4B0#01008000B00000F4
(1487341971.862658) can0 242#0290200ED2000001
(1487341971.863654) can0 3CA#028207AA00000000
(1487341971.865781) can0 217#194C195419381948
(1487341971.866781) can0 082#740814008E804000
(1487341971.866781) can0 085#7F71800020507F6B
(1487341971.868029) can0 047#2000000000000000
(1487341971.869033) can0 091#7EDD7EF74ADFF000
(1487341971.869033) can0 165#10CD500000000000
(1487341971.869034) can0 092#6FBF6F9D737416DF
(1487341971.870029) can0 167#72800810001A1400
(1487341971.870029) can0 178#000001FE0E73CE73
(1487341971.870030) can0 200#00007FFB800E0000
(1487341971.871031) can0 202#0445480060991D91
(1487341971.871031) can0 204#C0007D02F8000000
(1487341971.871032) can0 230#600600009E000000
(1487341971.871035) can0 261#0000000000000000
(1487341971.872032) can0 186#140401FB009905FB
(1487341971.872032) can0 187#DB1408C800800300
(1487341971.872033) can0 42F#7D04002E661202FF
(1487341971.873035) can0 078#0568800000000000
(1487341971.873035) can0 42C#8C40000009B00000
(1487341971.875904) can0 076#3E7EC0800FFF0000
(1487341971.876904) can0 077#1D8B07FF7FF805FC
(1487341971.876904) can0 07D#0000F3C0001FF7F2
(1487341971.876905) can0 085#7F7180001F607F6B
(1487341971.876906) can0 213#FFFF00040001FF40
(1487341971.877907) can0 214#000000000000F3C0
(1487341971.877908) can0 216#43A8E36100000000
(1487341971.877908) can0 217#19501954193C1944
(1487341971.877909) can0 3A8#0100270F00000000
(1487341971.878906) can0 415#1D94C04B07FF07FF
(1487341971.878907) can0 167#72800810001A1400
(1487341971.878907) can0 202#0444500060991D91
(1487341971.878909) can0 091#7EE57EF543E0F000
(1487341971.879907) can0 092#6FBD6F9A73741AE0
(1487341971.879907) can0 204#C0007D02F7000000
(1487341971.879908) can0 416#5000FE0001000000
(1487341971.879909) can0 41D#8000600000000000
(1487341971.880908) can0 4B0#01008000C00000F3
(1487341971.885408) can0 05A#00000045E6E10000
(1487341971.886406) can0 217#19501958193C1940
(1487341971.887407) can0 082#730814008E804000
(1487341971.887407) can0 085#7F7180001E707F6B
(1487341971.887408) can0 3CC#3000000000000000
(1487341971.888407) can0 047#2000000000000000
(1487341971.888408) can0 165#10CD500000000000
(1487341971.889408) can0 04A#0200000000000000
(1487341971.889408) can0 04B#00C0D8D8D8D8C000
(1487341971.889409) can0 04C#105FFFC000000000
(1487341971.889410) can0 091#7EE07EF448E1F000
(1487341971.890408) can0 092#6FB66F97737621E1
(1487341971.890408) can0 167#72800810001A1400
(1487341971.890409) can0 200#00007FFB800E0000
(1487341971.890410) can0 202#0443580060991D91
(1487341971.890411) can0 204#C0007D02F7000000
(1487341971.891407) can0 230#600600009E000000
(1487341971.891407) can0 186#140401FB009905FB
(1487341971.891409) can0 187#DB1408C800800300
(1487341971.892409) can0 18A#0020180114000000
(1487341971.892410) can0 078#0069000000000000
(1487341971.893533) can0 083#0020000000000000
(1487341971.894533) can0 2A1#FFFFFFFF00000000
(1487341971.894534) can0 3CA#028207AA00000000
(1487341971.895907) can0 076#3E7EC0800FFF0000
(1487341971.896906) can0 077#1D8907FF7FF805FB
(1487341971.896906) can0 07D#0000F2D0001FE7FB
(1487341971.896907) can0 085#7F7080001E807F6B
(1487341971.896908) can0 213#FFFF00040001FF40
(1487341971.897904) can0 214#000000000000F2D0
(1487341971.897904) can0 216#5DC2FD7B00000000
(1487341971.897905) can0 217#194C195819441940
(1487341971.897906) can0 3A8#0100270F00000000
(1487341971.898904) can0 415#1D96C44807FF07FF
(1487341971.898905) can0 167#72800810001A1400
(1487341971.898905) can0 41D#8000600000000000
(1487341971.898906) can0 202#0442600060991D91
(1487341971.899907) can0 091#7EDB7EF44CE2F000
(1487341971.899907) can0 092#6FB26F97737D1DE2
(1487341971.899908) can0 204#C0007D02F7000000
(1487341971.899909) can0 4B0#01008000D00000F2
(1487341971.900905) can0 42F#7D04002E661202FF
(1487341971.902655) can0 242#0290200ED2000001
(1487341971.905782) can0 217#1948195419481944
(1487341971.906779) can0 082#720814008E804000
(1487341971.906780) can0 085#7F7080001D907F6B
(1487341971.908030) can0 047#2000000000000000
(1487341971.909033) can0 165#10CD500000000000
(1487341971.909034) can0 167#72800810001A1500
(1487341971.909037) can0 200#00007FFB800E0000
(1487341971.909038) can0 091#7ED67EF450E3F000
(1487341971.910032) can0 092#6FB46F98738115E3
(1487341971.910033) can0 202#0440680060991D92
(1487341971.910033) can0 204#C0007D02F7000000
(1487341971.910035) can0 230#600600009E000000
(1487341971.911040) can0 186#140401FB009905FB
(1487341971.912029) can0 187#DB1408C800800300
(1487341971.912030) can0 078#0168800000000000
(1487341971.912030) can0 3A7#0E401A045F700000
(1487341971.913532) can0 33B#0000000000000000
(1487341971.915904) can0 076#3E7EC0800FFF0000
(1487341971.916904) can0 077#1D8807FF7FF7FDFA
(1487341971.916905) can0 07D#0000F1E0002017F8
(1487341971.916905) can0 085#7F6F80001EA07F6A
(1487341971.916906) can0 213#FFFF00040001FF40
(1487341971.917906) can0 214#000000000000F1E0
(1487341971.917907) can0 216#77DC179500000000
(1487341971.917907) can0 217#19441950194C1948
(1487341971.917908) can0 3A8#0100270F00000000
(1487341971.918904) can0 3CC#3000000000000000
(1487341971.918905) can0 167#72800810001A1500
(1487341971.918905) can0 202#043F700060991D92
(1487341971.918906) can0 204#C0007D02F7000000
(1487341971.919904) can0 091#7ED57EF450E4F000
(1487341971.919904) can0 092#6FB86F97737D15E4
(1487341971.919905) can0 261#0000000000000000
(1487341971.919906) can0 415#1D8FC84E07FF07FF
(1487341971.920905) can0 41D#8000600000000000
(1487341971.920905) can0 4B0#01008000E00000F1
(1487341971.922654) can0 42C#8C40000009B00000
(1487341971.923657) can0 3CA#028207AA00000000
(1487341971.925533) can0 3A6#0E401A045F700000
(1487341971.926530) can0 217#1944195019501948
(1487341971.926531) can0 082#730814008E804000
(1487341971.927530) can0 085#7F6F80001CB07F6B
(1487341971.928656) can0 047#2000000000000000
(1487341971.928656) can0 165#10CD500000000000
(1487341971.928656) can0 167#72800810001A1500
(1487341971.929658) can0 091#7EDD7EF447E5F000
(1487341971.929659) can0 092#6FBA6F97737619E5
(1487341971.929659) can0 200#00007FFB800E0000
(1487341971.929661) can0 202#043F780060991D91
(1487341971.930654) can0 204#C0007D02F7000000
(1487341971.930655) can0 230#600600009E000000
(1487341971.930655) can0 42F#7D04002E661202FE
(1487341971.931654) can0 186#140401FB009905FB
(1487341971.931655) can0 187#DA1408C800900300
(1487341971.932654) can0 078#0168800000000000
(1487341971.935907) can0 076#3E7DC0800FFF0000
(1487341971.936905) can0 077#1D8807FF7FF801FA
(1487341971.936905) can0 07D#0000F0F0002017F6
(1487341971.936906) can0 085#7F6E80001DC07F6A
(1487341971.936907) can0 213#FFFF00040001FF40
(1487341971.937904) can0 214#000000000000F0F0
(1487341971.937905) can0 216#90F632AF00000000
(1487341971.937905) can0 217#19441950194C1948
(1487341971.937906) can0 415#1D8ACC5207FE07FE
(1487341971.938905) can0 41D#8000600000000000
(1487341971.938905) can0 167#72800810001A1500
(1487341971.938906) can0 202#044E000060991D91
(1487341971.938907) can0 204#C0007D02F7000000
(1487341971.939904) can0 091#7EEA7EF439E6F000
(1487341971.939904) can0 092#6FB96F99736C21E6
(1487341971.939905) can0 3A8#0100270F00000000
(1487341971.939906) can0 455#A000000000000000
(1487341971.940905) can0 4B0#01008000F00000F0
(1487341971.942654) can0 242#0290200FD2000001
(1487341971.945780) can0 217#1948194C1944194C
(1487341971.946780) can0 082#730814008E804000
(1487341971.946781) can0 085#7F6E80001BD07F6B
(1487341971.947905) can0 3CC#3000000000000000
(1487341971.948906) can0 047#2000000000000000
(1487341971.948909) can0 05C#001000FB201E0000
(1487341971.948909) can0 091#7EF47EF42EE7F000
(1487341971.948910) can0 165#10CD500000000000
(1487341971.949905) can0 092#6FB46F9D735E2FE7
(1487341971.949906) can0 167#72800810001A1400
(1487341971.949906) can0 200#00007FFB800E0000
(1487341971.949907) can0 202#044F080060991D8F
(1487341971.950904) can0 204#C0007D02F7000000
(1487341971.950904) can0 230#600600009E000000
(1487341971.950905) can0 186#140401FB009905FB
(1487341971.951904) can0 187#DA1408C800900300
(1487341971.951904) can0 078#0068000000000000
(1487341971.952904) can0 422#0000008E3802FE02
(1487341971.952905) can0 423#CDA0000000000000
(1487341971.952905) can0 430#37000ED1C8897700
(1487341971.953904) can0 3CA#028157B100000000
(1487341971.955029) can0 05D#8357BF5F2F000000
(1487341971.956031) can0 076#3E7CC0800FFF0000
(1487341971.957157) can0 077#1D8807FF7FF801FB
(1487341971.957157) can0 07D#0000FF00001FC7FD
(1487341971.957158) can0 085#7F6E80001AE07F6B
(1487341971.957159) can0 213#FFFF00040001FF40
(1487341971.957160) can0 214#000000000000FF00
(1487341971.958155) can0 216#AA0F4CC800000000
(1487341971.958156) can0 217#1948194C1940194C
(1487341971.958157) can0 415#1D8AD05107FE07FE
(1487341971.958158) can0 41D#8000600000000000
(1487341971.959156) can0 167#72800810001A1400
(1487341971.959156) can0 4B0#01008000000000FF
(1487341971.959157) can0 202#044F100060991D8E
(1487341971.959158) can0 091#7EF97EF428E8F000
(1487341971.960155) can0 092#6FB06F9D73553BE8
(1487341971.960155) can0 204#C0007D02F6000000
(1487341971.960156) can0 3A8#0100270D00000000
(1487341971.960157) can0 42F#7D04002E661202FE
(1487341971.965782) can0 217#19481950193C1948
(1487341971.966779) can0 082#720814008E804000
(1487341971.966779) can0 085#7F6E800019F07F6B
(1487341971.968029) can0 047#2000000000000000
(1487341971.969033) can0 165#10CD500000000000
(1487341971.969033) can0 091#7EFB7EF425E9F000
(1487341971.969034) can0 092#6FAF6F9D73563AE9
(1487341971.970029) can0 167#72800810001A1500
(1487341971.970029) can0 178#000001FF0E73CE73
(1487341971.970030) can0 200#00007FFB800E0000
(1487341971.970031) can0 202#044F180060991D8D
(1487341971.971029) can0 204#C0007D02F6000000
(1487341971.971030) can0 230#600600009E000000
(1487341971.971030) can0 261#0000000000000000
(1487341971.971031) can0 186#140401FB009905FB
(1487341971.972036) can0 187#DA1408C800900300
(1487341971.973031) can0 078#0569800000000000
(1487341971.974031) can0 42C#8C40000009B00000
(1487341971.974031) can0 33B#0000000000000000
(1487341971.975904) can0 076#3E7BC0800FFF0000
(1487341971.976904) can0 077#1D8807FF7FF7F9FC
(1487341971.976904) can0 07D#0000FE10001F5800
(1487341971.976904) can0 085#7F6E800027007F6C
(1487341971.976906) can0 213#FFFF00040001FF40
(1487341971.977905) can0 214#000000000000FE10
(1487341971.977906) can0 216#C42965E200000000
(1487341971.977906) can0 217#194C195419381944
(1487341971.977907) can0 3A8#0100270D00000000
(1487341971.978905) can0 3CC#3000000000000000
(1487341971.978905) can0 167#72800810001A1400
(1487341971.978906) can0 202#044F200060991D8C
(1487341971.978907) can0 204#C0007D02F6000000
(1487341971.979905) can0 091#7EFA7EF425EAF000
(1487341971.979906) can0 092#6FB06F9B735B35EA
(1487341971.979906) can0 415#1D8CD44E07FE07FE
(1487341971.979907) can0 416#5100FD0001000000
(1487341971.980906) can0 41D#8000600000000000
(1487341971.980906) can0 4B0#01008000100000FE
(1487341971.982654) can0 242#0290200FD2000001
(1487341971.983656) can0 3CA#028157B100000000
(1487341971.985406) can0 05A#00000045EC810000
(1487341971.986404) can0 168#0000000000000000
(1487341971.986405) can0 217#194C195419401944
(1487341971.987406) can0 082#710814008E804000
(1487341971.987406) can0 085#7F6D800028107F6B
(1487341971.988408) can0 047#2000000000000000
(1487341971.988409) can0 165#10CD500000000000
(1487341971.989405) can0 04A#0200000000000000
(1487341971.989406) can0 04B#00C0D8D8D8D8C000
(1487341971.989406) can0 04C#105FFFC000000000
(1487341971.989407) can0 091#7EF77EF427EBF000
(1487341971.990405) can0 092#6FB36F9873612EEB
(1487341971.990406) can0 167#72800810001A1400
(1487341971.990406) can0 200#00007FFB800E0000
(1487341971.990408) can0 202#044E280060991D8C
(1487341971.991404) can0 186#140401FB009905FB
(1487341971.991405) can0 187#DA1408C800900300
(1487341971.991405) can0 18A#0020180114000000
(1487341971.991407) can0 204#C0007D02F6000000
(1487341971.991407) can0 230#600600009E000000
(1487341971.992405) can0 42F#7D04002E661202FE
(1487341971.992405) can0 078#0168800000000000
(1487341971.993532) can0 083#0020000000000000
(1487341971.994530) can0 2A1#FFFFFFFF00000000
(1487341971.995904) can0 076#3E7BC0800FFF0000
(1487341971.996904) can0 077#1D8707FF7FF7F9FC
(1487341971.996905) can0 07D#0000FD20001F7800
(1487341971.996905) can0 085#7F6D800027207F6B
(1487341971.996906) can0 213#FFFF00040001FF40
(1487341971.997904) can0 214#000000000000FD20
(1487341971.997905) can0 216#DF437FFD00000000
(1487341971.997905) can0 217#1948195419441944
(1487341971.997907) can0 3A8#0100270C00000000
(1487341971.998906) can0 415#1D96D84307FE07FE
(1487341971.998906) can0 167#72800810001A1500
(1487341971.998907) can0 202#044E300060991D8B
(1487341971.998908) can0 204#C0007D02F6000000
(1487341971.999906) can0 091#7EF47EF429ECF000
(1487341971.999906) can0 092#6FB46F9A736229EC
(1487341971.999906) can0 41D#8000600000000000
(1487341971.999908) can0 4B0#01008000200000FD
(1487341972.005783) can0 217#19441954194C1944
(1487341972.006781) can0 082#710814008E804000
(1487341972.006782) can0 085#7F6D800026307F6B
(1487341972.007781) can0 3CC#3000000000000000
(1487341972.008906) can0 047#2000000000000000
(1487341972.008907) can0 165#10CD500000000000
(1487341972.008907) can0 167#72800810001A1500
(1487341972.008909) can0 200#00007FFB800E0000
(1487341972.009907) can0 091#7EF07EF42CEDF000
(1487341972.009908) can0 092#6FAE6F9F735734ED
(1487341972.009908) can0 202#044B380060991D8D
(1487341972.009909) can0 204#C0007D02F6000000
(1487341972.010905) can0 230#600600009E000000
(1487341972.010906) can0 186#140401FB009905FB
(1487341972.010906) can0 187#DA1408C800900300
(1487341972.011904) can0 078#0068000000000000
(1487341972.013659) can0 3CA#028157B100000000
(1487341972.015904) can0 076#3E7AC0800FFF0000
(1487341972.016880) can0 077#1D8707FF7FF7FDFB
(1487341972.016881) can0 07D#0000FC30001F97FF
(1487341972.016881) can0 085#7F6D800025407F6B
(1487341972.016883) can0 213#FFFF00040001FF40
(1487341972.017906) can0 214#000000000000FC30
(1487341972.017906) can0 216#F95E991700000000
(1487341972.017907) can0 217#1944195019501944
(1487341972.017908) can0 3A8#0100270C00000000
(1487341972.018907) can0 415#1D8DDC4B07FD07FD
(1487341972.018908) can0 167#72800810001A1500
(1487341972.018908) can0 41D#8000600000000000
(1487341972.018909) can0 202#0449400060991D8E
(1487341972.019905) can0 091#7EE97EF432EEF000
(1487341972.019905) can0 092#6FA96FA1734B42EE
(1487341972.019906) can0 204#C0007D02F6000000
(1487341972.019907) can0 261#0000000000000000
(1487341972.020904) can0 4B0#01008000300000FC
(1487341972.020905) can0 42F#7D04002E661202FD
(1487341972.022635) can0 242#0290200FD2000001
(1487341972.023655) can0 40A#C000000805E9D300
(1487341972.023656) can0 42C#8C40000009B00000
(1487341972.025780) can0 217#1948195019501948
(1487341972.026905) can0 082#700814008E804000
(1487341972.026905) can0 085#7F6C800025507F6B
(1487341972.028405) can0 047#2000000000000000
(1487341972.029407) can0 165#10CD500000000000
(1487341972.029408) can0 091#7EE77EF433EFF000
(1487341972.029408) can0 092#6FAB6FA3734E3AEF
(1487341972.029409) can0 167#72800810001A1500
(1487341972.030404) can0 200#00007FFB800E0000
(1487341972.030405) can0 202#0449480060991D8D
(1487341972.030405) can0 204#C0007D02F6000000
(1487341972.030406) can0 186#140401FB009905FB
(1487341972.031408) can0 187#D91408C800A00300
(1487341972.031408) can0 230#600600009E000000
(1487341972.032405) can0 078#0168800000000000
(1487341972.033531) can0 33B#0000000000000000
(1487341972.035904) can0 076#3E7CC0800FFF0000
(1487341972.036904) can0 077#1D8807FF7FF7F1FD
(1487341972.036905) can0 07D#0000FB40001F27FC
(1487341972.036905) can0 085#7F6C800024607F6B
(1487341972.036907) can0 213#FFFF00040001FF40
(1487341972.037874) can0 214#000000000000FB40
(1487341972.037875) can0 216#1378B33100000000
(1487341972.037875) can0 217#19481950194C194C
(1487341972.037876) can0 3CC#3000000000000000
(1487341972.038873) can0 415#1D8CE04B07FD07FD
(1487341972.038874) can0 41D#8000600000000000
(1487341972.038874) can0 167#72800810001A1500
(1487341972.038875) can0 202#0448500060991D8D
(1487341972.039904) can0 091#7EED7EF42CF0F000
(1487341972.039905) can0 092#6FB06FA2735B28F0
(1487341972.039905) can0 204#C0007D02F6000000
(1487341972.039906) can0 3A8#0100270A00000000
(1487341972.040905) can0 455#A000000000000000
(1487341972.040905) can0 4B0#01008000400000FB
(1487341972.043654) can0 3CA#028157B100000000
(1487341972.045781) can0 217#1948195019441948
(1487341972.046781) can0 082#700814008E804000
(1487341972.046781) can0 085#7F6B800025707F6A
(1487341972.048280) can0 047#2000000000000000
(1487341972.049282) can0 091#7EF47EF424F1F000
(1487341972.049282) can0 05C#00B000F1201E0000
(1487341972.049283) can0 092#6FB26FA173641DF1
(1487341972.049284) can0 165#10CD500000000000
(1487341972.050282) can0 167#72800810001A1500
(1487341972.050283) can0 200#00007FFB800E0000
(1487341972.050283) can0 186#140401FB009905FB
(1487341972.050284) can0 187#D91408C800A00300
(1487341972.051405) can0 202#0447580060991D8D
(1487341972.051405) can0 204#C0007D02F5000000
(1487341972.051406) can0 230#600600009E000000
(1487341972.051407) can0 42F#7D04002E661202FD
(1487341972.052406) can0 078#0168800000000000
(1487341972.052407) can0 422#0000008E3802FE02
(1487341972.052407) can0 423#CDA0000000000000
(1487341972.053404) can0 430#37000ED1C889F700
(1487341972.055030) can0 05D#8357A75F35000000
(1487341972.056029) can0 076#3E7CC0800FFF0000
(1487341972.057157) can0 077#1D8907FF7FF7F9FD
(1487341972.057157) can0 07D#0000FA50001F77FE
(1487341972.057158) can0 085#7F6B800024807F6A
(1487341972.057159) can0 169#0082C00000000000
(1487341972.057159) can0 213#FFFF00040001FF40
(1487341972.058154) can0 214#000000000000FA50
(1487341972.058157) can0 216#2D92CD4B00000000
(1487341972.058158) can0 217#19481950193C194C
(1487341972.058159) can0 3A8#0100270D00000000
(1487341972.059154) can0 415#1D8FE44707FD07FD
(1487341972.059155) can0 167#72800810001A1500
(1487341972.059155) can0 202#0447600060991D8C
(1487341972.059156) can0 091#7EFA7EF41DF2F000
(1487341972.060157) can0 092#6FB06FA073661DF2
(1487341972.060157) can0 204#C0007D02F5000000
(1487341972.060158) can0 41D#8000600000000000
(1487341972.060159) can0 4B0#01008000500000FA
(1487341972.062531) can0 242#0290200FD2000001
(1487341972.065779) can0 217#194C1958193C1948
(1487341972.066780) can0 082#700814008E804000
(1487341972.066781) can0 085#7F6B800023907F6A
(1487341972.067780) can0 3CC#3000000000000000
(1487341972.068906) can0 047#2000000000000000
(1487341972.068906) can0 091#7EFC7EF41AF3F000
(1487341972.068907) can0 092#6FAE6F9E736125F3
(1487341972.069905) can0 165#10CD500000000000
(1487341972.069906) can0 167#72800910001A1500
(1487341972.069906) can0 178#000001FF0E73CE73
(1487341972.070904) can0 200#00007FFB800E0000
(1487341972.070905) can0 186#140401FB009905FB
(1487341972.070905) can0 187#D91408C800A00300
(1487341972.070906) can0 202#0446680060991D8C
(1487341972.071906) can0 204#C0007D02F4000000
(1487341972.071906) can0 230#600600009E000000
(1487341972.071907) can0 261#0000000000000000
(1487341972.072905) can0 078#0468000000000000
(1487341972.072905) can0 42C#8C40000009B00000
(1487341972.073908) can0 3CA#0281C7BB00000000
(1487341972.075904) can0 076#3E7AC0800FFF0000
(1487341972.076904) can0 077#1D8907FF7FF7F9FD
(1487341972.076905) can0 07D#0000F960001FA800
(1487341972.076906) can0 085#7F6B800022A07F6A
(1487341972.076907) can0 213#FFFF00040001FF40
(1487341972.077905) can0 214#000000000000F960
(1487341972.077906) can0 216#46ABE66400000000
(1487341972.077906) can0 217#1950195819401944
(1487341972.077908) can0 3A8#0100270D00000000
(1487341972.078905) can0 415#1D95E84007FD07FD
(1487341972.078905) can0 416#5200FC0001000000
(1487341972.078905) can0 091#7EFA7EF11EF4F000
(1487341972.078907) can0 092#6FAA6F9C735E2DF4
(1487341972.079905) can0 167#72800910001A1500
(1487341972.079905) can0 202#0445700060991D8C
(1487341972.079905) can0 204#C0007D02F4000000
(1487341972.079907) can0 41D#8000600000000000
(1487341972.081032) can0 4B0#01008000600000F9
(1487341972.081032) can0 42F#7D04002E661202FD
(1487341972.085408) can0 05A#00000045F2210000
(1487341972.086405) can0 217#1950195819441944
(1487341972.086406) can0 082#710814008E804000
(1487341972.087404) can0 085#7F6B800021B07F6A
(1487341972.088531) can0 047#2000000000000000
(1487341972.089533) can0 04A#0200000000000000
(1487341972.089533) can0 04B#00C0D8D8D8D8C000
(1487341972.089534) can0 04C#105FFFC000000000
(1487341972.089535) can0 091#7EF57EF320F5F000
(1487341972.090529) can0 092#6FA86F9D73602BF5
(1487341972.090529) can0 165#10CD500000000000
(1487341972.090530) can0 167#72800910001A1500
(1487341972.090531) can0 186#140401FB009905FB
(1487341972.090531) can0 187#D91408C800A00300
(1487341972.091529) can0 18A#0020180114000000
(1487341972.091529) can0 200#00007FFB800E0000
(1487341972.091530) can0 202#0443780060991D8D
(1487341972.091531) can0 204#C0007D02F5000000
(1487341972.092529) can0 230#600600009E000000
(1487341972.092529) can0 078#0169800000000000
(1487341972.093666) can0 083#0020000000000000
(1487341972.094657) can0 2A1#FFFFFFFF00000000
(1487341972.094660) can0 33B#0000000000000000
(1487341972.095905) can0 076#3E7AC0800FFF0000
(1487341972.096904) can0 077#1D8807FE7FF7F5FC
(1487341972.096904) can0 07D#0000F870001F8800
(1487341972.096905) can0 085#7F6B800020C07F6A
(1487341972.096906) can0 213#FFFF00040001FF40
(1487341972.097905) can0 214#000000000000F870
(1487341972.097905) can0 216#60C5027E00000000
(1487341972.097906) can0 217#1948195819481944
(1487341972.097907) can0 3CC#3000000000000000
(1487341972.098904) can0 415#1D96EC3E07FC07FC
(1487341972.098905) can0 41D#8000600000000000
(1487341972.098905) can0 167#72800910001A1500
(1487341972.098907) can0 202#0451000060991D8E
(1487341972.099905) can0 091#7EF47EF41FF6F000
(1487341972.099906) can0 092#6FAA6F9F735B2BF6
(1487341972.099906) can0 204#C0007D02F5000000
(1487341972.099908) can0 3A8#0100270A00000000
(1487341972.100904) can0 4B0#01008000700000F8
(1487341972.102781) can0 242#0290200ED2000001
(1487341972.103753) can0 3CA#0281C7BB00000000
(1487341972.105781) can0 217#19481954194C1944
(1487341972.106780) can0 082#720814008E804000
(1487341972.106781) can0 085#7F6B80001FD07F6A
(1487341972.108280) can0 047#2000000000000000
(1487341972.109278) can0 165#10CD500000000000
(1487341972.109279) can0 091#7EF27EF420F7F000
(1487341972.109279) can0 092#6FAE6FA073522EF7
(1487341972.109280) can0 167#72800910001A1500
(1487341972.110281) can0 186#140401FB009905FB
(1487341972.110281) can0 187#D91408C800A00300
(1487341972.110282) can0 200#00007FFB800E0000
(1487341972.110283) can0 202#044F080060991D8F
(1487341972.111404) can0 204#C0007D02F5000000
(1487341972.111405) can0 230#600600009E000000
(1487341972.111405) can0 42F#7D04002E661202FD
(1487341972.112404) can0 078#0168800000000000
(1487341972.112405) can0 3A7#0E401A045F700000
(1487341972.115906) can0 076#3E7AC0800FFF0000
(1487341972.116904) can0 077#1D8907FF7FF7F5FD
(1487341972.116904) can0 07D#0000F780001F77FF
(1487341972.116905) can0 085#7F6B80001DE07F6B
(1487341972.116906) can0 213#FFFF00040001FF40
(1487341972.117904) can0 214#000000000000F780
(1487341972.117904) can0 216#7BDF1B9800000000
(1487341972.117905) can0 217#1948195419501944
(1487341972.117906) can0 3A8#0100270A00000000
(1487341972.118906) can0 415#1D8FF04407FC07FC
(1487341972.118906) can0 167#72800910001A1500
(1487341972.118906) can0 202#044D100060991D90
(1487341972.118908) can0 204#C0007D02F5000000
(1487341972.119905) can0 091#7EF07EF421F8F000
(1487341972.119905) can0 092#6FAF6FA0735D21F8
(1487341972.119906) can0 261#0000000000000000
(1487341972.119907) can0 41D#8000600000000000
(1487341972.120904) can0 4B0#01008000800000F7
(1487341972.122656) can0 42C#8C40000009B00000
(1487341972.124531) can0 3A6#0E401A045F700000
(1487341972.125750) can0 217#1948195419501948
(1487341972.126734) can0 082#710814008E804000
(1487341972.126734) can0 085#7F6B80001CF07F6B
(1487341972.127907) can0 3CC#3000000000000000
(1487341972.128845) can0 047#2000000000000000
(1487341972.128845) can0 165#10CD500000000000
(1487341972.128846) can0 091#7EF17EF41FF9F000
(1487341972.128847) can0 092#6FB06FA0737408F9
(1487341972.129865) can0 167#72800910001A1500
(1487341972.129866) can0 186#140401FB009905FB
(1487341972.129866) can0 187#D81408C800B00300
(1487341972.129867) can0 200#00007FFB800E0000
(1487341972.130866) can0 202#044D180060991D8F
(1487341972.130866) can0 204#C0007D02F5000000
(1487341972.130867) can0 230#600600009E000000
(1487341972.131864) can0 078#0068000000000000
(1487341972.133654) can0 3CA#0281C7BB00000000
(1487341972.135904) can0 076#3E7AC0800FFF0000
(1487341972.136904) can0 077#1D8A07FF7FF7F9FD
(1487341972.136904) can0 07D#0000F690001F87FF
(1487341972.136905) can0 085#7F6B80002B007F6B
(1487341972.136906) can0 213#FFFF00040001FF40
(1487341972.137907) can0 214#000000000000F690
(1487341972.137908) can0 216#95F935B200000000
(1487341972.137908) can0 217#194C1954194C194C
(1487341972.137910) can0 415#1D8DF44507FC07FC
(1487341972.138905) can0 41D#8000600000000000
(1487341972.138905) can0 167#72800910001A1500
(1487341972.138906) can0 455#A000000000000000
(1487341972.138907) can0 202#044C200060991D8F
(1487341972.139905) can0 091#7EF37EF41CFAF000
(1487341972.139906) can0 092#6FAE6FA0737D00FA
(1487341972.139906) can0 204#C0007D02F5000000
(1487341972.139907) can0 3A8#0100270A00000000
(1487341972.140905) can0 4B0#01008000900000F6
(1487341972.140905) can0 42F#7D04002E661202FC
(1487341972.142531) can0 242#0290200FD2000001
(1487341972.145785) can0 217#194C19541944194C
(1487341972.146781) can0 082#720814008E804000
(1487341972.146782) can0 085#7F6B80002A107F6B
(1487341972.148031) can0 047#2000000000000000
(1487341972.149031) can0 05C#005000F7201E0000
(1487341972.149032) can0 165#10CD500000000000
(1487341972.149032) can0 091#7EED7EF322FBF000
(1487341972.149033) can0 092#6FAA6F9E73730FFB
(1487341972.150030) can0 167#72800910001A1500
(1487341972.150030) can0 186#140401FB009905FB
(1487341972.150031) can0 187#D81408C800B00300
(1487341972.150032) can0 200#00007FFB800E0000
(1487341972.151154) can0 202#044C280060991D8E
(1487341972.151155) can0 204#C0007D02F5000000
(1487341972.151155) can0 230#600600009E000000
(1487341972.152156) can0 078#0168800000000000
(1487341972.152157) can0 422#0000008E3802FE02
(1487341972.152157) can0 423#CDA0000000000000
(1487341972.153156) can0 430#37000ED1C8897700
(1487341972.154154) can0 33B#0000000000000000
(1487341972.155155) can0 05D#83578F5F3B000000
(1487341972.156154) can0 076#3E7AC0800FFF0000
(1487341972.156155) can0 077#1D8A07FF7FF7F9FD
(1487341972.157157) can0 07D#0000F5A0002017FF
(1487341972.157158) can0 085#7F6B800029207F6B
(1487341972.157158) can0 213#FFFF00040001FF40
(1487341972.157159) can0 214#000000000000F5A0
(1487341972.158155) can0 216#AF144FCD00000000
(1487341972.158155) can0 217#194C1954193C194C
(1487341972.158156) can0 3CC#3000000000000000
(1487341972.158157) can0 415#1D93F83E07FC07FC
(1487341972.159155) can0 167#72800910001A1500
(1487341972.159155) can0 202#044B300060991D8E
(1487341972.159156) can0 204#C0007D02F5000000
(1487341972.159157) can0 091#7EE27EF32CFCF000
(1487341972.160155) can0 092#6FAA6F9A73671EFC
(1487341972.160155) can0 3A8#0100270A00000000
(1487341972.160156) can0 41D#8000600000000000
(1487341972.160157) can0 4B0#01008000A00000F5
(1487341972.163656) can0 3CA#0281C7BB00000000
(1487341972.165656) can0 217#19501958193C1948
(1487341972.166654) can0 596#9600FFFFFFFFFFFF
(1487341972.166655) can0 082#720814008E804000
(1487341972.167656) can0 085#7F6B800028307F6B
(1487341972.168655) can0 047#2000000000000000
(1487341972.168655) can0 091#7EE57EF229FDF000
(1487341972.168655) can0 165#10CD500000000000
(1487341972.169658) can0 092#6FB36F9A736318FD
(1487341972.169659) can0 167#72800910001A1500
(1487341972.169659) can0 186#140401FB009905FB
(1487341972.169660) can0 178#000002000E73CE73
(1487341972.170780) can0 187#D81408C800B00300
(1487341972.170781) can0 200#00007FFB800E0000
(1487341972.170781) can0 202#044A380060991D8E
(1487341972.170782) can0 204#C0007D02F7000000
(1487341972.171780) can0 230#600600009E000000
(1487341972.171781) can0 261#0000000000000000
(1487341972.172779) can0 078#0568800000000000
(1487341972.172779) can0 42C#8C40000009B00000
(1487341972.172780) can0 42F#7D04002E661202FC
(1487341972.175906) can0 076#3E7AC0800FFF0000
(1487341972.176904) can0 077#1D8A07FF7FF7F5FB
(1487341972.176904) can0 07D#0000F4B0001FA7FA
(1487341972.176905) can0 085#7F6B800027407F6B
(1487341972.176906) can0 213#FFFF00040001FF40
(1487341972.177904) can0 214#000000000000F4B0
(1487341972.177905) can0 216#C92E69E700000000
(1487341972.177905) can0 217#1950195819401940
(1487341972.177906) can0 3A8#0100270A00000000
(1487341972.178905) can0 415#1D96FC3A07FC07FC
(1487341972.178905) can0 167#72800910001A1500
(1487341972.178905) can0 202#0448400060991D8F
(1487341972.178907) can0 091#7EF27EF11CFEF000
(1487341972.179905) can0 092#6FB76F9A73690DFE
(1487341972.179906) can0 204#C0007D02F7000000
(1487341972.179906) can0 416#5300FB0001000000
(1487341972.179907) can0 41D#8000600000000000
(1487341972.181032) can0 41E#0000000000000000
(1487341972.181033) can0 4B0#01008000B00000F4
(1487341972.182658) can0 242#0290200ED2000001
(1487341972.185406) can0 05A#00000045E8C10000
(1487341972.186404) can0 217#194C195C19441940
(1487341972.187404) can0 082#720814008E804000
(1487341972.187404) can0 085#7F6A800028507F6A
(1487341972.187405) can0 3CC#3000000000000000
(1487341972.188405) can0 047#2000000000000000
(1487341972.188405) can0 165#10CD500000000000
(1487341972.189406) can0 04A#0200000000000000
(1487341972.189407) can0 04B#00C0D8D8D8D8C000
(1487341972.189407) can0 04C#105FFFC000000000
(1487341972.189409) can0 091#7EF47EEF1BFFF000
(1487341972.190405) can0 092#6FB06F9A737507FF
(1487341972.190405) can0 167#72800910001A1500
(1487341972.190406) can0 186#140401FB009905FB
(1487341972.190407) can0 187#D81408C800B00300
(1487341972.191405) can0 18A#0020180114000000
(1487341972.191405) can0 200#00007FFB800E0000
(1487341972.191406) can0 202#0446480060991D90
(1487341972.191407) can0 204#C0007D02F7000000
(1487341972.192404) can0 230#600600009E000000
(1487341972.192405) can0 078#0069000000000000
(1487341972.193657) can0 083#0020000000000000
(1487341972.194654) can0 2A1#FFFFFFFF00000000
(1487341972.194654) can0 3CA#028197A800000000
(1487341972.195907) can0 076#3E7AC0800FFF0000
(1487341972.196904) can0 077#1D8907FE7FF801FB
(1487341972.196905) can0 07D#0000F3C0001FB7FF
(1487341972.196905) can0 085#7F6A800027607F6A
(1487341972.196906) can0 213#FFFF00040001FF40
(1487341972.197906) can0 214#000000000000F3C0
(1487341972.197906) can0 216#E247820000000000
(1487341972.197906) can0 217#194C1958194C1940
(1487341972.197908) can0 3A8#0100270A00000000
(1487341972.198907) can0 415#1D96C04907FB07FB
(1487341972.198908) can0 167#72800910001A1500
(1487341972.198908) can0 41D#8000600000000000
(1487341972.198910) can0 202#0445500060991D90
(1487341972.199908) can0 091#7EE87EED2800F000
(1487341972.199908) can0 092#6FA66F9D737D0500
(1487341972.199909) can0 204#C0007D02F7000000
(1487341972.199910) can0 4B0#01008000C00000F3
(1487341972.200909) can0 42F#7D04002E661202FC
(1487341972.204029) can0 456#8000000000000000
(1487341972.205780) can0 217#1948195419501940
(1487341972.206782) can0 082#720814008E804000
(1487341972.206783) can0 085#7F6A800025707F6B
(1487341972.208029) can0 047#2000000000000000
(1487341972.208972) can0 186#140401FB009905FB
(1487341972.208973) can0 165#10CD500000000000
(1487341972.208973) can0 167#72800910001A1500
(1487341972.208975) can0 091#7ED27EEB3F01F000
(1487341972.210031) can0 092#6FA36FA0737D0401
(1487341972.210032) can0 187#D81408C800B00300
(1487341972.210032) can0 200#00007FFB800E0000
(1487341972.210033) can0 202#0443580060991D91
(1487341972.211155) can0 204#C0007D02F6000000
(1487341972.211155) can0 230#600600009E000000
(1487341972.212156) can0 078#0168800000000000
(1487341972.213657) can0 33B#0000000000000000
(1487341972.215905) can0 076#3E79C0800FFF0000
(1487341972.216904) can0 077#1D8907FD7FF7F1FC
(1487341972.216904) can0 07D#0000F2D0002017FC
(1487341972.216905) can0 085#7F6A800024807F6B
(1487341972.216906) can0 213#FFFF00040001FF40
(1487341972.217906) can0 214#000000000000F2D0
(1487341972.217906) can0 216#FE619C1A00000000
(1487341972.217906) can0 217#1948195819541944
(1487341972.217908) can0 3A8#0100270A00000000
(1487341972.218904) can0 3CC#3000000000000000
(1487341972.218905) can0 167#72800910001A1500
(1487341972.218905) can0 202#0442600060991D91
(1487341972.218907) can0 204#C0007D02F6000000
(1487341972.219906) can0 091#7EBF7EE85402F000
(1487341972.219906) can0 092#6FA96FA073790102
(1487341972.219907) can0 261#0000000000000000
(1487341972.219908) can0 415#1D8FC44F07FB07FB
(1487341972.220905) can0 41D#8000600000000000
(1487341972.220906) can0 4B0#01008000D00000F2
(1487341972.222656) can0 242#0290200ED2000001
(1487341972.223780) can0 3CA#028197A800000000
(1487341972.224779) can0 3EB#7E04140000200000
(1487341972.224779) can0 40A#C100334641365030
(1487341972.224780) can0 42C#8C40000009B00000
(1487341972.225781) can0 217#1948195419501948
(1487341972.226906) can0 082#720814008E804000
(1487341972.226906) can0 085#7F6A800023907F6B
(1487341972.228029) can0 047#2000000000000000
(1487341972.229156) can0 186#140401FB009905FB
(1487341972.229157) can0 091#7EBB7EE75803F000
(1487341972.229157) can0 092#6FAF6FA07374FF03
(1487341972.229159) can0 165#10CD500000000000
(1487341972.230155) can0 167#72800910001A1500
(1487341972.230156) can0 187#D71408C800C00300
(1487341972.230156) can0 200#00007FFB800E0000
(1487341972.230157) can0 202#0441680060991D91
(1487341972.231155) can0 204#C0007D02F6000000
(1487341972.231155) can0 230#600600009E000000
(1487341972.231156) can0 42F#7D04002E661202FC
(1487341972.232154) can0 078#0168800000000000
(1487341972.235904) can0 076#3E79C0800FFF0000
(1487341972.236876) can0 077#1D8B07FB7FF7F1FD
(1487341972.236877) can0 07D#0000F1E0001FF7EF
(1487341972.236877) can0 085#7F6A800021A07F6C
(1487341972.236879) can0 213#FFFF00040001FF40
(1487341972.237859) can0 214#000000000000F1E0
(1487341972.237860) can0 216#177BB63400000000
(1487341972.237860) can0 217#195019541948194C
(1487341972.237861) can0 415#1D92C84B07FB07FB
(1487341972.238905) can0 41D#8000600000000000
(1487341972.238905) can0 167#72800910001A1500
(1487341972.238906) can0 202#0441700060991D90
(1487341972.238907) can0 091#7EC17EE55304F000
(1487341972.239906) can0 092#6FB36FA17370FD04
(1487341972.239907) can0 204#C0007D02F6000000
(1487341972.239907) can0 3A8#0100270A00000000
(1487341972.239908) can0 455#A000000000000000
(1487341972.240905) can0 4B0#01008000E00000F1
(1487341972.245781) can0 217#195019501944194C
(1487341972.246779) can0 082#710814008E804000
(1487341972.246780) can0 085#7F6A800020B07F6C
(1487341972.247782) can0 3CC#3000000000000000
(1487341972.248778) can0 047#2000000000000000
(1487341972.248779) can0 186#140401FB009905FB
(1487341972.248779) can0 05C#00F000ED201E0000
(1487341972.248781) can0 091#7EC97EE54A05F000
(1487341972.249909) can0 092#6FB66FA0736EFC05
(1487341972.249909) can0 165#10CD500000000000
(1487341972.249909) can0 167#72800910001A1500
(1487341972.249911) can0 187#D71408C800C00300
(1487341972.250904) can0 200#00007FFB800E0000
(1487341972.250904) can0 202#0440780060991D90
(1487341972.250905) can0 204#C0007D02F5000000
(1487341972.250906) can0 230#600600009E000000
(1487341972.251904) can0 078#0068000000000000
(1487341972.251904) can0 422#0000008E3802FE02
(1487341972.252904) can0 423#CDA0000000000000
(1487341972.252904) can0 430#37000ED1C8897700
(1487341972.254031) can0 3CA#028197A800000000
(1487341972.255032) can0 05D#8357B75F31000000
(1487341972.256155) can0 076#3E79C0800FFF0000
(1487341972.257156) can0 077#1D8B07FA7FF7FDFD
(1487341972.257156) can0 07D#0000F0F0001FD7F0
(1487341972.257157) can0 085#7F6A80001FC07F6C
(1487341972.257158) can0 213#FFFF00040001FF40
(1487341972.257158) can0 214#000000000000F0F0
(1487341972.258154) can0 216#3195D14E00000000
(1487341972.258154) can0 217#194C195419401948
(1487341972.258156) can0 3A8#0100270A00000000
(1487341972.258156) can0 415#1D93CC4907FB07FB
(1487341972.259154) can0 167#72800910001A1500
(1487341972.259155) can0 41D#8000600000000000
(1487341972.259155) can0 202#044F000060991D90
(1487341972.259156) can0 091#7ED37EE73D06F000
(1487341972.260124) can0 092#6FB86F9C73680306
(1487341972.260124) can0 204#C0007D02F5000000
(1487341972.260125) can0 4B0#01008000F00000F0
(1487341972.261094) can0 42F#7D04002E661202FB
(1487341972.262779) can0 242#0290200ED2000001
(1487341972.265788) can0 217#1950195819401944
(1487341972.266904) can0 082#720814008E804000
(1487341972.266905) can0 085#7F6A80001ED07F6C
(1487341972.268029) can0 047#2000000000000000
(1487341972.269032) can0 186#140401FB009905FB
(1487341972.269032) can0 187#D71408C800C00300
(1487341972.269032) can0 091#7EE17EE82D07F000
(1487341972.269034) can0 092#6FB46F9A73650B07
(1487341972.270155) can0 165#10CD500000000000
(1487341972.270155) can0 167#72800910001A1600
(1487341972.270156) can0 178#000001FF0E73CE73
(1487341972.270157) can0 200#00007FFB800E0000
(1487341972.271155) can0 202#044E080060991D90
(1487341972.271156) can0 204#C0007D02F5000000
(1487341972.271156) can0 230#600600009E000000
(1487341972.271157) can0 261#0000000000000000
(1487341972.272154) can0 078#0568800000000000
(1487341972.273157) can0 42C#8C40000009B00000
(1487341972.274154) can0 33B#0000000000000000
(1487341972.275890) can0 076#3E79C0800FFF0000
(1487341972.276875) can0 077#1D8B07FB7FF801FC
(1487341972.276875) can0 07D#0000FF00001FB7F6
(1487341972.276876) can0 085#7F6A80001EE07F6B
(1487341972.276877) can0 213#FFFF00040001FF40
(1487341972.277906) can0 214#000000000000FF00
(1487341972.277906) can0 216#4BAFEB6800000000
(1487341972.277907) can0 217#1950195819401940
(1487341972.277908) can0 3A8#0100270A00000000
(1487341972.278904) can0 3CC#3000000000000000
(1487341972.278904) can0 167#72800910001A1600
(1487341972.278905) can0 202#044D100060991D90
(1487341972.278906) can0 091#7EEF7EE81E08F000
(1487341972.279905) can0 092#6FAD6F9A736B0B08
(1487341972.279906) can0 204#C0007D02F5000000
(1487341972.279906) can0 415#1D96D04507FB07FB
(1487341972.279907) can0 416#5400FA0001000000
(1487341972.281032) can0 41D#8000600000000000
(1487341972.281033) can0 4B0#01008000000000FF
(1487341972.283657) can0 3CA#0280D7C000000000
(1487341972.285408) can0 05A#00000045EE610000
(1487341972.286405) can0 217#194C195819481940
(1487341972.287407) can0 082#720814008E804000
(1487341972.287408) can0 085#7F6980001EF07F6B
(1487341972.288404) can0 186#140401FB009905FB
(1487341972.288404) can0 047#2000000000000000
(1487341972.288405) can0 04A#0200000000000000
(1487341972.289532) can0 165#10CD500000000000
(1487341972.289533) can0 04B#00C0D8D8D8D8C000
(1487341972.289533) can0 04C#105FFFC000000000
(1487341972.289534) can0 091#7EF47EE71909F000
(1487341972.290529) can0 092#6FA76F9873700D09
(1487341972.290530) can0 167#72800910001A1600
(1487341972.290530) can0 187#D71408C800C00300
(1487341972.290531) can0 18A#0020180114000000
(1487341972.291529) can0 200#00007FFB800E0000
(1487341972.291530) can0 202#044B180060991D91
(1487341972.291530) can0 204#C0007D02F6000000
(1487341972.291531) can0 230#600600009E000000
(1487341972.292532) can0 42F#7D04002E661302FB
(1487341972.292533) can0 078#0169800000000000
(1487341972.293532) can0 188#4000000000000000
(1487341972.294529) can0 083#0020000000000000
(1487341972.294530) can0 2A1#FFFFFFFF00000000
(1487341972.295906) can0 076#3E79C0800FFF0000
(1487341972.296904) can0 077#1D8907FB7FF7F9FB
(1487341972.296905) can0 07D#0000FE10001FC7FE
(1487341972.296905) can0 085#7F6980002D007F6B
(1487341972.296906) can0 213#FFFF00040001FF40
(1487341972.297906) can0 214#000000000000FE10
(1487341972.297907) can0 216#65CA058100000000
(1487341972.297907) can0 217#194C1958194C1944
(1487341972.297908) can0 3A8#0100270A00000000
(1487341972.298906) can0 415#1D95D44507FB07FB
(1487341972.298907) can0 167#72800910001A1500
(1487341972.298907) can0 202#044A200060991D91
(1487341972.298909) can0 204#C0007D02F6000000
(1487341972.299905) can0 091#7EF27EE61B0AF000
(1487341972.299905) can0 092#6FA36F9A73700E0A
(1487341972.299905) can0 41D#8000600000000000
(1487341972.299907) can0 4B0#01008000100000FE
(1487341972.302531) can0 242#0290200FD2000001
(1487341972.305783) can0 217#1948195419501944
(1487341972.306779) can0 082#710814008E804000
(1487341972.306780) can0 085#7F6980002C107F6B
(1487341972.307778) can0 3CC#3000000000000000
(1487341972.307779) can0 186#140401FB009905FB
(1487341972.307779) can0 187#D71408C800C00300
(1487341972.308905) can0 047#2000000000000000
(1487341972.308906) can0 165#10CD500000000000
(1487341972.308906) can0 167#72800910001A1500
(1487341972.308907) can0 091#7EF47EE5190BF000
(1487341972.309904) can0 092#6FA66F9E7371050B
(1487341972.309904) can0 200#00007FFB800E0000
(1487341972.309905) can0 202#0448280060991D92
(1487341972.309906) can0 204#C0007D02F5000000
(1487341972.310904) can0 230#600600009E000000
(1487341972.311904) can0 078#0068000000000000
(1487341972.312875) can0 3A7#0E401A045F700000
(1487341972.313875) can0 3CA#0280D7C000000000
(1487341972.315875) can0 076#3E79C0800FFF0000
(1487341972.316877) can0 077#1D8907FB7FF7EDFB
(1487341972.316877) can0 07D#0000FD20001FD7FF
(1487341972.316878) can0 085#7F6980002B207F6B
(1487341972.316879) can0 213#FFFF00040001FF40
(1487341972.317905) can0 214#000000000000FD20
(1487341972.317908) can0 216#7EE41E9C00000000
(1487341972.317908) can0 217#1948195019501944
(1487341972.317909) can0 3A8#0100270A00000000
(1487341972.318907) can0 415#1D8FD84A07FB07FB
(1487341972.318908) can0 167#72800910001A1500
(1487341972.318908) can0 41D#8000600000000000
(1487341972.318909) can0 202#0447300060991D92
(1487341972.319905) can0 091#7EFC7EE4110CF000
(1487341972.319905) can0 092#6FAC6FA07371FC0C
(1487341972.319905) can0 204#C0007D02F5000000
(1487341972.319907) can0 261#0000000000000000
(1487341972.320904) can0 4B0#01008000200000FD
(1487341972.320904) can0 42F#7D04002E661302FB
(1487341972.322780) can0 3B3#4048020F10050002
(1487341972.323906) can0 3C3#60C0000000004000
(1487341972.323906) can0 42C#8C40000009B00000
(1487341972.323906) can0 083#0020001000000000
(1487341972.325529) can0 3A6#0E401A045F700000
(1487341972.326540) can0 217#194C1950194C1944
(1487341972.326540) can0 082#700814008E804000
(1487341972.327530) can0 085#7F6980002A307F6B
(1487341972.327531) can0 186#140401FB009905FB
(1487341972.328529) can0 187#D61408C800D00300
(1487341972.328529) can0 047#2000000000000000
(1487341972.328530) can0 165#10CD500000000000
(1487341972.329657) can0 167#72800910001A1600
(1487341972.329658) can0 091#7F027EE20B0DF000
(1487341972.329658) can0 092#6FAD6FA0736FFC0D
(1487341972.329660) can0 200#00007FFB800E0000
(1487341972.330656) can0 202#0447380060991D91
(1487341972.330656) can0 204#C0007D02F5000000
(1487341972.330657) can0 230#600600009E000000
(1487341972.331654) can0 078#0168800000000000
(1487341972.333781) can0 33B#0000000000000000
(1487341972.335903) can0 076#3E79C0800FFF0000
(1487341972.336904) can0 077#1D8A07FA7FF7F5FD
(1487341972.336904) can0 07D#0000FC30001FD801
(1487341972.336905) can0 085#7F69800029407F6B
(1487341972.336906) can0 213#FFFF00040001FF40
(1487341972.337904) can0 214#000000000000FC30
(1487341972.337904) can0 216#98FD38B600000000
(1487341972.337905) can0 217#194C195019441948
(1487341972.337906) can0 3CC#3000000000000000
(1487341972.338905) can0 3E2#0000000080000000
(1487341972.338906) can0 167#72800910001A1600
(1487341972.338906) can0 202#0447400060991D90
(1487341972.338907) can0 204#C0007D02F5000000
(1487341972.339905) can0 091#7F087EE3030EF000
(1487341972.339906) can0 092#6FAA6F9E7372FD0E
(1487341972.339906) can0 3A8#0100270A00000000
(1487341972.339908) can0 415#1D8EDC4A07FA07FA
(1487341972.340903) can0 41D#8000600000000000
(1487341972.340904) can0 455#A000000000000000
(1487341972.340904) can0 4B0#01008000300000FC
(1487341972.342530) can0 242#02902010D2000001
(1487341972.343655) can0 3CA#0280D7C000000000
(1487341972.345783) can0 217#1950195019401944
(1487341972.346789) can0 082#6F0814008E804000
(1487341972.346789) can0 085#7F68800029507F6B
(1487341972.347780) can0 186#140401FB009905FB
(1487341972.347781) can0 187#D61408C800D00300
(1487341972.348906) can0 047#2000000000000000
(1487341972.348907) can0 05C#009000F3201E0000
(1487341972.348907) can0 091#7F157EE3F50FF000
(1487341972.348908) can0 092#6FAA6F9A737AF80F
(1487341972.349904) can0 165#10CD500000000000
(1487341972.349905) can0 167#72800910001A1600
(1487341972.349905) can0 200#00007FFB800E0000
(1487341972.349906) can0 202#0446480060991D90
(1487341972.350905) can0 204#C0007D02F4000000
(1487341972.350905) can0 59E#9E00FFFFFFFFFFFF
(1487341972.350906) can0 230#600600009E000000
(1487341972.350907) can0 42F#7D04002E661302FB
(1487341972.351905) can0 078#0168800000000000
(1487341972.351905) can0 422#0000008E3802FE02
(1487341972.352904) can0 423#CDA0000000000000
(1487341972.352904) can0 430#37000ED1C8897700
(1487341972.352905) can0 43A#0000020000000000
(1487341972.355154) can0 05D#83579F5F37000000
(1487341972.356154) can0 076#3E79C0800FFF0000
(1487341972.357154) can0 077#1D8A07FA7FF7F5FC
(1487341972.357155) can0 07D#0000FB40001FD805
(1487341972.357155) can0 085#7F68800028607F6B
(1487341972.357156) can0 213#FFFF00040001FF40
(1487341972.357157) can0 214#000000000000FB40
(1487341972.358154) can0 216#B31752D000000000
(1487341972.358155) can0 217#19501954193C1940
(1487341972.358156) can0 3A8#0100270A00000000
(1487341972.358156) can0 415#1D93E04407FA07FA
(1487341972.359154) can0 167#72800910001A1600
(1487341972.359155) can0 202#0446500060971D8F
(1487341972.359155) can0 091#7F217EE1EA10F000
(1487341972.359156) can0 092#6FAC6F98737BF610
(1487341972.360154) can0 204#C0007D02F4000000
(1487341972.360154) can0 41D#8000600000000000
(1487341972.360155) can0 4B0#01008000400000FB
(1487341972.365782) can0 217#19501958193C193C
(1487341972.366780) can0 082#6F0814008E804000
(1487341972.366780) can0 085#7F68800027707F6B
(1487341972.367781) can0 3CC#3000000000000000
(1487341972.367782) can0 186#140401FB009905FB
(1487341972.367782) can0 187#D61408C800D00300
(1487341972.368906) can0 047#2000000000000000
(1487341972.368906) can0 165#10FD4F0000000000
(1487341972.369906) can0 091#7F247EDFE811F000
(1487341972.369906) can0 092#6FAA6F997375FC11
(1487341972.369907) can0 167#72800910001A1600
(1487341972.369908) can0 178#000001FF0E73CE73
(1487341972.370904) can0 200#00007FFB800E0000
(1487341972.370905) can0 202#0445580060971D8F
(1487341972.370905) can0 204#C0007D02F3000000
(1487341972.370906) can0 230#600600009E000000
(1487341972.370907) can0 261#0000000000000000
(1487341972.371905) can0 078#0468000000000000
(1487341972.372906) can0 42C#8C40000009B00000
(1487341972.374032) can0 3CA#0280C7B400000000
(1487341972.375904) can0 076#3E77C0800FFF0000
(1487341972.376906) can0 077#1D8807F97FF7F5FB
(1487341972.376907) can0 07D#0000FA500020080C
(1487341972.376908) can0 085#7F68800026807F6B
(1487341972.376908) can0 213#FFFF00040001FF40
(1487341972.377905) can0 214#000000000000FA50
(1487341972.377905) can0 216#CD316CEA00000000
(1487341972.377906) can0 217#1950195819401940
(1487341972.377907) can0 3A8#0100270A00000000
(1487341972.378905) can0 415#1D97E43F07FA07FA
(1487341972.378905) can0 167#72800910001A1600
(1487341972.378906) can0 416#5500F90001000000
(1487341972.378907) can0 091#7F217EDDEC12F000
(1487341972.379904) can0 092#6FA56F997376FF12
(1487341972.379905) can0 202#0443600060971D90
(1487341972.379905) can0 204#C0007D02F3000000
(1487341972.379906) can0 41D#8000600000000000
(1487341972.381034) can0 4B0#01008000500000FA
(1487341972.381034) can0 42F#7D04002E661302FB
(1487341972.382656) can0 242#02902011D2000001
(1487341972.385407) can0 05A#00000045F4010000
(1487341972.386404) can0 217#1950195819481940
(1487341972.387361) can0 082#710814008E804000
(1487341972.387361) can0 085#7F68800025907F6B
(1487341972.387362) can0 186#140401FB009905FB
(1487341972.388404) can0 187#D61408C800D00300
(1487341972.388405) can0 18A#0020180114000000
(1487341972.388405) can0 3E5#0000000080000000
(1487341972.388406) can0 047#2000000000000000
(1487341972.389407) can0 165#10FD4F0000000000
(1487341972.389409) can0 04A#0200000000000000
(1487341972.389410) can0 04B#00C0D8D8D8D8C000
(1487341972.389411) can0 04C#105FFFC000000000
(1487341972.390404) can0 091#7F1D7EDEEE13F000
(1487341972.390405) can0 092#6FA06F9C737EF813
(1487341972.390405) can0 167#72800910001A1500
(1487341972.390406) can0 200#00007FFB800E0000
(1487341972.391406) can0 202#0442680060971D90
(1487341972.391406) can0 204#C0007D02F4000000
(1487341972.391407) can0 230#600600009E000000
(1487341972.392404) can0 078#0169800000000000
(1487341972.393780) can0 081#0000000000000000
(1487341972.394779) can0 083#0020001000000000
(1487341972.394780) can0 2A1#FFFFFFFF00000000
(1487341972.394780) can0 33B#0000000000000000
(1487341972.394781) can0 3E6#0001040880000000
(1487341972.395904) can0 076#3E77C0800FFF0000
(1487341972.396905) can0 077#1D8707F87FF7EDFB
(1487341972.396905) can0 07D#0000F960001FF80C
(1487341972.396906) can0 085#7F68800024A07F6B
(1487341972.396907) can0 213#FFFF00040001FF40
(1487341972.397904) can0 214#000000000000F960
(1487341972.397904) can0 216#E74B860400000000
(1487341972.397905) can0 217#194C1954194C1944
(1487341972.397906) can0 265#2001010410000000
(1487341972.398906) can0 3A8#0100270700000000
(1487341972.398906) can0 167#72800910001A1600
(1487341972.398907) can0 202#0440700060971D91
(1487341972.398908) can0 204#C0007D02F4000000
(1487341972.399905) can0 091#7F197EDFF014F000
(1487341972.399905) can0 092#6F9F6FA0737AF814
(1487341972.399906) can0 3CC#3000000000000000
(1487341972.399907) can0 415#1D95E84007FA07FA
(1487341972.400904) can0 41D#8000600000000000
(1487341972.400905) can0 453#3257364570646166
(1487341972.400905) can0 4B0#01008000600000F9
(1487341972.403600) can0 3CA#0280C7B400000000
(1487341972.405781) can0 217#1948195419501944
(1487341972.406781) can0 082#720814008E804000
(1487341972.406782) can0 085#7F68800023B07F6B
(1487341972.407905) can0 186#140401FB009905FB
(1487341972.407905) can0 187#D61408C800D00300
(1487341972.408904) can0 047#2000000000000000
(1487341972.408905) can0 165#10CD4F0000000000
(1487341972.408905) can0 167#72800910001A1600
(1487341972.408906) can0 091#7F157EDEF415F000
(1487341972.409904) can0 092#6FA06FA173660915
(1487341972.409904) can0 200#00007FFB800E0000
(1487341972.409905) can0 202#043F780060971D91
(1487341972.409906) can0 204#C0007D02F4000000
(1487341972.410905) can0 230#600600009E000000
(1487341972.410906) can0 42F#7D04002E661302FA
(1487341972.411904) can0 078#0168800000000000
(1487341972.415907) can0 076#3E7AC0800FFF0000
(1487341972.416904) can0 077#1D8707F97FF7E9FD
(1487341972.416904) can0 07D#0000F8700020080A
(1487341972.416905) can0 085#7F68800022C07F6B
(1487341972.416906) can0 213#FFFF00040001FF40
(1487341972.417879) can0 214#000000000000F870
(1487341972.417879) can0 216#0164A11D00000000
(1487341972.417880) can0 217#194C195419501948
(1487341972.417881) can0 3A8#0100270700000000
(1487341972.418905) can0 415#1D8DEC4707FA07FA
(1487341972.418905) can0 167#72800910001A1600
(1487341972.418906) can0 202#044D000060971D92
(1487341972.418907) can0 204#C0007D02F4000000
(1487341972.419905) can0 091#7F177EDEF116F000
(1487341972.419905) can0 092#6FA56FA073561416
(1487341972.419906) can0 261#0000000000000000
(1487341972.419907) can0 41D#8000600000000000
(1487341972.420906) can0 4B0#01008000700000F8
(1487341972.422656) can0 242#02902011D2000001
(1487341972.423654) can0 40A#C1014B3931485232
(1487341972.423657) can0 42C#8C40000009B00000
(1487341972.424653) can0 350#0000000000000000
(1487341972.424654) can0 3E0#0000000080000000
(1487341972.425783) can0 217#194C1950194C1948
(1487341972.426905) can0 082#700814008E804000
(1487341972.426905) can0 085#7F68800021D07F6B
(1487341972.427888) can0 186#140401FB009905FB
(1487341972.427889) can0 187#D51408C800E00300
(1487341972.427889) can0 3CC#3000000000000000
(1487341972.428904) can0 047#2000000000000000
(1487341972.428905) can0 165#10CD4F0000000000
(1487341972.428905) can0 167#72800910001A1600
(1487341972.428906) can0 091#7F1C7EDEEB17F000
(1487341972.429904) can0 092#6FA96F9E73630417
(1487341972.429904) can0 200#00007FFB800E0000
(1487341972.429905) can0 202#044D080060971D91
(1487341972.429906) can0 204#C0007D02F4000000
(1487341972.430905) can0 230#600600009E000000
(1487341972.431905) can0 078#0068000000000000
(1487341972.433656) can0 3CA#0280C7B400000000
(1487341972.435904) can0 076#3E7DC0800FFF0000
(1487341972.436904) can0 077#1D8807F87FF7EDFD
(1487341972.436904) can0 07D#0000F780001F6809
(1487341972.436905) can0 085#7F68800020E07F6B
(1487341972.436906) can0 213#FFFF00040001FF40
(1487341972.437904) can0 214#000000000000F780
(1487341972.437905) can0 216#1B80BB3700000000
(1487341972.437905) can0 217#194C195019441948
(1487341972.437906) can0 415#1D92F04107FA07FA
(1487341972.438904) can0 41D#8000600000000000
(1487341972.438905) can0 167#72800910001A1600
(1487341972.438905) can0 455#A000000000000000
(1487341972.438906) can0 091#7F247EE0E018F000
(1487341972.439905) can0 092#6FAC6F9E737CE718
(1487341972.439905) can0 202#044D100060971D90
(1487341972.439906) can0 204#C0007D02F4000000
(1487341972.439908) can0 3A8#0100270A00000000
(1487341972.440905) can0 4B0#01008000800000F7
(1487341972.440906) can0 42F#7D04002E661302FA
(1487341972.445780) can0 217#194C195019401948
(1487341972.446781) can0 082#710814008E804000
(1487341972.446781) can0 085#7F6880001FF07F6B
(1487341972.447905) can0 186#140401FB009905FB
(1487341972.447906) can0 187#D51408C800E00300
(1487341972.448904) can0 047#2000000000000000
(1487341972.448904) can0 05C#003000F9201E0000
(1487341972.448905) can0 165#10CD4F0000000000
(1487341972.448906) can0 091#7F317EE1D119F000
(1487341972.449905) can0 092#6FAB6F9E7380E319
(1487341972.449906) can0 167#72800910001A1500
(1487341972.449906) can0 200#00007FFB800E0000
(1487341972.449908) can0 202#044C180060971D90
(1487341972.450904) can0 204#C0007D02F6000000
(1487341972.450905) can0 230#600600009E000000
(1487341972.451905) can0 078#0168800000000000
(1487341972.451905) can0 422#0000008E3802FE02
(1487341972.451905) can0 423#CDA0000000000000
(1487341972.451907) can0 430#37000ED1C8897700
(1487341972.452875) can0 431#057B00A609800002
(1487341972.453908) can0 33B#0000000000000000
(1487341972.455155) can0 05D#8357875E3E000000
(1487341972.456154) can0 076#3E7DC0800FFF0000
(1487341972.457155) can0 077#1D8807F97FF7F5FC
(1487341972.457156) can0 07D#0000F6900020080E
(1487341972.457156) can0 085#7F6880002E007F6B
(1487341972.457158) can0 213#FFFF00040001FF40
(1487341972.457158) can0 214#000000000000F690
(1487341972.458154) can0 216#3499D45100000000
(1487341972.458155) can0 217#1950195419401944
(1487341972.458156) can0 3A8#0100270D00000000
(1487341972.458156) can0 3CC#3000000000000000
(1487341972.459154) can0 167#72800910001A1500
(1487341972.459154) can0 202#044B200060971D90
(1487341972.459157) can0 204#C0007D02F6000000
(1487341972.459158) can0 091#7F3E7EE3C11AF000
(1487341972.460154) can0 092#6FA76F9E7369FD1A
(1487341972.460154) can0 415#1D92F44007FA07FA
(1487341972.460154) can0 41D#8000600000000000
(1487341972.460156) can0 4B0#01008000900000F6
(1487341972.462533) can0 242#02902010D2000001
(1487341972.463653) can0 3CA#0280C7B400000000
(1487341972.465781) can0 217#1950195419401944
(1487341972.466905) can0 082#710814008E804000
(1487341972.466905) can0 085#7F6880002D107F6B
(1487341972.467906) can0 186#140401FB009805FB
(1487341972.467906) can0 187#D51408C800E00300
(1487341972.468903) can0 047#2000000000000000
(1487341972.468904) can0 165#10CD4F0000000000
(1487341972.468904) can0 091#7F427EE4BB1BF000
(1487341972.469904) can0 092#6FA36F9D7355151B
(1487341972.469905) can0 167#72800910001A1500
(1487341972.469905) can0 178#000002000E73CE73
(1487341972.470906) can0 200#00007FFB800E0000
(1487341972.470906) can0 202#044A280060971D90
(1487341972.470906) can0 204#C0007D02F6000000
(1487341972.470908) can0 230#600600009E000000
(1487341972.471905) can0 261#0000000000000000
(1487341972.471905) can0 078#0568800000000000
(1487341972.472904) can0 42F#7D04002E661302FA
(1487341972.473908) can0 42C#8C40000009B00000
(1487341972.475904) can0 076#3E7DC0800FFF0000
(1487341972.476904) can0 077#1D8807FA7FF7F1FC
(1487341972.476904) can0 07D#0000F5A0001FB816
(1487341972.476905) can0 085#7F6880002C207F6B
(1487341972.476906) can0 213#FFFF00040001FF40
(1487341972.478030) can0 214#000000000000F5A0
(1487341972.478031) can0 216#50B3EE6C00000000
(1487341972.478031) can0 217#1950195819441944
(1487341972.478033) can0 3A8#0100270D00000000
(1487341972.479031) can0 415#1D97F83A07FB07FB
(1487341972.479031) can0 167#72800910001A1500
(1487341972.479032) can0 202#0449300060971D90
(1487341972.479033) can0 091#7F3B7EE4C11CF000
(1487341972.480030) can0 092#6FA16F9C7359131C
(1487341972.480031) can0 204#C0007D02F6000000
(1487341972.480031) can0 416#5600F80001000000
(1487341972.480033) can0 41D#8000600000000000
(1487341972.480033) can0 4B0#01008000A00000F5
(1487341972.485411) can0 05A#00000045EAA10000
(1487341972.486409) can0 217#1950195419481944
(1487341972.486409) can0 082#710814008E804000
(1487341972.487405) can0 085#7F6880002B307F6B
(1487341972.487406) can0 186#140401FB009805FB
(1487341972.487406) can0 187#D51408C800E00300
(1487341972.487407) can0 18A#0020180114000000
(1487341972.488530) can0 3CC#3000000000000000
(1487341972.488530) can0 047#2000000000000000
(1487341972.488530) can0 165#10CD4F0000000000
(1487341972.489531) can0 04A#0200000000000000
(1487341972.489532) can0 04B#00C0D8D8D8D8C000
(1487341972.489532) can0 04C#105FFFC000000000
(1487341972.489533) can0 091#7F337EE4C81DF000
(1487341972.490528) can0 092#6FA16FA07369FE1D
(1487341972.490529) can0 167#72800810001A1500
(1487341972.490529) can0 200#00007FFB800E0000
(1487341972.490530) can0 202#0447380060971D91
(1487341972.490531) can0 204#C0007D02F7000000
(1487341972.491529) can0 230#600600009E000000
(1487341972.492529) can0 078#0069000000000000
(1487341972.493656) can0 3CA#0280A7BA00000000
(1487341972.494655) can0 083#0020001000000000
(1487341972.494655) can0 2A1#FFFFFFFF00000000
(1487341972.495905) can0 076#3E7DC0800FFF0000
(1487341972.496904) can0 077#1D8707FA7FF7E9FC
(1487341972.496905) can0 07D#0000F4B0001F6815
(1487341972.496905) can0 085#7F6880002A407F6B
(1487341972.496908) can0 213#FFFF00040001FF40
(1487341972.497906) can0 214#000000000000F4B0
(1487341972.497906) can0 216#69CD088600000000
(1487341972.497907) can0 217#19481954194C1948
(1487341972.497908) can0 3A8#0100270D00000000
(1487341972.498871) can0 415#1D94FC3C07FB07FB
(1487341972.498871) can0 167#72800810001A1500
(1487341972.498872) can0 41D#8000600000000000
(1487341972.498873) can0 202#0446400060971D91
(1487341972.499904) can0 091#7F347EE5C51EF000
(1487341972.499904) can0 092#6FA06FA37375EF1E
(1487341972.499905) can0 204#C0007D02F7000000
(1487341972.499906) can0 4B0#01008000B00000F4
(1487341972.500905) can0 42F#7D04002E661202FA
(1487341972.502656) can0 242#02902010D2000001
(1487341972.505907) can0 217#19481950194C1944
(1487341972.506904) can0 186#140401FB009805FB
(1487341972.506905) can0 187#D51408C800E00300
(1487341972.506905) can0 082#720814008E804000
(1487341972.506906) can0 085#7F6780002A507F6B
(1487341972.508029) can0 047#2000000000000000
(1487341972.509004) can0 165#10CD4F0000000000
(1487341972.509004) can0 167#72800810001A1400
(1487341972.509004) can0 091#7F3A7EE6BD1FF000
(1487341972.509006) can0 092#6FA26FA17376ED1F
(1487341972.510155) can0 200#00007FFB800E0000
(1487341972.510156) can0 202#0445480060971D91
(1487341972.510156) can0 204#C0007D02FA000000
(1487341972.510158) can0 230#600600009E000000
(1487341972.511153) can0 078#0168800000000000
(1487341972.513282) can0 3A7#0E401A045F700000
(1487341972.514281) can0 33B#0000000000000000
(1487341972.515907) can0 076#3E7DC0800FFF0000
(1487341972.516904) can0 077#1D8807FA7FF7E9FD
(1487341972.516905) can0 07D#0000F3C0001FE813
(1487341972.516906) can0 085#7F67800029607F6B
(1487341972.516907) can0 213#FFFF00040001FF40
(1487341972.517906) can0 214#000000000000F3C0
(1487341972.517906) can0 216#83E722A000000000
(1487341972.517907) can0 217#19481950194C1944
(1487341972.517908) can0 3A8#0100270D00000000
(1487341972.518904) can0 3CC#3000000000000000
(1487341972.518904) can0 167#72800810001A1300
(1487341972.518905) can0 202#0444500060971D91
(1487341972.518906) can0 204#C0007D02FA000000
(1487341972.519904) can0 091#7F3C7EE4BC20F000
(1487341972.519905) can0 092#6FA66F9C7376ED20
(1487341972.519905) can0 261#0000000000000000
(1487341972.519906) can0 415#1D8DC05207FB07FB
(1487341972.520904) can0 41D#8000600000000000
(1487341972.520904) can0 4B0#01008000C00000F3
(1487341972.522659) can0 42C#8C40000009B00000
(1487341972.523657) can0 3CA#0280A7BA00000000
(1487341972.524780) can0 3A6#0E401A045F700000
(1487341972.525781) can0 186#140401FB009805FB
(1487341972.526905) can0 187#D41408C800F00300
(1487341972.526906) can0 217#194C195019481948
(1487341972.526906) can0 082#700814008E804000
(1487341972.526907) can0 085#7F67800028707F6B
(1487341972.528031) can0 047#2000000000000000
(1487341972.529032) can0 165#10CD4F0000000000
(1487341972.529032) can0 167#72800810001A1300
(1487341972.529033) can0 091#7F367EE2C321F000
(1487341972.529034) can0 092#6FAA6F987379E921
(1487341972.530029) can0 200#00007FFB800D0000
(1487341972.530030) can0 202#0444580060971D90
(1487341972.530030) can0 204#C0007D02FB000000
(1487341972.530031) can0 230#600600009E000000
(1487341972.531155) can0 42F#7D04002E661202FA
(1487341972.532154) can0 078#0168800000000000
(1487341972.535907) can0 076#3E7CC0800FFF0000
(1487341972.536905) can0 077#1D8807FA7FF7F1FC
(1487341972.536905) can0 07D#0000F2D0001FF815
(1487341972.536908) can0 085#7F67800027807F6B
(1487341972.536909) can0 213#FFFF00040001FF40
(1487341972.537905) can0 214#000000000000F2D0
(1487341972.537905) can0 216#9D003BB900000000
(1487341972.537906) can0 217#194C195019401948
(1487341972.537907) can0 415#1D90C44E07FC07FC
(1487341972.538905) can0 41D#8000600000000000
(1487341972.538906) can0 167#72800810001A1100
(1487341972.538906) can0 202#0444600060971D8F
(1487341972.538907) can0 091#7F337EE0C722F000
(1487341972.540029) can0 092#6FAA6F987378E922
(1487341972.540030) can0 204#C0007D02FB000000
(1487341972.540030) can0 3A8#0100270D00000000
(1487341972.540032) can0 455#A000000000000000
(1487341972.540032) can0 4B0#01008000D00000F2
(1487341972.542534) can0 242#0290200FD1000001
(1487341972.545782) can0 217#19481954193C1944
(1487341972.546779) can0 186#140401FB009705FB
(1487341972.546779) can0 187#D41408C800F00300
(1487341972.546781) can0 082#710814008E804000
(1487341972.546781) can0 085#7F67800026907F6B
(1487341972.547905) can0 3CC#3000000000000000
(1487341972.548904) can0 047#2000000000000000
(1487341972.548905) can0 05C#00D000EF201E0000
(1487341972.548905) can0 165#10CD4F0000000000
(1487341972.548906) can0 091#7F377EE0C223F000
(1487341972.549905) can0 092#6FA86F9C736CF223
(1487341972.549905) can0 167#72800610001A0F00
(1487341972.549906) can0 200#00007FFB800B0000
(1487341972.549907) can0 202#0443680060971D8F
(1487341972.550904) can0 204#C0007D02FA000000
(1487341972.550905) can0 230#600600009E000000
(1487341972.551904) can0 078#0068000000000000
(1487341972.551905) can0 422#0000008E3802FE02
(1487341972.551906) can0 423#CDA0000000000000
(1487341972.551907) can0 430#37000ED1C8897700
(1487341972.553657) can0 3CA#0280A7BA00000000
(1487341972.555154) can0 05D#8357AF5F33000000
(1487341972.556154) can0 076#3E7CC0800FFF0000
(1487341972.556154) can0 077#1D8807F97FF7F5FB
(1487341972.557158) can0 07D#0000F1E0001FF812
(1487341972.557158) can0 085#7F67800025A07F6B
(1487341972.557159) can0 213#FFFF00040001FF40
(1487341972.557160) can0 214#000000000000F1E0
(1487341972.558154) can0 216#B71A55D300000000
(1487341972.558154) can0 217#194C195819381940
(1487341972.558155) can0 415#1D90C84D07FC07FC
(1487341972.558156) can0 3A8#0100270D00000000
(1487341972.559155) can0 167#72800610001A0F00
(1487341972.559155) can0 41D#8000600000000000
(1487341972.559156) can0 091#7F3C7EE1BB24F000
(1487341972.559157) can0 092#6FA46F9E735F0024
(1487341972.560155) can0 202#0442700060971D8F
(1487341972.560156) can0 204#C0007D02FA000000
(1487341972.560156) can0 4B0#01008000E00000F1
(1487341972.560157) can0 42F#7D04002E661102FA
(1487341972.565655) can0 186#140401FB009705FB
(1487341972.566655) can0 187#D41408C800F00300
(1487341972.566655) can0 217#19501954193C1940
(1487341972.566656) can0 082#720814008E804000
(1487341972.566657) can0 085#7F67800024B07F6B
(1487341972.568031) can0 047#2000000000000000
(1487341972.569026) can0 165#10CD4F0000000000
(1487341972.569027) can0 091#7F387EE3BC25F000
(1487341972.569028) can0 092#6FA26F9C735B0725
(1487341972.570029) can0 167#72800510001A0F00
(1487341972.570029) can0 178#000002010E73CE73
(1487341972.570030) can0 200#00007FFB800B0000
(1487341972.570031) can0 202#0441780060971D8F
(1487341972.571155) can0 204#C0007D02FB000000
(1487341972.571156) can0 230#600600009E000000
(1487341972.571156) can0 261#0000000000000000
(1487341972.572154) can0 078#0568800000000000
(1487341972.573132) can0 42C#8C40000009B00000
(1487341972.574154) can0 33B#0000000000000000
(1487341972.575906) can0 076#3E7CC0800FFF0000
(1487341972.576904) can0 077#1D8607F97FF7EDFC
(1487341972.576905) can0 07D#0000F0F0001F8815
(1487341972.576905) can0 085#7F67800023C07F6B
(1487341972.576906) can0 213#FFFF00040001FF40
(1487341972.577904) can0 214#000000000000F0F0
(1487341972.577905) can0 216#D03570ED00000000
(1487341972.577905) can0 217#194C195419441940
(1487341972.577906) can0 3A8#0100270D00000000
(1487341972.579031) can0 3CC#3000000000000000
(1487341972.579031) can0 167#72800510001A0D00
(1487341972.579032) can0 202#0450000060971D8F
(1487341972.579033) can0 091#7F2D7EE5C426F000
(1487341972.580030) can0 092#6FA56F9C735A0426
(1487341972.580030) can0 204#C0007D02FB000000
(1487341972.580031) can0 415#1D96CC4607FC07FC
(1487341972.580032) can0 416#5700F70001000000
(1487341972.580032) can0 41D#8000600000000000
(1487341972.581031) can0 4B0#01008000F00000F0
(1487341972.582530) can0 242#0290200ED2000001
(1487341972.583655) can0 3CA#0280A7BA00000000
(1487341972.585406) can0 05A#00000045F0410000
(1487341972.586404) can0 186#140401FB009705FB
(1487341972.586404) can0 187#D41408C800F00300
(1487341972.586406) can0 18A#0020180114000000
(1487341972.586406) can0 217#19481954194C1940
(1487341972.587405) can0 082#730814008E804000
(1487341972.587405) can0 085#7F67800022D07F6B
(1487341972.588404) can0 047#2000000000000000
(1487341972.588404) can0 165#10CD4F0000000000
(1487341972.589406) can0 04A#0200000000000000
(1487341972.589407) can0 04B#00C0D8D8D8D8C000
(1487341972.589407) can0 04C#105FFFC000000000
(1487341972.589409) can0 091#7F1E7EE4D327F000
(1487341972.590404) can0 092#6FA56F9E73560527
(1487341972.590405) can0 167#72800510001A0D00
(1487341972.590405) can0 200#00007FFB800A0000
(1487341972.590406) can0 202#044E080060971D90
(1487341972.591405) can0 204#C0007D02F8000000
(1487341972.591406) can0 230#600600009E000000
(1487341972.591406) can0 42F#7D04002E661002FA
(1487341972.592529) can0 078#0169800000000000
(1487341972.593907) can0 083#0020001000000000
(1487341972.594905) can0 2A1#FFFFFFFF00000000
(1487341972.595904) can0 076#3E7CC0800FFF0000
(1487341972.596905) can0 077#1D8607FA7FF7EDFC
(1487341972.596906) can0 07D#0000FF00001F7810
(1487341972.596906) can0 085#7F66800022E07F6B
(1487341972.596907) can0 213#FFFF00040001FF40
(1487341972.597906) can0 214#000000000000FF00
(1487341972.597906) can0 216#EC4F8A0700000000
(1487341972.597907) can0 217#1944195019501944
(1487341972.597908) can0 3A8#0100270D00000000
(1487341972.598908) can0 415#1D8FD04C07FD07FD
(1487341972.598908) can0 167#72800410001A0B00
(1487341972.598909) can0 202#044D100060971D90
(1487341972.598910) can0 204#C0007D02F8000000
(1487341972.600038) can0 091#7F147EE3DD28F000
(1487341972.600038) can0 092#6FA16F9E73560828
(1487341972.600038) can0 41D#8000600000000000
(1487341972.600040) can0 4B0#01008000000000FF
(1487341972.605031) can0 186#140401FB009705FB
(1487341972.606029) can0 187#D41408C800F00300
(1487341972.606030) can0 217#1944195419501948
(1487341972.607028) can0 082#730814008E804000
(1487341972.607028) can0 085#7F66800021F07F6B
(1487341972.607029) can0 3CC#3000000000000000
(1487341972.608155) can0 047#2000000000000000
(1487341972.609156) can0 165#10CD4F0000000000
(1487341972.609157) can0 167#72800310001A0A00
(1487341972.609157) can0 200#00007FFB80080000
(1487341972.609160) can0 091#7F107EE2E129F000
(1487341972.610162) can0 092#6FA06F9C73600029
(1487341972.610162) can0 202#044C180060971D90
(1487341972.610163) can0 204#C0007D02F6000000
(1487341972.610164) can0 230#600600009E000000
(1487341972.611156) can0 078#0068000000000000
(1487341972.613657) can0 3CA#028087BB00000000
(1487341972.615906) can0 076#3E7CC0800FFF0000
(1487341972.616903) can0 077#1D8707FA7FF7E9FC
(1487341972.616904) can0 07D#0000FE10001F6809
(1487341972.616904) can0 085#7F66800030007F6B
