(1487341902.034882) can0 216#9D83EB6E00000000
(1487341902.034882) can0 217#13201324131C1314
(1487341902.034883) can0 415#1658F08207FD07FD
(1487341902.034883) can0 41D#8000600000000000
(1487341902.035881) can0 4B0#01008000800000F7
(1487341902.035882) can0 167#727FEB100019F000
(1487341902.035882) can0 202#049910006072164B
(1487341902.035882) can0 204#C0007D059A000000
(1487341902.036871) can0 3A8#0100270D00000000
(1487341902.036872) can0 455#A000000000000000
(1487341902.037878) can0 085#7F66800024E07F69
(1487341902.037879) can0 186#142C01F9007205F9
(1487341902.037879) can0 187#D51408C800E00300
(1487341902.039753) can0 091#7F097EE67598F000
(1487341902.040753) can0 33B#0000000000000000
(1487341902.040754) can0 092#6FB26F9373678198
(1487341902.042878) can0 217#13201324131C1318
(1487341902.045008) can0 047#2000000000000000
(1487341902.046029) can0 05C#003000F9201E0000
(1487341902.046029) can0 165#10CD3C0000000000
(1487341902.046029) can0 167#727FEB100019F000
(1487341902.046030) can0 200#00007FEC7FEC0000
(1487341902.047055) can0 202#049618006072164D
(1487341902.047056) can0 204#C0007D059C000000
(1487341902.047056) can0 230#300600009D000000
(1487341902.047057) can0 082#800814008F804000
(1487341902.048056) can0 085#7F66800023F07F69
(1487341902.048056) can0 3CC#B000000000000000
(1487341902.049681) can0 078#0068000000000000
(1487341902.050680) can0 091#7F0D7EE67099F000
(1487341902.050681) can0 092#6FA96F94736E8199
(1487341902.050681) can0 05D#835787603C000000
(1487341902.051805) can0 169#0083C00000000000
(1487341902.052930) can0 076#3E7CC0800FFF0000
(1487341902.053929) can0 077#165307F97FF801F9
(1487341902.053930) can0 07D#0000F690001FA805
(1487341902.053930) can0 213#FFFF000400020440
(1487341902.053930) can0 214#000000000000F690
(1487341902.054929) can0 216#B197FE8200000000
(1487341902.054930) can0 217#131C1324131C1318
(1487341902.054930) can0 3CA#FE8FB82200000000
(1487341902.054931) can0 415#165BF47E07FD07FD
(1487341902.055931) can0 41D#8000600000000000
(1487341902.055931) can0 167#727FEB100019F000
(1487341902.055931) can0 4B0#01008000900000F6
(1487341902.055934) can0 202#049320006072164F
(1487341902.056930) can0 204#C0007D059B000000
(1487341902.056931) can0 3A8#0100270D00000000
(1487341902.057932) can0 085#7F66800032007F69
(1487341902.057933) can0 42F#7D04002E6603059B
(1487341902.057933) can0 186#142A01F9007205F9
(1487341902.057933) can0 187#D51408C800E00300
(1487341902.058998) can0 18A#0020180114000000
(1487341902.060016) can0 083#0020000000000000
(1487341902.060992) can0 091#7F107EE56D9AF000
(1487341902.060992) can0 092#6FA16F917371889A
(1487341902.060993) can0 2A1#FFFFFFFF00000000
(1487341902.061990) can0 242#02902015D2000001
(1487341902.063020) can0 217#1318132413181318
(1487341902.065145) can0 047#2000000000000000
(1487341902.066158) can0 165#10CD3C0000000000
(1487341902.066158) can0 167#727FEB100019F000
(1487341902.067178) can0 178#000002000E73CE73
(1487341902.067179) can0 200#00007FEC7FEC0000
(1487341902.067179) can0 082#800814008F804000
(1487341902.068178) can0 085#7F66800031107F69
(1487341902.068179) can0 202#0490280060721651
(1487341902.068180) can0 204#C0007D059B000000
(1487341902.068180) can0 230#300600009D000000
(1487341902.069183) can0 261#0000000000000000
(1487341902.070178) can0 091#7F0E7EE56E9BF000
(1487341902.071179) can0 078#0569800000000000
(1487341902.071180) can0 092#6FA16F8E7373889B
(1487341902.071180) can0 42C#8C40000009B00000
(1487341902.072928) can0 076#3E7CC0800FFF0000
(1487341902.073928) can0 077#165407F97FF7F1F8
(1487341902.073928) can0 07D#0000F5A0001FD807
(1487341902.073929) can0 213#FFFF000400020340
(1487341902.073929) can0 214#000000000000F5A0
(1487341902.074928) can0 216#C5AB129400000000
(1487341902.074928) can0 217#131813241318131C
(1487341902.074929) can0 415#1656F88207FD07FD
(1487341902.074929) can0 416#5600F80001000000
(1487341902.075929) can0 41D#8000600000000000
(1487341902.075930) can0 3A8#0100270D00000000
(1487341902.075930) can0 167#727FEB100019F100
(1487341902.075930) can0 202#048E300060721652
(1487341902.076928) can0 204#C0007D059A000000
(1487341902.076929) can0 4B0#01008000A00000F5
(1487341902.077929) can0 085#7F66800030207F69
(1487341902.077929) can0 186#142A01F9007205F9
(1487341902.077930) can0 187#D51408C800E00300
(1487341902.077930) can0 3CC#B000000000000000
(1487341902.080053) can0 091#7F057EE5769CF000
(1487341902.081055) can0 092#6FA86F8C73777E9C
(1487341902.082803) can0 217#131813241318131C
(1487341902.083930) can0 3CA#FE8FB82200000000
(1487341902.085303) can0 047#2000000000000000
(1487341902.086303) can0 165#10CD3C0000000000
(1487341902.086304) can0 167#727FEB100019F100
(1487341902.086304) can0 05A#00000045EAA10000
(1487341902.087303) can0 200#00007FEC7FEC0000
(1487341902.087304) can0 202#048D380060721652
(1487341902.087304) can0 204#C0007D059B000000
(1487341902.087305) can0 082#800814008F804000
(1487341902.088428) can0 085#7F6680002F307F69
(1487341902.088429) can0 230#300600009D000000
(1487341902.088429) can0 42F#7D04002E6603059B
(1487341902.089680) can0 078#0168800000000000
(1487341902.090678) can0 04A#0200000000000000
(1487341902.090679) can0 04B#00C0D8D8D8D8C000
(1487341902.090679) can0 04C#105FFFC000000000
(1487341902.090679) can0 091#7EFC7EE67E9DF000
(1487341902.091678) can0 092#6FB26F8A737C709D
(1487341902.091679) can0 3A7#0E401A045F700000
(1487341902.092929) can0 076#3E7CC0800FFF0000
(1487341902.093928) can0 077#165607F97FF7F9F7
(1487341902.093929) can0 07D#0000F4B0001FF804
(1487341902.093932) can0 213#FFFF000400020340
(1487341902.093932) can0 214#000000000000F4B0
(1487341902.094928) can0 216#D9BD26A800000000
(1487341902.094929) can0 217#131C13241314131C
(1487341902.094929) can0 415#1656FC8107FD07FD
(1487341902.094929) can0 41D#8000600000000000
(1487341902.095929) can0 4B0#01008000B00000F4
(1487341902.095930) can0 167#727FEB100019F000
(1487341902.095930) can0 202#048B400060721653
(1487341902.095930) can0 204#C0007D059B000000
(1487341902.096928) can0 3A8#0100270D00000000
(1487341902.098030) can0 186#142901F9007205F9
(1487341902.098031) can0 085#7F6680002E407F69
(1487341902.098031) can0 187#D51408C800E00300
(1487341902.099303) can0 3A6#0E401A045F700000
(1487341902.100429) can0 33B#0000000000000000
(1487341902.100430) can0 091#7EFA7EE77E9EF000
(1487341902.100430) can0 092#6FB86F8C73786B9E
(1487341902.102054) can0 242#02902017D3000001
(1487341902.103055) can0 217#131C13241314131C
(1487341902.105059) can0 047#2000000000000000
(1487341902.106055) can0 165#10CD3C0000000000
(1487341902.106056) can0 167#727FEB100019F100
(1487341902.106056) can0 200#00007FEC7FEC0000
(1487341902.106056) can0 202#048A480060721653
(1487341902.107057) can0 204#C0007D059A000000
(1487341902.107057) can0 230#300600009D000000
(1487341902.107058) can0 082#810814008F804000
(1487341902.108056) can0 085#7F6680002D507F69
(1487341902.108057) can0 3CC#B000000000000000
(1487341902.109681) can0 078#0068000000000000
(1487341902.110679) can0 091#7EFB7EEA799FF000
(1487341902.110680) can0 092#6FB76F8D736A789F
(1487341902.110680) can0 422#000000903802FE02
(1487341902.110680) can0 423#CE20000000000000
(1487341902.111678) can0 430#37000ECFC889F700
(1487341902.112928) can0 076#3E7CC0800FFF0000
(1487341902.113930) can0 077#165707F97FF809F7
(1487341902.113930) can0 07D#0000F3C0001FF800
(1487341902.113930) can0 213#FFFF000400020340
(1487341902.113931) can0 214#000000000000F3C0
(1487341902.114930) can0 216#EBD139BC00000000
(1487341902.114931) can0 217#13201324131C131C
(1487341902.114931) can0 3CA#FE8FB82200000000
(1487341902.114931) can0 415#1659C08D07FD07FD
(1487341902.115929) can0 41D#8000600000000000
(1487341902.115929) can0 167#727FEB100019F100
(1487341902.115929) can0 4B0#01008000C00000F3
(1487341902.115930) can0 202#0489500060721653
(1487341902.116895) can0 204#C0007D059A000000
(1487341902.116896) can0 261#0000000000000000
(1487341902.116896) can0 3A8#0100270D00000000
(1487341902.117930) can0 085#7F6680002C607F69
(1487341902.117931) can0 186#142901F9007205F9
(1487341902.117931) can0 187#D41408C800F00300
(1487341902.117932) can0 42F#7D04002E6603059B
(1487341902.120053) can0 091#7EFA7EEC77A0F000
(1487341902.121056) can0 092#6FB16F8D73598EA0
(1487341902.122055) can0 42C#8C40000009B00000
(1487341902.123179) can0 217#13241324131C131C
(1487341902.125056) can0 047#2000000000000000
(1487341902.126054) can0 165#10CD3C0000000000
(1487341902.126054) can0 167#727FEB100019F100
(1487341902.126055) can0 200#00007FEC7FEC0000
(1487341902.126055) can0 202#0487580060721654
(1487341902.127027) can0 204#C0007D059A000000
(1487341902.127027) can0 230#300600009D000000
(1487341902.128054) can0 082#800814008F804000
(1487341902.128054) can0 085#7F6680002B707F69
(1487341902.129555) can0 078#0168800000000000
(1487341902.130553) can0 091#7EFB7EED74A1F000
(1487341902.130554) can0 092#6FAC6F8D735893A1
(1487341902.132929) can0 076#3E7CC0800FFF0000
(1487341902.133928) can0 077#165707FB7FF801F7
(1487341902.133929) can0 07D#0000F2D0001F6800
(1487341902.133929) can0 213#FFFF000400020340
(1487341902.133929) can0 214#000000000000F2D0
(1487341902.134929) can0 216#FFE54DCF00000000
(1487341902.134929) can0 217#1324132413201318
(1487341902.134930) can0 415#165DC48807FD07FD
(1487341902.134930) can0 41D#8000600000000000
(1487341902.135928) can0 4B0#01008000D00000F2
(1487341902.135929) can0 167#727FEB100019F000
(1487341902.135929) can0 202#0486600060721654
(1487341902.135930) can0 204#C0007D059B000000
(1487341902.136929) can0 3A8#0100270D00000000
(1487341902.136930) can0 455#A000000000000000
(1487341902.136930) can0 186#142801F9007205F9
(1487341902.137929) can0 085#7F6680002A807F69
(1487341902.137929) can0 187#D41408C800F00300
(1487341902.137930) can0 3CC#B000000000000000
(1487341902.140055) can0 091#7F017EEE6BA2F000
(1487341902.141181) can0 092#6FAD6F8E736E7AA2
(1487341902.142179) can0 242#02902016D3000001
(1487341902.143177) can0 217#1324132C13241318
(1487341902.143178) can0 3CA#FE8FB82200000000
(1487341902.145055) can0 047#2000000000000000
(1487341902.146055) can0 05C#00D000EF201E0000
(1487341902.146055) can0 165#10CD3C0000000000
(1487341902.146055) can0 167#727FEB100019F000
(1487341902.147053) can0 200#00007FEC7FEC0000
(1487341902.147054) can0 202#0483680060721656
(1487341902.147054) can0 204#C0007D059A000000
(1487341902.147055) can0 230#300600009D000000
(1487341902.148053) can0 082#800814008F804000
(1487341902.148054) can0 085#7F66800029907F69
(1487341902.148054) can0 42F#7D04002E6603059A
(1487341902.149680) can0 078#0168800000000000
(1487341902.150678) can0 091#7F017EEE6AA3F000
(1487341902.150679) can0 092#6FB06F9073885AA3
(1487341902.151678) can0 05D#8357AF6032000000
(1487341902.152928) can0 076#3E7CC0800FFF0000
(1487341902.153932) can0 077#165907FC7FF7FDF7
(1487341902.153932) can0 07D#0000F1E0001FC803
(1487341902.153932) can0 213#FFFF000400020440
(1487341902.153933) can0 214#000000000000F1E0
(1487341902.154929) can0 216#13F961E300000000
(1487341902.154929) can0 217#132813301328131C
(1487341902.154930) can0 415#1662C88207FD07FD
(1487341902.154930) can0 41D#8000600000000000
(1487341902.155928) can0 4B0#01008000E00000F1
(1487341902.155928) can0 167#727FEB100019F000
(1487341902.155929) can0 202#0481700060721657
(1487341902.155929) can0 204#C0007D059A000000
(1487341902.156929) can0 3A8#0100270D00000000
(1487341902.156929) can0 186#142801F9007205F9
(1487341902.158054) can0 187#D41408C800F00300
(1487341902.158054) can0 085#7F66800028A07F69
(1487341902.158055) can0 18A#0020180114000000
(1487341902.159881) can0 083#0020000000000000
(1487341902.160896) can0 091#7EFA7EED72A4F000
(1487341902.160897) can0 092#6FB16F9173924DA4
(1487341902.160897) can0 2A1#FFFFFFFF00000000
(1487341902.160898) can0 33B#0000000000000000
(1487341902.162804) can0 217#132813301328131C
(1487341902.163929) can0 596#9600FFFFFFFFFFFF
(1487341902.165056) can0 047#2000000000000000
(1487341902.166053) can0 165#10CD3C0000020000
(1487341902.166053) can0 167#727FEB100019F000
(1487341902.167053) can0 178#000001FF0E73CE73
(1487341902.167054) can0 200#00007FEC7FEC0000
(1487341902.167055) can0 202#047F780060721658
(1487341902.168054) can0 082#810814008E804000
(1487341902.168054) can0 085#7F66800027B07F69
(1487341902.168054) can0 204#C0007D059A000000
(1487341902.168055) can0 230#300600009D000000
(1487341902.169058) can0 261#0000000000000000
(1487341902.169058) can0 3CC#B000000000000000
(1487341902.170053) can0 091#7EF27EED79A5F000
(1487341902.171178) can0 078#0469000000000000
(1487341902.171179) can0 092#6FB06F90738A56A5
(1487341902.172178) can0 42C#8C40000009B00000
(1487341902.173180) can0 076#3E7CC0800FFF0000
(1487341902.173181) can0 077#165C07FB7FF801F8
(1487341902.174181) can0 07D#0000F0F000207800
(1487341902.174181) can0 213#FFFF000400020440
(1487341902.174182) can0 214#000000000000F0F0
(1487341902.174182) can0 216#270C75F700000000
(1487341902.175178) can0 217#1324133013281320
(1487341902.175179) can0 3CA#FE8187EC00000000
(1487341902.175180) can0 415#1668CC7B07FD07FD
(1487341902.175180) can0 416#5700F70001000000
(1487341902.176179) can0 167#727FEB100019F000
(1487341902.176179) can0 41D#8000600000000000
(1487341902.176180) can0 202#048C00006072165A
(1487341902.176180) can0 204#C0007D059B000000
(1487341902.177182) can0 3A8#0100270D00000000
(1487341902.177182) can0 41E#0000000000000000
(1487341902.177183) can0 186#142801F9007205F9
(1487341902.177183) can0 187#D41408C800F00300
(1487341902.178178) can0 085#7F66800026C07F69
(1487341902.178178) can0 42F#7D04002E6603059A
(1487341902.178179) can0 4B0#01008000F00000F0
(1487341902.180053) can0 091#7EEB7EED7FA6F000
(1487341902.181058) can0 092#6FB16F8E737D63A6
(1487341902.182055) can0 242#02902014D2000001
(1487341902.183179) can0 217#1320133013281324
(1487341902.185055) can0 047#2000000000000000
(1487341902.186055) can0 165#10CD3C0000000000
(1487341902.186055) can0 167#727FEB100019F000
(1487341902.186055) can0 200#00007FBC7FEB0000
(1487341902.186056) can0 202#048908006072165C
(1487341902.187053) can0 05A#00000045F0410000
(1487341902.187054) can0 204#C0007D059A000000
(1487341902.187054) can0 230#300600009D000000
(1487341902.187054) can0 082#820814008F804000
(1487341902.188056) can0 085#7F66800025D07F69
(1487341902.189556) can0 078#0168800000000000
(1487341902.190553) can0 04A#0200000000000000
(1487341902.190554) can0 04B#00C0D8D8D8D8C000
(1487341902.190554) can0 04C#105FFFC000000000
(1487341902.191554) can0 091#7EE27EED87A7F000
(1487341902.191554) can0 092#6FB36F8B73756BA7
(1487341902.192928) can0 076#3E7CC0800FFF0000
(1487341902.193929) can0 077#165E07FB7FF801F7
(1487341902.193929) can0 07D#0000FF00002017FD
(1487341902.193930) can0 213#FFFF000400020440
(1487341902.193930) can0 214#000000000000FF00
(1487341902.194931) can0 216#3A20870B00000000
(1487341902.194931) can0 217#1320132C13241328
(1487341902.194931) can0 415#1660D08207FD07FD
(1487341902.194932) can0 41D#8000600000000000
(1487341902.195929) can0 4B0#01008000000000FF
(1487341902.195930) can0 167#727FEB100019EE00
(1487341902.195930) can0 202#048710006072165D
(1487341902.195931) can0 204#C0007D059B000000
(1487341902.197056) can0 3A8#0100270D00000000
(1487341902.197057) can0 186#142801F9007205F9
(1487341902.197057) can0 187#D41408C800F00300
(1487341902.198055) can0 085#7F66800024E07F69
(1487341902.198055) can0 3CC#B000000000000000
(1487341902.200053) can0 091#7ED87EEE8FA8F000
(1487341902.201056) can0 092#6FB66F8A737865A8
(1487341902.202928) can0 217#1320132C13201328
(1487341902.203929) can0 3CA#FE8187EC00000000
(1487341902.205305) can0 047#2000000000000000
(1487341902.206306) can0 165#10CD3C0000000000
(1487341902.206307) can0 167#727FEB100019EE00
(1487341902.206307) can0 200#00007FBC7FEB0000
(1487341902.207303) can0 202#048518006072165E
(1487341902.207304) can0 204#C0007D059A000000
(1487341902.207304) can0 230#300600009D000000
(1487341902.207304) can0 082#810814008F804000
(1487341902.208304) can0 085#7F66800023F07F69
(1487341902.208305) can0 42F#7D04002E6601059A
(1487341902.208305) can0 456#8000000000000000
(1487341902.209555) can0 078#0168800000000000
(1487341902.210554) can0 422#000000903802FE02
(1487341902.210554) can0 423#CE20000000000000
(1487341902.210555) can0 091#7ECC7EED9BA9F000
(1487341902.210555) can0 092#6FB96F8A738059A9
(1487341902.211555) can0 430#37000ECFC8897700
(1487341902.212929) can0 076#3E7CC0800FFF0000
(1487341902.213928) can0 077#166007FC7FF805F6
(1487341902.213929) can0 07D#0000FE10001FF7F7
(1487341902.213929) can0 213#FFFF000400020440
(1487341902.213929) can0 214#000000000000FE10
(1487341902.214928) can0 216#4E349B1E00000000
(1487341902.214928) can0 217#1320132C13201328
(1487341902.214929) can0 415#1660D48107FD07FD
(1487341902.214929) can0 41D#8000600000000000
(1487341902.215929) can0 4B0#01008000100000FE
(1487341902.215929) can0 167#727FE8100019ED00
(1487341902.215930) can0 202#048420006072165E
(1487341902.215930) can0 204#C0007D059A000000
(1487341902.216929) can0 261#0000000000000000
(1487341902.216930) can0 3A8#0100270D00000000
(1487341902.216930) can0 186#142801F9007205F9
(1487341902.216930) can0 187#E31408C800000300
(1487341902.217927) can0 085#7F66800032007F69
(1487341902.219679) can0 091#7EC67EEE9FAAF000
(1487341902.220805) can0 33B#0000000000000000
(1487341902.220805) can0 092#6FBA6F8B738551AA
(1487341902.221805) can0 242#02902011D2000001
(1487341902.222927) can0 217#1320132C13201324
(1487341902.223928) can0 3EB#7E04140000200000
(1487341902.223929) can0 40A#C110409060250000
(1487341902.223929) can0 42C#8C40000009B00000
(1487341902.225029) can0 047#2000000000000000
(1487341902.226053) can0 165#10CD3C0000000000
(1487341902.226053) can0 167#727FE6100019ED00
(1487341902.226054) can0 200#00007FE87FE90000
(1487341902.226054) can0 202#048328006072165E
(1487341902.227056) can0 204#C0007D0599000000
(1487341902.227056) can0 230#300600009D000000
(1487341902.227057) can0 082#810814008F804000
(1487341902.228179) can0 085#7F66800031107F69
(1487341902.228180) can0 3CC#B000000000000000
(1487341902.229518) can0 078#0068000000000000
(1487341902.230513) can0 091#7EC17EEFA2ABF000
(1487341902.230513) can0 092#6FB76F8B737761AB
(1487341902.232888) can0 076#3E7CC0800FFF0000
(1487341902.233928) can0 077#166107FC7FF80DF7
(1487341902.233929) can0 07D#0000FD20002037F1
(1487341902.233929) can0 213#FFFF000400020440
(1487341902.233929) can0 214#000000000000FD20
(1487341902.234928) can0 216#6247AF3200000000
(1487341902.234928) can0 217#1320132C13201324
(1487341902.234929) can0 3CA#FE8187EC00000000
(1487341902.234929) can0 415#165FD88107FD07FD
(1487341902.235928) can0 41D#8000600000000000
(1487341902.235928) can0 167#727FE6100019ED00
(1487341902.235928) can0 4B0#01008000200000FD
(1487341902.235929) can0 202#048230006072165E
(1487341902.236929) can0 204#C0007D059A000000
(1487341902.236930) can0 3A8#0100270D00000000
(1487341902.236930) can0 186#142801F9007205F9
(1487341902.236931) can0 187#E31408C800000300
(1487341902.237928) can0 42F#7D04002E6600059A
(1487341902.237929) can0 085#7F66800030207F69
(1487341902.237929) can0 455#A000000000000000
(1487341902.239678) can0 091#7EBB7EEEA8ACF000
(1487341902.240680) can0 092#6FB46F89735F7DAC
(1487341902.242930) can0 217#1324132813241320
(1487341902.245055) can0 047#2000000000000000
(1487341902.246054) can0 05C#007000F5201E0000
(1487341902.246054) can0 165#10CD3C0000000000
(1487341902.246055) can0 167#727FE6100019EC00
(1487341902.246055) can0 200#00007FE67FE90000
(1487341902.247054) can0 202#048138006072165E
(1487341902.247055) can0 204#C0007D0599000000
(1487341902.247055) can0 230#300600009D000000
(1487341902.247055) can0 082#820814008F804000
(1487341902.248053) can0 085#7F6780002D307F6A
(1487341902.249553) can0 078#0168800000000000
(1487341902.250553) can0 091#7EB07EEEB2ADF000
(1487341902.250553) can0 092#6FB56F88735388AD
(1487341902.251553) can0 05D#8357975F39000000
(1487341902.252928) can0 076#3E7CC0800FFF0000
(1487341902.253930) can0 077#166207FC7FF805F6
(1487341902.253930) can0 07D#0000FC30001F87EE
(1487341902.253931) can0 213#FFFF000400020440
(1487341902.253931) can0 214#000000000000FC30
(1487341902.254929) can0 216#765BC44600000000
(1487341902.254930) can0 217#1324132813241320
(1487341902.254931) can0 415#1661DC7E07FD07FD
(1487341902.254931) can0 41D#8000600000000000
(1487341902.255928) can0 3A8#0100270D00000000
(1487341902.255929) can0 167#727FE5100019EC00
(1487341902.255929) can0 202#048040006072165E
(1487341902.255930) can0 204#C0007D059A000000
(1487341902.256929) can0 186#142B01F9007205F9
(1487341902.256930) can0 187#E31408C800000300
(1487341902.256930) can0 18A#0020180114000000
(1487341902.256931) can0 4B0#01008000300000FC
(1487341902.258054) can0 085#7F6780002D407F69
(1487341902.258055) can0 3CC#B000000000000000
(1487341902.260054) can0 083#0020000000000000
(1487341902.261025) can0 091#7EA17EEEC0AEF000
(1487341902.261026) can0 092#6FB86F87735D7BAE
(1487341902.261027) can0 2A1#FFFFFFFF00000000
(1487341902.262053) can0 242#02902012D2000001
(1487341902.263053) can0 217#1324132813281320
(1487341902.264053) can0 3CA#FE8187EC00000000
(1487341902.265024) can0 047#2000000000000000
(1487341902.266053) can0 165#10CD3C0000000000
(1487341902.266053) can0 167#727FE5100019EC00
(1487341902.267055) can0 178#000002000E73CE73
(1487341902.267055) can0 200#00007FE57FE80000
(1487341902.268178) can0 082#820814008F804000
(1487341902.268179) can0 085#7F6780002C507F69
(1487341902.268179) can0 202#047F48006072165E
(1487341902.268179) can0 204#C0007D059A000000
(1487341902.269195) can0 230#300600009D000000
(1487341902.269195) can0 261#0000000000000000
(1487341902.270179) can0 42F#7D04002E65FF059A
(1487341902.270180) can0 078#0569800000000000
(1487341902.271178) can0 091#7E947EEDCDAFF000
(1487341902.271179) can0 092#6FBB6F87737064AF
(1487341902.272177) can0 42C#8C40000009B00000
(1487341902.273180) can0 076#3E7DC0800FFF0000
(1487341902.273180) can0 077#166207FC7FF809F5
(1487341902.274179) can0 07D#0000FB40001F87E6
(1487341902.274180) can0 213#FFFF000400020440
(1487341902.274180) can0 214#000000000000FB40
(1487341902.274180) can0 216#896FD65A00000000
(1487341902.275180) can0 217#1324132C132C1324
(1487341902.275180) can0 415#1660E07E07FD07FD
(1487341902.275180) can0 416#5800F60001000000
(1487341902.275181) can0 41D#8000600000000000
(1487341902.276180) can0 167#727FE4100019EB00
(1487341902.276180) can0 202#047E50006072165E
(1487341902.276181) can0 204#C0007D059B000000
(1487341902.276181) can0 186#142B01F9007205F9
(1487341902.277305) can0 187#E31408C800000300
(1487341902.277308) can0 3A8#0100270D00000000
(1487341902.277308) can0 4B0#01008000400000FB
(1487341902.277309) can0 085#7F6780002B607F69
(1487341902.280053) can0 33B#0000000000000000
(1487341902.281055) can0 091#7E8E7EEDD2B0F000
(1487341902.281056) can0 092#6FBD6F87737B56B0
(1487341902.282803) can0 217#1328133013301324
(1487341902.285055) can0 047#2000000000000000
(1487341902.286054) can0 165#10CD3C0000000000
(1487341902.286054) can0 167#727FE4100019EB00
(1487341902.286055) can0 200#00007FE27FE70000
(1487341902.286055) can0 202#047D58006072165E
(1487341902.287053) can0 05A#00000045E6E10000
(1487341902.287054) can0 204#C0007D059B000000
(1487341902.287054) can0 230#300600009D000000
(1487341902.287054) can0 082#810814008F804000
(1487341902.288053) can0 085#7F6780002A707F69
(1487341902.288054) can0 3CC#B000000000000000
(1487341902.289428) can0 078#0068000000000000
(1487341902.290428) can0 04A#0200000000000000
(1487341902.290429) can0 04B#00C0D8D8D8D8C000
(1487341902.290429) can0 04C#105FFFC000000000
(1487341902.290430) can0 091#7E877EECD9B1F000
(1487341902.291554) can0 092#6FBD6F85737A58B1
(1487341902.291555) can0 3A7#0E401A045F700000
(1487341902.292927) can0 076#3E7DC0800FFF0000
(1487341902.293936) can0 077#166307FB7FF811F5
(1487341902.293936) can0 07D#0000FA50002007E0
(1487341902.293937) can0 213#FFFF000400020440
(1487341902.293938) can0 214#000000000000FA50
(1487341902.294936) can0 216#9D83EA6C00000000
(1487341902.294937) can0 217#1328133013301328
(1487341902.294938) can0 3CA#FE8097E600000000
(1487341902.294939) can0 415#1667E47607FD07FD
(1487341902.295935) can0 41D#8000600000000000
(1487341902.295937) can0 167#727FE4100019EB00
(1487341902.295937) can0 4B0#01008000500000FA
(1487341902.295938) can0 186#142D01F9007205F9
(1487341902.296934) can0 187#E31408C800000300
(1487341902.296935) can0 202#047C60006072165E
(1487341902.296936) can0 204#C0007D059D000000
(1487341902.296937) can0 3A8#0100270D00000000
(1487341902.298060) can0 085#7F67800029807F69
(1487341902.298061) can0 42F#7D04002E65FF059A
(1487341902.300059) can0 091#7E7F7EEBE1B2F000
(1487341902.301064) can0 092#6FBA6F83737462B2
(1487341902.301065) can0 3A6#0E401A045F700000
(1487341902.302186) can0 242#02902014D3000001
(1487341902.303185) can0 217#132C1330132C1328
(1487341902.305439) can0 047#2000000000000000
(1487341902.306435) can0 165#10CD3C0000000000
(1487341902.306436) can0 167#727FE3100019EB00
(1487341902.306437) can0 200#00007FE17FE70000
(1487341902.306438) can0 202#047A68006072165F
(1487341902.307435) can0 204#C0007D059D000000
(1487341902.307436) can0 230#300600009D000000
(1487341902.307437) can0 082#820814008F804000
(1487341902.307437) can0 085#7F67800028907F69
(1487341902.309401) can0 078#0168800000000000
(1487341902.310436) can0 422#000000903802FE02
(1487341902.310438) can0 423#CE20000000000000
(1487341902.310438) can0 091#7E7C7EEAE4B3F000
(1487341902.310439) can0 092#6FB96F82737463B3
(1487341902.311434) can0 430#37000ECFC8897700
(1487341902.312934) can0 076#3E80C0800FFF0000
(1487341902.313937) can0 077#166507FA7FF80DF4
(1487341902.313938) can0 07D#0000F960001FE7DB
(1487341902.313939) can0 213#FFFF000400020440
(1487341902.313939) can0 214#000000000000F960
(1487341902.314934) can0 216#B195FE8100000000
(1487341902.314935) can0 217#1328133013281328
(1487341902.314936) can0 415#166AE87207FE07FE
(1487341902.314937) can0 41D#8000600000000000
(1487341902.315935) can0 4B0#01008000600000F9
(1487341902.315936) can0 167#727FE3100019EA00
(1487341902.315937) can0 186#142E01F9007205F9
(1487341902.315937) can0 187#E21408C800100300
(1487341902.316935) can0 202#0478700060721660
(1487341902.316936) can0 204#C0007D059E000000
(1487341902.316937) can0 261#0000000000000000
(1487341902.316938) can0 3A8#0100270D00000000
(1487341902.317935) can0 085#7F67800027A07F69
(1487341902.317936) can0 3CC#B000000000000000
(1487341902.320184) can0 091#7E827EE8DFB4F000
(1487341902.321188) can0 092#6FB86F81738256B4
(1487341902.322184) can0 3B3#4048020F10050002
(1487341902.322185) can0 188#4000000000000000
(1487341902.323185) can0 3C3#60C0000000004000
(1487341902.323186) can0 42C#8C40000009B00000
(1487341902.323187) can0 217#1328132C13241328
(1487341902.323187) can0 3CA#FE8097E600000000
(1487341902.325065) can0 047#2000000000000000
(1487341902.326060) can0 165#10CD3C0000000000
(1487341902.326061) can0 167#727FE3100019EA00
(1487341902.326061) can0 200#00007FDF7FE60000
(1487341902.327061) can0 202#0475780060721662
(1487341902.327062) can0 204#C0007D059D000000
(1487341902.327062) can0 230#300600009D000000
(1487341902.327063) can0 42F#7D04002E65FF059D
(1487341902.328059) can0 082#820814008F804000
(1487341902.328060) can0 085#7F67800026B07F69
(1487341902.329440) can0 078#0168800000000000
(1487341902.330560) can0 091#7E917EE7D0B5F000
(1487341902.330561) can0 092#6FB76F84739045B5
(1487341902.332936) can0 076#3E80C0800FFF0000
(1487341902.333935) can0 077#166507FA7FF809F3
(1487341902.333937) can0 07D#0000F870002027DC
(1487341902.333937) can0 213#FFFF000400020340
(1487341902.333938) can0 214#000000000000F870
(1487341902.334934) can0 216#C5A9119500000000
(1487341902.334935) can0 217#1324132C1320132C
(1487341902.334936) can0 415#1663EC7807FE07FE
(1487341902.334937) can0 41D#8000600000000000
(1487341902.335935) can0 4B0#01008000700000F8
(1487341902.335936) can0 167#727FE2100019EA00
(1487341902.335937) can0 202#0483000060721663
(1487341902.335938) can0 186#142F01F9007205F9
(1487341902.336934) can0 187#E21408C800100300
(1487341902.336935) can0 204#C0007D059D000000
(1487341902.336936) can0 3A8#0100271000000000
(1487341902.336937) can0 3E2#0000000080000000
(1487341902.337936) can0 085#7F67800025C07F69
(1487341902.337937) can0 455#A000000000000000
(1487341902.340062) can0 33B#0000000000000000
(1487341902.341063) can0 091#7EAC7EE6B5B6F000
(1487341902.341064) can0 092#6FBA6F8673903FB6
(1487341902.342060) can0 242#02902016D3000001
(1487341902.343060) can0 217#1324132C1320132C
(1487341902.345063) can0 047#2000000000000000
(1487341902.346060) can0 05C#001000FB201E0000
(1487341902.346061) can0 165#10CD3C0000000000
(1487341902.346062) can0 167#727FE1100019EA00
(1487341902.346063) can0 200#00007FDD7FE50000
(1487341902.347061) can0 202#0482080060721663
(1487341902.347062) can0 204#C0007D059E000000
(1487341902.347063) can0 230#300600009D000000
(1487341902.347064) can0 082#820814008F804000
(1487341902.348185) can0 085#7F67800024D07F69
(1487341902.348186) can0 3CC#B000000000000000
(1487341902.349444) can0 078#0068000000000000
(1487341902.350434) can0 091#7ECD7EE495B7F000
(1487341902.350435) can0 092#6FBD6F87738347B7
(1487341902.351559) can0 05D#8357BF5F2F000000
(1487341902.352935) can0 076#3E80C0800FFF0000
(1487341902.353935) can0 077#166607F97FF80DF5
(1487341902.353936) can0 07D#0000F780002067EA
(1487341902.353941) can0 213#FFFF000400020340
(1487341902.353942) can0 214#000000000000F780
(1487341902.354935) can0 216#D8BE25A900000000
(1487341902.354936) can0 217#1328132C13241328
(1487341902.354937) can0 3CA#FE8097E600000000
(1487341902.354938) can0 415#1660F07A07FE07FE
(1487341902.355935) can0 41D#8000600000000000
(1487341902.355936) can0 167#727FE1100019EA00
(1487341902.355937) can0 186#142F01F9007205F9
(1487341902.355938) can0 187#E21408C800100300
(1487341902.356935) can0 18A#0020180114000000
(1487341902.356936) can0 202#0482100060721662
(1487341902.356937) can0 204#C0007D059D000000
(1487341902.356938) can0 3A8#0100271000000000
(1487341902.358059) can0 4B0#01008000800000F7
(1487341902.358060) can0 085#7F67800023E07F69
(1487341902.358061) can0 42F#7D04002E65FE059D
(1487341902.360062) can0 081#0000000000000000
(1487341902.361063) can0 083#0020000000000000
(1487341902.361065) can0 091#7EE77EE47AB8F000
(1487341902.361065) can0 092#6FBB6F86737359B8
(1487341902.361066) can0 2A1#FFFFFFFF00000000
(1487341902.362060) can0 3E6#0001040880000000
(1487341902.363061) can0 217#132C133013241328
(1487341902.365063) can0 047#2000000000000000
(1487341902.366059) can0 165#10CD3C0000000000
(1487341902.366060) can0 167#727FE1100019E900
(1487341902.367059) can0 178#000002010E73CE73
(1487341902.367061) can0 200#00007FDB7FE50000
(1487341902.367061) can0 202#0481180060721662
(1487341902.368060) can0 082#810814008F804000
(1487341902.368061) can0 085#7F67800022F07F69
(1487341902.368062) can0 204#C0007D059E000000
(1487341902.368063) can0 230#300600009D000000
(1487341902.369067) can0 261#0000000000000000
(1487341902.370059) can0 078#0569800000000000
(1487341902.371060) can0 091#7EF47EE66AB9F000
(1487341902.371061) can0 092#6FB56F85736F63B9
(1487341902.371061) can0 42C#8C40000009B00000
(1487341902.372934) can0 076#3E80C0800FFF0000
(1487341902.373934) can0 077#166607F87FF80DF5
(1487341902.373935) can0 07D#0000F690001FE7FC
(1487341902.373936) can0 213#FFFF000400020240
(1487341902.373937) can0 214#000000000000F690
(1487341902.374936) can0 216#ECD239BB00000000
(1487341902.374937) can0 217#132C133013281324
(1487341902.374938) can0 415#1668F47107FF07FF
(1487341902.374939) can0 416#5900F50001000000
(1487341902.375935) can0 41D#8000600000000000
(1487341902.375936) can0 167#727FE0100019E900
(1487341902.375937) can0 186#143001F9007205F9
(1487341902.375937) can0 187#E21408C800100300
(1487341902.376936) can0 202#0481200060721661
(1487341902.376937) can0 204#C0007D059E000000
(1487341902.376938) can0 3A8#0100271000000000
(1487341902.376939) can0 4B0#01008000900000F6
(1487341902.377937) can0 085#7F67800031007F69
(1487341902.377938) can0 3CC#B000000000000000
(1487341902.380059) can0 091#7EF57EE767BAF000
(1487341902.381082) can0 092#6FAE6F8673785FBA
(1487341902.382060) can0 242#02902016D2000001
(1487341902.383186) can0 217#132C133013281324
(1487341902.383187) can0 3CA#FE8097E600000000
(1487341902.385063) can0 047#2000000000000000
(1487341902.386024) can0 165#10CD3C0000000000
(1487341902.386025) can0 167#727FE0100019E900
(1487341902.386026) can0 200#00007FDA7FE50000
(1487341902.387062) can0 05A#00000045EC810000
(1487341902.387063) can0 202#047F280060721662
(1487341902.387064) can0 204#C0007D059D000000
(1487341902.387065) can0 230#300600009D000000
(1487341902.388060) can0 082#810814008F804000
(1487341902.388061) can0 085#7F67800030107F69
(1487341902.388067) can0 42F#7D04002E65FD059E
(1487341902.389437) can0 078#0168800000000000
(1487341902.390434) can0 04A#0200000000000000
(1487341902.390435) can0 04B#00C0D8D8D8D8C000
(1487341902.391435) can0 04C#105FFFC000000000
(1487341902.391436) can0 091#7EF17EE76ABBF000
(1487341902.391437) can0 092#6FA76F88737E5DBB
(1487341902.392937) can0 076#3E80C0800FFF0000
(1487341902.393935) can0 077#166607F97FF7FDF5
(1487341902.393937) can0 07D#0000F5A0001FF7FF
(1487341902.393937) can0 213#FFFF000400020240
(1487341902.393938) can0 214#000000000000F5A0
(1487341902.394935) can0 216#00E44DCF00000000
(1487341902.394936) can0 217#132C1330132C1324
(1487341902.394937) can0 415#166AF86E07FF07FF
(1487341902.394938) can0 41D#8000600000000000
(1487341902.395936) can0 4B0#01008000A00000F5
(1487341902.395937) can0 167#727FE0100019E900
(1487341902.395938) can0 186#143001F9007205F9
(1487341902.395939) can0 187#E21408C800100300
(1487341902.397064) can0 202#047D300060721663
(1487341902.397065) can0 204#C0007D059B000000
(1487341902.397066) can0 3A8#0100271000000000
(1487341902.398060) can0 085#7F6780002F207F69
(1487341902.400060) can0 091#7EEB7EE670BCF000
(1487341902.401064) can0 092#6FA56F89737B60BC
(1487341902.401065) can0 33B#0000000000000000
(1487341902.402935) can0 217#1328133013301328
(1487341902.405063) can0 047#2000000000000000
(1487341902.406061) can0 165#10CD3C0000000000
(1487341902.406062) can0 167#727FE0100019E800
(1487341902.406063) can0 200#00007FD87FE40000
(1487341902.406064) can0 202#047B380060721664
(1487341902.407059) can0 204#C0007D059B000000
(1487341902.407061) can0 230#300600009D000000
(1487341902.407062) can0 082#810814008F804000
(1487341902.408060) can0 085#7F6780002E307F69
(1487341902.408061) can0 3CC#B000000000000000
(1487341902.409064) can0 59E#9E00FFFFFFFFFFFF
(1487341902.410060) can0 078#0268000000000000
(1487341902.410061) can0 422#000000903802FE02
(1487341902.410062) can0 091#7EE67EE674BDF000
(1487341902.411059) can0 092#6FA86F8C737262BD
(1487341902.411060) can0 423#CE20000000000000
(1487341902.411062) can0 430#37000ECFC8897700
(1487341902.411063) can0 43A#0000020000000000
(1487341902.412935) can0 076#3E80C0800FFF0000
(1487341902.413936) can0 077#166707F97FF7F9F6
(1487341902.413937) can0 07D#0000F4B0002007FD
(1487341902.413938) can0 213#FFFF000400020240
(1487341902.413939) can0 214#000000000000F4B0
(1487341902.414934) can0 216#14F860E300000000
(1487341902.414936) can0 217#132C133413341324
(1487341902.414936) can0 3CA#FE80B7E700000000
(1487341902.414937) can0 415#1668FC6F07FF07FF
(1487341902.415936) can0 186#143001F9007205F9
(1487341902.415938) can0 167#727FE0100019E800
(1487341902.415939) can0 187#E11408C800200300
(1487341902.415940) can0 41D#8000600000000000
(1487341902.416935) can0 4B0#01008000B00000F4
(1487341902.416936) can0 202#047A400060721664
(1487341902.416937) can0 204#C0007D059A000000
(1487341902.416938) can0 261#0000000000000000
(1487341902.417936) can0 3A8#0100271000000000
(1487341902.417938) can0 085#7F6780002D407F69
(1487341902.417939) can0 42F#7D04002E65FD059B
(1487341902.420060) can0 091#7EE07EE778BEF000
(1487341902.421026) can0 092#6FAD6F8C736767BE
(1487341902.422060) can0 242#02902015D2000001
(1487341902.422061) can0 40A#C000000805E71B00
(1487341902.422062) can0 42C#8C40000009B00000
(1487341902.423061) can0 217#132C13341338132C
(1487341902.425189) can0 047#2000000000000000
(1487341902.426313) can0 165#10CD3C0000000000
(1487341902.426314) can0 167#727FDF100019E800
(1487341902.426315) can0 200#00007FD87FE30000
(1487341902.426316) can0 202#0478480060721665
(1487341902.427309) can0 204#C0007D059A000000
(1487341902.427311) can0 230#300600009D000000
(1487341902.427311) can0 265#2001010410000000
(1487341902.427312) can0 082#810814008F804000
(1487341902.428310) can0 085#7F6780002C507F69
(1487341902.428311) can0 453#3257364570646166
(1487341902.429438) can0 078#0168800000000000
(1487341902.430435) can0 091#7EDC7EE979BFF000
(1487341902.430436) can0 092#6FB36F8773626ABF
(1487341902.432935) can0 076#3E80C0800FFF0000
(1487341902.433935) can0 077#166907F97FF7FDF7
(1487341902.433936) can0 07D#0000F3C0001FA7FA
(1487341902.433937) can0 213#FFFF000400020340
(1487341902.433938) can0 214#000000000000F3C0
(1487341902.434935) can0 216#260C74F700000000
(1487341902.434937) can0 217#132C13301338132C
(1487341902.434938) can0 415#166BC07B08000800
(1487341902.434939) can0 41D#8000600000000000
(1487341902.435935) can0 186#143001F9007205F9
(1487341902.435936) can0 187#E11408C800200300
(1487341902.435937) can0 167#727FDF100019E800
(1487341902.435937) can0 202#0477500060721665
(1487341902.436936) can0 3A8#0100271000000000
(1487341902.436937) can0 204#C0007D0599000000
(1487341902.436938) can0 4B0#01008000C00000F3
(1487341902.436940) can0 455#A000000000000000
(1487341902.437935) can0 085#7F6780002B607F69
(1487341902.437936) can0 3CC#B000000000000000
(1487341902.440186) can0 091#7EE17EEA72C0F000
(1487341902.441188) can0 092#6FB76F83736962C0
(1487341902.442935) can0 217#1328133413341330
(1487341902.443934) can0 3CA#FE80B7E700000000
(1487341902.445033) can0 047#2000000000000000
(1487341902.446059) can0 05C#00B000F1201E0000
(1487341902.446061) can0 165#10CD3C0000000000
(1487341902.446061) can0 167#727FDF100019E800
(1487341902.447185) can0 200#00007FD87FE30000
(1487341902.447186) can0 202#0475580060721666
(1487341902.447187) can0 204#C0007D059B000000
(1487341902.447187) can0 230#300600009D000000
(1487341902.448184) can0 082#800814008F804000
(1487341902.448186) can0 085#7F6780002A707F69
(1487341902.448187) can0 42F#7D04002E65FD059A
(1487341902.449439) can0 078#0168800000000000
(1487341902.450436) can0 091#7EE97EEA69C1F000
(1487341902.450437) can0 092#6FB86F80737359C1
(1487341902.451435) can0 05D#8357A75F35000000
(1487341902.452935) can0 076#3E80C0800FFF0000
(1487341902.453935) can0 077#166B07FA7FF809F4
(1487341902.453937) can0 07D#0000F2D0001FB7FA
(1487341902.453937) can0 213#FFFF000400020340
(1487341902.453939) can0 214#000000000000F2D0
(1487341902.454935) can0 216#3A20880A00000000
(1487341902.454936) can0 217#132C133413301330
(1487341902.454937) can0 186#142A01F9007205F9
(1487341902.454938) can0 187#E11408C800200300
(1487341902.455936) can0 18A#0020180114000000
(1487341902.455937) can0 167#727FDE100019E700
(1487341902.455938) can0 415#1668C47D08000800
(1487341902.455939) can0 202#0474600060721666
(1487341902.456934) can0 204#C0007D0599000000
(1487341902.456935) can0 3A8#0100271000000000
(1487341902.456936) can0 41D#8000600000000000
(1487341902.456937) can0 4B0#01008000D00000F2
(1487341902.458062) can0 085#7F67800029807F69
(1487341902.460060) can0 083#0020000000000000
(1487341902.461064) can0 091#7EEE7EE964C2F000
(1487341902.461065) can0 092#6FB26F7F73834FC2
(1487341902.461066) can0 2A1#FFFFFFFF00000000
(1487341902.461072) can0 33B#0000000000000000
(1487341902.462061) can0 242#02902014D2000001
(1487341902.463184) can0 217#13281330132C1330
(1487341902.465063) can0 047#2000000000000000
(1487341902.466061) can0 165#10CD3C0000000000
(1487341902.466062) can0 167#727FDE100019E700
(1487341902.467185) can0 178#000001FF0E73CE73
(1487341902.467186) can0 200#00007FD87FE20000
(1487341902.467187) can0 202#0473680060721666
(1487341902.468185) can0 082#800814008F804000
(1487341902.468186) can0 085#7F67800028907F69
(1487341902.468187) can0 204#C0007D059B000000
(1487341902.468187) can0 230#300600009D000000
(1487341902.469188) can0 261#0000000000000000
(1487341902.469190) can0 3CC#B000000000000000
(1487341902.470185) can0 078#0469000000000000
(1487341902.470186) can0 091#7EF17EE663C3F000
(1487341902.471185) can0 092#6FB16F81739739C3
(1487341902.472184) can0 42C#8C40000009B00000
(1487341902.473190) can0 076#3E80C0800FFF0000
(1487341902.473191) can0 077#166C07FA7FF801F3
(1487341902.474185) can0 07D#0000F1E0002027FE
(1487341902.474186) can0 213#FFFF000400020340
(1487341902.474187) can0 214#000000000000F1E0
(1487341902.474188) can0 216#4E339C1E00000000
(1487341902.475188) can0 186#142A01F9007205F9
(1487341902.475189) can0 187#E11408C800200300
(1487341902.475191) can0 217#1328132C13281330
(1487341902.475192) can0 3CA#FE80B7E700000000
(1487341902.476184) can0 167#727FDE100019E700
(1487341902.476185) can0 415#1669C87B08000800
(1487341902.476186) can0 416#5A00F40001000000
(1487341902.476187) can0 202#0472700060721666
(1487341902.477313) can0 204#C0007D059B000000
(1487341902.477314) can0 350#0000000000000000
(1487341902.477315) can0 3A8#0100271000000000
(1487341902.477316) can0 41D#8000600000000000
(1487341902.477317) can0 085#7F67800027A07F69
(1487341902.478310) can0 42F#7D04002E65FC059B
(1487341902.478311) can0 3E0#0000000080000000
(1487341902.478312) can0 4B0#01008000E00000F1
(1487341902.480060) can0 091#7EF97EE15FC4F000
(1487341902.481064) can0 092#6FB56F83739435C4
(1487341902.482938) can0 217#132413281324132C
(1487341902.485063) can0 047#2000000000000000
(1487341902.486060) can0 165#10CD3C0000000000
(1487341902.486061) can0 167#727FDE100019E700
(1487341902.486062) can0 200#00007FD87FE20000
(1487341902.486062) can0 202#0471780060721666
(1487341902.487060) can0 05A#00000045F2210000
(1487341902.487062) can0 204#C0007D059B000000
(1487341902.487062) can0 230#300600009D000000
(1487341902.487063) can0 082#830814008F804000
(1487341902.488188) can0 085#7F68800024B07F6A
(1487341902.489314) can0 078#0168800000000000
(1487341902.490309) can0 04A#0200000000000000
(1487341902.490310) can0 04B#00C0D8D8D8D8C000
(1487341902.491309) can0 04C#105FFFC000000000
(1487341902.491310) can0 091#7F087EDF50C5F000
(1487341902.491311) can0 092#6FB36F8273705BC5
(1487341902.491312) can0 3A7#0E401A045F700000
(1487341902.492935) can0 076#3E80C0800FFF0000
(1487341902.493934) can0 077#166C07F87FF805F4
(1487341902.493935) can0 07D#0000F0F000207800
(1487341902.493936) can0 213#FFFF000400020240
(1487341902.493936) can0 214#000000000000F0F0
(1487341902.494934) can0 216#6247AE3200000000
(1487341902.494936) can0 217#132813281328132C
(1487341902.494937) can0 186#142601F9007205F9
(1487341902.494937) can0 187#E11408C800200300
(1487341902.495934) can0 415#1660CC8308000800
(1487341902.495935) can0 167#727FDD100019E700
(1487341902.495936) can0 41D#8000600000000000
(1487341902.495941) can0 4B0#01008000F00000F0
(1487341902.497067) can0 202#047F000060721667
(1487341902.497068) can0 204#C0007D059B000000
(1487341902.497069) can0 3A8#0100271000000000
(1487341902.498060) can0 085#7F68800024C07F69
(1487341902.498062) can0 3CC#B000000000000000
(1487341902.500060) can0 091#7F1C7EE03AC6F000
(1487341902.501189) can0 092#6FAE6F81734987C6
(1487341902.501190) can0 3A6#0E401A045F700000
(1487341902.502187) can0 242#02902015D3000001
(1487341902.503184) can0 217#132C1328132C1328
(1487341902.503185) can0 3CA#FE8017F500000000
(1487341902.505064) can0 047#2000000000000000
(1487341902.506059) can0 165#10CD3C0000000000
(1487341902.506060) can0 167#727FDD100019E700
(1487341902.506061) can0 200#00007FD87FE10000
(1487341902.507061) can0 202#0480080060721665
(1487341902.507062) can0 204#C0007D059C000000
(1487341902.507063) can0 230#300600009D000000
(1487341902.507063) can0 42F#7D04002E65FC059B
(1487341902.508187) can0 082#820814008F804000
(1487341902.508188) can0 085#7F68800023D07F69
(1487341902.509261) can0 078#0168800000000000
(1487341902.510435) can0 422#000000903802FE02
(1487341902.510436) can0 091#7F317EE420C7F000
(1487341902.510437) can0 423#CE20000000000000
(1487341902.510438) can0 092#6FAD6F7F733F93C7
(1487341902.511435) can0 430#3F000ECFE8897700
(1487341902.511436) can0 431#057B00A609800002
(1487341902.512934) can0 076#3E80C0800FFF0000
(1487341902.513934) can0 077#166B07F77FF7FDF3
(1487341902.513935) can0 07D#0000FF00001F280B
(1487341902.513936) can0 213#FFFF000400020240
(1487341902.513937) can0 214#000000000000FF00
(1487341902.514935) can0 216#755BC24600000000
(1487341902.514936) can0 186#142401F9007205F9
(1487341902.514937) can0 187#E01408C800300300
(1487341902.514938) can0 217#13281328132C1328
(1487341902.515934) can0 415#1663D07F08000800
(1487341902.515935) can0 167#727FDD100019E600
(1487341902.515936) can0 41D#8000600000000000
(1487341902.515937) can0 202#0480100060721664
(1487341902.517040) can0 204#C0007D059B000000
(1487341902.517042) can0 4B0#01008000000000FF
(1487341902.517043) can0 261#0000000000000000
(1487341902.517045) can0 3A8#0100271000000000
(1487341902.518061) can0 085#7F68800022E07F69
(1487341902.520060) can0 091#7F407EE70DC8F000
(1487341902.521035) can0 092#6FAE6F7E734D84C8
(1487341902.521037) can0 33B#0000000000000000
(1487341902.522060) can0 42C#8C40000009B00000
(1487341902.523059) can0 217#1330132813301328
(1487341902.525044) can0 047#2000000000000000
(1487341902.526069) can0 165#10CD3C0000000000
(1487341902.526070) can0 167#727FDC100019E600
(1487341902.526071) can0 200#00007FD87FE10000
(1487341902.526071) can0 202#047F180060721664
(1487341902.527070) can0 204#C0007D059C000000
(1487341902.527071) can0 230#300600009D000000
(1487341902.527072) can0 082#810814008F804000
(1487341902.528194) can0 085#7F68800021F07F69
(1487341902.528195) can0 3CC#B000000000000000
(1487341902.529319) can0 078#0068000000000000
(1487341902.530319) can0 091#7F487EEA01C9F000
(1487341902.530320) can0 092#6FAB6F7E735E75C9
(1487341902.532945) can0 076#3E80C0800FFF0000
(1487341902.533944) can0 077#166B07F97FF7FDF3
(1487341902.533944) can0 07D#0000FE10001F3817
(1487341902.533945) can0 213#FFFF000400020140
(1487341902.533946) can0 214#000000000000FE10
(1487341902.534943) can0 186#142501F9007205F9
(1487341902.534944) can0 187#E01408C800300300
(1487341902.534945) can0 216#896FD65900000000
(1487341902.534950) can0 217#132C132C13301328
(1487341902.535944) can0 3A8#0100271000000000
(1487341902.535945) can0 167#727FDC100019E600
(1487341902.535945) can0 3CA#FE8017F500000000
(1487341902.535946) can0 202#047F200060721663
(1487341902.536946) can0 204#C0007D059C000000
(1487341902.536948) can0 415#1666D47B08000800
(1487341902.536948) can0 41D#8000600000000000
(1487341902.536949) can0 42F#7D04002E65FB059C
(1487341902.537944) can0 4B0#01008000100000FE
(1487341902.537945) can0 085#7F68800030007F69
(1487341902.537945) can0 455#A000000000000000
(1487341902.540071) can0 091#7F517EEAF7CAF000
(1487341902.541077) can0 092#6FA96F7D73696CCA
(1487341902.542069) can0 242#02902016D3000001
(1487341902.543045) can0 217#132C133013341328
(1487341902.545447) can0 047#2000000000000000
(1487341902.546444) can0 05C#005000F7201E0000
(1487341902.546446) can0 165#10CD3C0000000000
(1487341902.546446) can0 167#727FDC100019E600
(1487341902.546447) can0 200#00007FD87FE00000
(1487341902.547445) can0 202#047E280060721663
(1487341902.547446) can0 204#C0007D059E000000
(1487341902.547446) can0 082#800814008F804000
(1487341902.547447) can0 085#7F6880002F107F69
(1487341902.548444) can0 230#300600009D000000
(1487341902.549445) can0 078#0168800000000000
(1487341902.550444) can0 091#7F5C7EEAEBCBF000
(1487341902.550445) can0 092#6FA56F7C736A6FCB
(1487341902.551445) can0 05D#83578F5E3C000000
(1487341902.552944) can0 076#3E80C0800FFF0000
(1487341902.553945) can0 077#166B07FA7FF7FDF2
(1487341902.553946) can0 07D#0000FD20001FB81C
(1487341902.553947) can0 186#142501F9007205F9
(1487341902.553947) can0 187#E01408C800300300
(1487341902.554944) can0 18A#0020180114000000
(1487341902.554945) can0 213#FFFF000400020140
(1487341902.554946) can0 214#000000000000FD20
(1487341902.554947) can0 216#9D82EA6D00000000
(1487341902.555944) can0 217#132C132C1334132C
(1487341902.555945) can0 3A8#0100271000000000
(1487341902.555946) can0 167#727FDB100019E600
(1487341902.555947) can0 202#047C300060721664
(1487341902.556944) can0 204#C0007D059D000000
(1487341902.556945) can0 415#1667D87908000800
(1487341902.556946) can0 41D#8000600000000000
(1487341902.556947) can0 4B0#01008000200000FD
(1487341902.558071) can0 085#7F6880002E207F69
(1487341902.558072) can0 3CC#B000000000000000
(1487341902.560195) can0 091#7F607EE9E7CCF000
(1487341902.561197) can0 083#0020000000000000
(1487341902.561198) can0 092#6FA26F7A735D80CC
(1487341902.561199) can0 2A1#FFFFFFFF00000000
(1487341902.562945) can0 217#132813301334132C
(1487341902.563944) can0 3CA#FE8017F500000000
(1487341902.565072) can0 047#2000000000000000
(1487341902.566071) can0 165#10CD3C0000000000
(1487341902.566073) can0 167#727FDB100019E600
(1487341902.567069) can0 178#000002010E73CE73
(1487341902.567070) can0 200#00007FD87FE00000
(1487341902.568070) can0 082#810814008F804000
(1487341902.568071) can0 085#7F6880002D307F69
(1487341902.568072) can0 202#047B380060721664
(1487341902.568073) can0 204#C0007D059D000000
(1487341902.569072) can0 230#300600009D000000
(1487341902.569074) can0 261#0000000000000000
(1487341902.570196) can0 42F#7D04002E65FB059C
(1487341902.570197) can0 078#0569800000000000
(1487341902.570198) can0 091#7F597EE8EECDF000
(1487341902.571194) can0 092#6FA26F7C735189CD
(1487341902.572194) can0 42C#8C40000009B00000
(1487341902.573198) can0 076#3E80C0800FFF0000
(1487341902.574195) can0 077#166C07FA7FF7F5F1
(1487341902.574201) can0 07D#0000FC30001F8821
(1487341902.574202) can0 186#142601F9007205F9
(1487341902.574203) can0 187#E01408C800300300
(1487341902.574204) can0 213#FFFF000400020140
(1487341902.575194) can0 214#000000000000FC30
(1487341902.575196) can0 216#B196FD8100000000
(1487341902.575196) can0 217#132813301330132C
(1487341902.575197) can0 415#1666DC7908000800
(1487341902.576195) can0 167#727FDB100019E500
(1487341902.576197) can0 202#047A400060721664
(1487341902.576197) can0 204#C0007D059D000000
(1487341902.576198) can0 416#5B00F30001000000
(1487341902.577199) can0 41D#8000600000000000
(1487341902.577200) can0 3A8#0100271000000000
(1487341902.577201) can0 4B0#01008000300000FC
(1487341902.577202) can0 085#7F6880002C407F69
(1487341902.580069) can0 091#7F4F7EE8F7CEF000
(1487341902.581072) can0 092#6FA66F7E73547FCE
(1487341902.581073) can0 33B#0000000000000000
(1487341902.582070) can0 242#02902017D2000001
(1487341902.583069) can0 217#13241330132C1330
(1487341902.585074) can0 047#2000000000000000
(1487341902.586070) can0 165#10CD3C0000000000
(1487341902.586071) can0 167#727FDB100019E500
(1487341902.586072) can0 200#00007FD87FDF0000
(1487341902.586073) can0 202#0479480060721664
(1487341902.587070) can0 05A#00000045E8C10000
(1487341902.587072) can0 204#C0007D059C000000
(1487341902.587072) can0 230#300600009D000000
(1487341902.587073) can0 082#810814008F804000
(1487341902.588195) can0 085#7F6880002B507F69
(1487341902.588196) can0 3CC#B000000000000000
(1487341902.589322) can0 078#0068000000000000
(1487341902.590319) can0 04A#0200000000000000
(1487341902.590320) can0 04B#00C0D8D8D8D8C000
(1487341902.590321) can0 04C#105FFFC000000000
(1487341902.591319) can0 091#7F457EE9FFCFF000
(1487341902.591320) can0 092#6FAC6F7F73616ACF
(1487341902.592945) can0 076#3E80C0800FFF0000
(1487341902.593944) can0 077#166B07FA7FF7F9F3
(1487341902.593944) can0 07D#0000FB40001F581B
(1487341902.593945) can0 186#142601F9007205F9
(1487341902.593946) can0 187#E01408C800300300
(1487341902.594945) can0 213#FFFF000400020140
(1487341902.594946) can0 214#000000000000FB40
(1487341902.594946) can0 216#C4AA119500000000
(1487341902.594947) can0 217#1324132C13241330
(1487341902.595944) can0 3CA#FE8017F500000000
(1487341902.595945) can0 167#727FDB100019E500
(1487341902.595945) can0 415#1664E07A08000800
(1487341902.595946) can0 202#0478500060721664
(1487341902.597072) can0 204#C0007D059D000000
(1487341902.597072) can0 41D#8000600000000000
(1487341902.597073) can0 4B0#01008000400000FB
(1487341902.597074) can0 3A8#0100271000000000
(1487341902.598069) can0 085#7F6880002A607F69
(1487341902.598070) can0 42F#7D04002E65FB059D
(1487341902.599694) can0 091#7F3E7EE905D0F000
(1487341902.600694) can0 092#6FB46F80736958D0
(1487341902.602943) can0 217#132813301324132C
(1487341902.605041) can0 047#2000000000000000
(1487341902.606043) can0 165#10CD3C0000000000
(1487341902.606044) can0 167#727FDB100019E500
(1487341902.606044) can0 200#00007FD87FDF0000
(1487341902.606045) can0 202#0477580060721664
(1487341902.607069) can0 204#C0007D059C000000
(1487341902.607070) can0 230#300600009D000000
(1487341902.607071) can0 082#820814008F804000
(1487341902.608071) can0 085#7F68800029707F69
(1487341902.609197) can0 078#0168800000000000
(1487341902.610194) can0 422#000000903802FE02
(1487341902.610196) can0 423#CE20000000000000
(1487341902.610196) can0 430#37000ECFC8897700
(1487341902.610202) can0 091#7F3B7EEB05D1F000
(1487341902.611320) can0 092#6FBC6F7E736357D1
(1487341902.612944) can0 076#3E80C0800FFF0000
(1487341902.613944) can0 077#166C07FA7FF805F3
(1487341902.613945) can0 07D#0000FA50001FB816
(1487341902.613946) can0 186#142401F9007205F9
(1487341902.613947) can0 187#DF1408C800400300
(1487341902.614944) can0 213#FFFF000400020040
(1487341902.614945) can0 214#000000000000FA50
(1487341902.614946) can0 216#D8BE25A700000000
(1487341902.614946) can0 217#1324132C13201328
(1487341902.615946) can0 415#1665E47808000800
(1487341902.615947) can0 167#727FDA100019E500
(1487341902.615948) can0 202#0476600060721664
(1487341902.615949) can0 204#C0007D059C000000
(1487341902.616944) can0 41D#8000600000000000
(1487341902.616946) can0 4B0#01008000500000FA
(1487341902.616946) can0 261#0000000000000000
(1487341902.616947) can0 3A8#0100271000000000
(1487341902.617945) can0 085#7F68800028807F69
(1487341902.617946) can0 3CC#B000000000000000
(1487341902.620196) can0 091#7F397EEE03D2F000
(1487341902.621197) can0 092#6FB96F7D735A63D2
(1487341902.622194) can0 242#02902014D2000001
(1487341902.622196) can0 40A#C100334641365030
(1487341902.622197) can0 42C#8C40000009B00000
(1487341902.623196) can0 217#132C132C13241324
(1487341902.623198) can0 3CA#FE7FB7FC00000000
(1487341902.625075) can0 047#2000000000000000
(1487341902.626071) can0 165#10CD3C0000000000
(1487341902.626072) can0 167#727FDA100019E500
(1487341902.626073) can0 200#00007FD87FDE0000
(1487341902.627069) can0 202#0475680060721664
(1487341902.627070) can0 204#C0007D059C000000
(1487341902.627071) can0 230#300600009D000000
(1487341902.627072) can0 42F#7D04002E65FA059C
(1487341902.628194) can0 082#810814008F804000
(1487341902.628195) can0 085#7F68800027907F69
(1487341902.629197) can0 078#0168800000000000
(1487341902.630194) can0 091#7F367EF102D3F000
(1487341902.631194) can0 092#6FAF6F7C736463D3
(1487341902.632944) can0 076#3E80C0800FFF0000
(1487341902.633898) can0 077#166A07FC7FF809F2
(1487341902.633899) can0 07D#0000F960001F7814
(1487341902.633900) can0 186#141F01F9007205F9
(1487341902.633900) can0 187#DF1408C800400300
(1487341902.634944) can0 213#FFFF00040001FF40
(1487341902.634945) can0 214#000000000000F960
(1487341902.634946) can0 216#ECD039BC00000000
(1487341902.634946) can0 217#132C133013241324
(1487341902.635899) can0 415#1666E87608000800
(1487341902.635901) can0 167#727FDA100019E400
(1487341902.635902) can0 202#0475700060721663
(1487341902.635902) can0 204#C0007D059B000000
(1487341902.636890) can0 41D#8000600000000000
(1487341902.636891) can0 4B0#01008000600000F9
(1487341902.636891) can0 3A8#0100271000000000
(1487341902.637882) can0 085#7F68800026A07F69
(1487341902.637883) can0 455#A000000000000000
(1487341902.640138) can0 091#7F307EF206D4F000
(1487341902.641151) can0 092#6FA76F7D73834AD4
(1487341902.641152) can0 33B#0000000000000000
(1487341902.642934) can0 217#132C132C13241328
(1487341902.645063) can0 047#2000000000000000
(1487341902.646060) can0 05C#00F000ED201E0000
(1487341902.646062) can0 165#10CD3C0000000000
(1487341902.646062) can0 167#727FD9100019E400
(1487341902.646063) can0 200#00007FD87FDE0000
(1487341902.647060) can0 202#0473780060721664
(1487341902.647061) can0 204#C0007D0599000000
(1487341902.647062) can0 230#300600009D000000
(1487341902.647062) can0 082#810814008F804000
(1487341902.648059) can0 085#7F68800025B07F69
(1487341902.648065) can0 3CC#B000000000000000
(1487341902.649314) can0 078#0068000000000000
(1487341902.650309) can0 091#7F2E7EF108D5F000
(1487341902.650310) can0 092#6FA76F83739333D5
(1487341902.651309) can0 05D#8357B75F31000000
(1487341902.652559) can0 186#141C01F9007205F9
(1487341902.653527) can0 187#DF1408C800400300
(1487341902.653528) can0 076#3E80C0800FFF0000
(1487341902.653530) can0 077#166807FD7FF7F9F2
(1487341902.653531) can0 07D#0000F87000202812
(1487341902.654560) can0 18A#0020180114000000
(1487341902.654562) can0 213#FFFF00040001FF40
(1487341902.654563) can0 214#000000000000F870
(1487341902.654565) can0 216#00E44CD000000000
(1487341902.655562) can0 217#132C132C1330132C
(1487341902.655564) can0 3CA#FE7FB7FC00000000
(1487341902.655565) can0 415#1667EC7408000800
(1487341902.655566) can0 167#727FD9100019E400
(1487341902.656560) can0 41D#8000600000000000
(1487341902.656561) can0 202#0482000060721664
(1487341902.656562) can0 204#C0007D0599000000
(1487341902.656563) can0 4B0#01008000700000F8
(1487341902.657564) can0 3A8#0100271000000000
(1487341902.657565) can0 085#7F68800024C07F69
(1487341902.658560) can0 42F#7D04002E65FA059B
(1487341902.660186) can0 083#0020000000000000
(1487341902.661189) can0 091#7F317EEE07D6F000
(1487341902.661190) can0 092#6FAF6F88737E3AD6
(1487341902.661191) can0 2A1#FFFFFFFF00000000
(1487341902.662186) can0 242#02902012D2000001
(1487341902.663185) can0 217#132C133013341330
(1487341902.665189) can0 047#2000000000000000
(1487341902.666310) can0 165#10CD3C0000000000
(1487341902.666311) can0 167#727FD9100019E400
(1487341902.667310) can0 178#000001FD0E73CE73
(1487341902.667311) can0 200#00007FD87FDD0000
(1487341902.667312) can0 082#820814008F804000
(1487341902.668310) can0 085#7F68800023D07F69
(1487341902.668311) can0 202#0481080060721664
(1487341902.668313) can0 204#C0007D0597000000
(1487341902.668313) can0 230#300600009D000000
(1487341902.669313) can0 261#0000000000000000
(1487341902.670311) can0 078#0569800000000000
(1487341902.670313) can0 091#7F387EEA03D7F000
(1487341902.671313) can0 092#6FB86F8773525DD7
(1487341902.671314) can0 42C#8C40000009B00000
(1487341902.672310) can0 186#141C01F9007205F9
(1487341902.673314) can0 187#DF1408C800400300
(1487341902.673315) can0 076#3E80C0800FFF0000
(1487341902.673316) can0 077#166907FC7FF7FDF5
(1487341902.674434) can0 07D#0000F78000201812
(1487341902.674436) can0 213#FFFF000400020040
(1487341902.674437) can0 214#000000000000F780
(1487341902.674438) can0 216#13F960E400000000
(1487341902.674438) can0 217#132C1330133C1334
(1487341902.675434) can0 415#1669F07108000800
(1487341902.675435) can0 416#5C00F20001000000
(1487341902.675436) can0 41D#8000600000000000
(1487341902.675438) can0 3A8#0100271000000000
(1487341902.676435) can0 167#727FD9100019E400
(1487341902.676436) can0 202#0480100060721664
(1487341902.676437) can0 204#C0007D0597000000
(1487341902.676438) can0 4B0#01008000800000F7
(1487341902.677439) can0 085#7F68800022E07F69
(1487341902.677440) can0 3CC#B000000000000000
(1487341902.680060) can0 091#7F477EEAF3D8F000
(1487341902.681189) can0 092#6FB96F83733081D8
(1487341902.682935) can0 217#132C133013381334
(1487341902.683936) can0 3CA#FE7FB7FC00000000
(1487341902.685068) can0 047#2000000000000000
(1487341902.686186) can0 165#10CD3C0000000000
(1487341902.686187) can0 167#727FD9100019E400
(1487341902.686188) can0 200#00007FD87FDD0000
(1487341902.687185) can0 05A#00000045EE610000
(1487341902.687187) can0 202#047E180060721665
(1487341902.687187) can0 204#C0007D0596000000
(1487341902.687188) can0 230#300600009D000000
(1487341902.688185) can0 082#830814008F804000
(1487341902.688186) can0 085#7F68800021F07F69
(1487341902.688187) can0 42F#7D04002E65FA0597
(1487341902.689188) can0 078#0168800000000000
(1487341902.690184) can0 04A#0200000000000000
(1487341902.690186) can0 04B#00C0D8D8D8D8C000
(1487341902.690187) can0 04C#105FFFC000000000
(1487341902.691187) can0 091#7F5D7EEBDBD9F000
(1487341902.691188) can0 092#6FB56F81731E98D9
(1487341902.691189) can0 3A7#0E401A045F700000
(1487341902.692561) can0 186#141A01F9007205F9
(1487341902.693564) can0 187#DF1408C800400300
(1487341902.693565) can0 076#3E80C0800FFF0000
(1487341902.693566) can0 077#166B07FA7FF809F4
(1487341902.693567) can0 07D#0000F690001EB819
(1487341902.694560) can0 213#FFFF000400020040
(1487341902.694561) can0 214#000000000000F690
(1487341902.694562) can0 216#270D74F600000000
(1487341902.694563) can0 217#1328133013381334
(1487341902.695562) can0 415#1667F47208000800
(1487341902.695563) can0 41D#8000600000000000
(1487341902.695564) can0 4B0#01008000900000F6
(1487341902.695564) can0 167#727FD9100019E300
(1487341902.696559) can0 202#047D200060721665
(1487341902.696561) can0 204#C0007D0595000000
(1487341902.696562) can0 3A8#0100271000000000
(1487341902.697563) can0 085#7F68800030007F69
(1487341902.700059) can0 091#7F6C7EEDC9DAF000
(1487341902.701064) can0 092#6FB06F8073219ADA
(1487341902.701065) can0 33B#0000000000000000
(1487341902.701066) can0 3A6#0E401A045F700000
(1487341902.702060) can0 242#02902013D2000001
(1487341902.703060) can0 217#1324133013341330
(1487341902.705189) can0 047#2000000000000000
(1487341902.706184) can0 165#10CD3C0000000000
(1487341902.706185) can0 167#727FD8100019E300
(1487341902.706186) can0 200#00007FD87FDC0000
(1487341902.706187) can0 202#047C280060721665
(1487341902.707185) can0 204#C0007D0594000000
(1487341902.707186) can0 230#300600009D000000
(1487341902.707187) can0 082#820814008F804000
(1487341902.708184) can0 085#7F6880002F107F69
(1487341902.708186) can0 3CC#B000000000000000
(1487341902.709188) can0 078#0068000000000000
(1487341902.710186) can0 422#000000903802FE02
(1487341902.710187) can0 423#CE20000000000000
(1487341902.710188) can0 430#37000ECFC8897700
(1487341902.710189) can0 091#7F6D7EEEC6DBF000
(1487341902.711185) can0 092#6FAC6F7E733D83DB
(1487341902.712310) can0 186#141501F9007205F9
(1487341902.713313) can0 187#DE1408C800500300
(1487341902.713314) can0 076#3E80C0800FFF0000
(1487341902.713316) can0 077#166D07FB7FF801F3
(1487341902.714310) can0 07D#0000F5A0001E6824
(1487341902.714312) can0 213#FFFF000400020040
(1487341902.714312) can0 214#000000000000F5A0
(1487341902.714313) can0 216#3B1F880A00000000
(1487341902.715309) can0 217#13201330132C1334
(1487341902.715311) can0 3CA#FE7FB7FC00000000
(1487341902.715311) can0 415#1664F87408000800
(1487341902.715312) can0 41D#8000600000000000
(1487341902.715313) can0 167#727FD8100019E300
(1487341902.716435) can0 4B0#01008000A00000F5
(1487341902.716437) can0 202#047B300060721665
(1487341902.716438) can0 204#C0007D0594000000
(1487341902.717439) can0 261#0000000000000000
(1487341902.717440) can0 3A8#0100271000000000
(1487341902.717441) can0 085#7F6880002E207F69
(1487341902.717442) can0 42F#7D04002E65F90596
(1487341902.720065) can0 091#7F637EF0CDDCF000
(1487341902.721064) can0 092#6FAD6F7E735F5FDC
(1487341902.721066) can0 454#3646200372204242
(1487341902.721066) can0 5B3#B300FFFFFFFFFFFF
(1487341902.722435) can0 42C#8C40000009B00000
(1487341902.723434) can0 217#1320132C132C1330
(1487341902.725064) can0 047#2000000000000000
(1487341902.726060) can0 165#10CD3C0000000000
(1487341902.726061) can0 167#727FD8100019E300
(1487341902.726062) can0 200#00007FD87FDC0000
(1487341902.726063) can0 202#047A380060721665
(1487341902.727060) can0 204#C0007D0593000000
(1487341902.727062) can0 230#300600009D000000
(1487341902.727062) can0 082#820814008F804000
(1487341902.728059) can0 085#7F6880002D307F69
(1487341902.729065) can0 078#0168800000000000
(1487341902.730187) can0 091#7F547EF0DBDDF000
(1487341902.731186) can0 092#6FAF6F81736256DD
(1487341902.732184) can0 186#140F01F9007205F9
(1487341902.733189) can0 187#DE1408C800500300
(1487341902.733191) can0 076#3E80C0800FFF0000
(1487341902.733192) can0 077#166D07FC7FF7FDF3
(1487341902.734184) can0 07D#0000F4B0001F8822
(1487341902.734185) can0 213#FFFF000400020040
(1487341902.734186) can0 214#000000000000F4B0
(1487341902.734187) can0 216#4F339C1E00000000
(1487341902.735185) can0 217#1320132C13281330
(1487341902.735186) can0 415#165FFC7808000800
(1487341902.735187) can0 41D#8000600000000000
(1487341902.735188) can0 4B0#01008000B00000F4
(1487341902.736184) can0 167#727FD7100019E300
(1487341902.736186) can0 202#047A400060721664
(1487341902.736187) can0 204#C0007D0595000000
(1487341902.736188) can0 3A8#0100271000000000
(1487341902.737314) can0 455#A000000000000000
(1487341902.737315) can0 085#7F6880002C407F69
(1487341902.738309) can0 3CC#B000000000000000
(1487341902.739686) can0 091#7F407EF0EEDEF000
(1487341902.740684) can0 092#6FAE6F7D734478DE
(1487341902.741813) can0 242#02902013D2000001
(1487341902.742935) can0 217#1324132C13241330
(1487341902.743934) can0 3CA#FE7FB7FF00000000
(1487341902.745063) can0 047#2000000000000000
(1487341902.746026) can0 05C#009000F3201E0000
(1487341902.746027) can0 165#10CD3C0000000000
(1487341902.746028) can0 167#727FD7100019E300
(1487341902.747186) can0 200#00007FD87FDC0000
(1487341902.747187) can0 202#047A480060721663
(1487341902.747188) can0 204#C0007D0593000000
(1487341902.747189) can0 230#300600009D000000
(1487341902.748185) can0 082#800814008F804000
(1487341902.748186) can0 085#7F6880002B507F69
(1487341902.748187) can0 42F#7D04002E65F90594
(1487341902.749189) can0 078#0168800000000000
(1487341902.750184) can0 091#7F367EF1F6DFF000
(1487341902.750186) can0 092#6FAB6F76732E97DF
(1487341902.751184) can0 05D#83579F5E38000000
(1487341902.752185) can0 186#140F01F9007205F9
(1487341902.752186) can0 187#DE1408C800500300
(1487341902.753189) can0 18A#0020180114000000
(1487341902.753190) can0 076#3E80C0800FFF0000
(1487341902.753192) can0 077#166D07FC7FF7FDF2
(1487341902.754185) can0 07D#0000F3C0001F0817
(1487341902.754186) can0 213#FFFF000400020040
(1487341902.754187) can0 214#000000000000F3C0
(1487341902.754188) can0 216#6347AF3200000000
(1487341902.755309) can0 217#1328132C1328132C
(1487341902.755311) can0 415#1661C08508000800
(1487341902.755311) can0 41D#8000600000000000
(1487341902.755312) can0 4B0#01008000C00000F3
(1487341902.756276) can0 167#727FD7100019E300
(1487341902.756278) can0 202#047A500060721662
(1487341902.756278) can0 204#C0007D0593000000
(1487341902.756284) can0 3A8#0100271000000000
(1487341902.757313) can0 085#7F6880002A607F69
(1487341902.760185) can0 091#7F307EEFFDE0F000
(1487341902.761135) can0 083#0020000000000000
(1487341902.761137) can0 092#6FAE6F71733D89E0
(1487341902.761138) can0 2A1#FFFFFFFF00000000
(1487341902.761139) can0 33B#0000000000000000
(1487341902.762935) can0 217#132C132C132C1328
(1487341902.765434) can0 047#2000000000000000
(1487341902.766401) can0 165#10CD3C0000000000
(1487341902.766402) can0 167#727FD7100019E300
(1487341902.767434) can0 178#000001FF0E73CE73
(1487341902.767435) can0 082#810814008F804000
(1487341902.767437) can0 085#7F68800029707F69
(1487341902.768434) can0 200#00007FD87FDB0000
(1487341902.768435) can0 202#0479580060721662
(1487341902.768437) can0 204#C0007D0594000000
(1487341902.768438) can0 3CC#B000000000000000
(1487341902.769435) can0 230#300600009D000000
(1487341902.769436) can0 261#0000000000000000
(1487341902.770435) can0 078#0469000000000000
(1487341902.770436) can0 091#7F267EEB0AE1F000
(1487341902.770436) can0 092#6FB36F73736A54E1
(1487341902.771434) can0 42C#8C40000009B00000
(1487341902.772435) can0 186#140E01F9007205F9
(1487341902.772437) can0 187#DE1408C800500300
(1487341902.773563) can0 076#3E80C0800FFF0000
(1487341902.773564) can0 077#166C07FC7FF7FDEF
(1487341902.773565) can0 07D#0000F2D0001EE812
(1487341902.774562) can0 213#FFFF000400020040
(1487341902.774563) can0 214#000000000000F2D0
(1487341902.774563) can0 216#755BC34500000000
(1487341902.774564) can0 217#132C132C13301324
(1487341902.775559) can0 3CA#FE7FB7FF00000000
(1487341902.775560) can0 415#1669C47C08000800
(1487341902.775561) can0 416#5D00F10001000000
(1487341902.775562) can0 3A8#0100271000000000
(1487341902.776528) can0 167#727FD7100019E300
(1487341902.776529) can0 41D#8000600000000000
(1487341902.776530) can0 202#0479600060721661
(1487341902.776531) can0 204#C0007D0595000000
(1487341902.777563) can0 4B0#01008000D00000F2
(1487341902.777564) can0 085#7F68800028807F69
(1487341902.777565) can0 42F#7D04002E65F90593
(1487341902.779686) can0 091#7F167EE71DE2F000
(1487341902.780685) can0 092#6FBA6F79738A26E2
(1487341902.781813) can0 242#02902014D3000001
(1487341902.782934) can0 217#132C133013301328
(1487341902.785064) can0 047#2000000000000000
(1487341902.786059) can0 165#10CD3C0000000000
(1487341902.786060) can0 167#727FD7100019E200
(1487341902.786062) can0 200#00007FD87FDB0000
(1487341902.786063) can0 202#0477680060721662
(1487341902.787060) can0 05A#00000045F4010000
(1487341902.787061) can0 204#C0007D0595000000
(1487341902.787062) can0 230#300600009D000000
(1487341902.787062) can0 082#810814008F804000
(1487341902.788185) can0 085#7F68800027907F69
(1487341902.789190) can0 078#0168800000000000
(1487341902.790185) can0 04A#0200000000000000
(1487341902.790186) can0 04B#00C0D8D8D8D8C000
(1487341902.791186) can0 04C#105FFFC000000000
(1487341902.791187) can0 091#7F0A7EE629E3F000
(1487341902.791188) can0 092#6FBF6F7D738521E3
(1487341902.792185) can0 186#140E01F9007205F9
(1487341902.792186) can0 187#DE1408C800500300
(1487341902.793190) can0 076#3E80C0800FFF0000
(1487341902.794185) can0 077#166B07F97FF80DF1
(1487341902.794187) can0 07D#0000F1E000204809
(1487341902.794187) can0 213#FFFF00040001FF40
(1487341902.794188) can0 214#000000000000F1E0
(1487341902.794189) can0 216#896ED75900000000
(1487341902.795185) can0 217#132C133413301328
(1487341902.795191) can0 3CD#0000000000000000
(1487341902.795192) can0 3D8#0000000080456030
(1487341902.795193) can0 415#1668C87C08000800
(1487341902.796185) can0 167#727FD6100019E200
(1487341902.796186) can0 202#0475700060721663
(1487341902.796187) can0 204#C0007D0593000000
(1487341902.796188) can0 3A8#0100271000000000
(1487341902.797191) can0 41D#8000600000000000
(1487341902.797192) can0 4B0#01008000E00000F1
(1487341902.797193) can0 085#7F68800026A07F69
(1487341902.798311) can0 3CC#B000000000000000
(1487341902.800184) can0 091#7EFF7EE436E4F000
(1487341902.801188) can0 092#6FBE6F7C737136E4
(1487341902.802935) can0 217#133013341334132C
(1487341902.803937) can0 3CA#FE7FB7FF00000000
(1487341902.805063) can0 047#2000000000000000
(1487341902.806059) can0 165#10CD3C0000000000
(1487341902.806060) can0 167#727FD6100019E200
(1487341902.806061) can0 200#00007FD87FDB0000
(1487341902.807026) can0 202#0473780060721664
(1487341902.807027) can0 204#C0007D0594000000
(1487341902.807028) can0 230#300600009D000000
(1487341902.807029) can0 42F#7D04002E65F80595
(1487341902.808060) can0 082#830814008F804000
(1487341902.808061) can0 085#7F68800025B07F69
(1487341902.809064) can0 078#0168800000000000
(1487341902.810062) can0 422#000000903802FE02
(1487341902.810063) can0 423#CE20000000000000
(1487341902.810064) can0 430#37000ECFC8897700
(1487341902.810065) can0 091#7EF47EE440E5F000
(1487341902.811184) can0 092#6FBB6F7573654BE5
(1487341902.811186) can0 084#110000301E220900
(1487341902.812185) can0 186#140D01F9007205F9
(1487341902.812187) can0 187#DD1408C800600300
(1487341902.813151) can0 076#3E80C0800FFF0000
(1487341902.814139) can0 077#166B07F87FF811F2
(1487341902.814140) can0 07D#0000F0F0001FD802
(1487341902.814142) can0 213#FFFF00040001FF40
(1487341902.814144) can0 214#000000000000F0F0
(1487341902.814144) can0 216#9D82EB6D00000000
(1487341902.815184) can0 217#132C133413341330
(1487341902.815185) can0 415#166DCC7608000800
(1487341902.815186) can0 41D#8000600000000000
(1487341902.815187) can0 4B0#01008000F00000F0
(1487341902.816185) can0 167#727FD6100019E200
(1487341902.816186) can0 202#0482000060721664
(1487341902.816187) can0 204#C0007D0596000000
(1487341902.816188) can0 261#0000000000000000
(1487341902.817151) can0 3A8#0100271000000000
(1487341902.817152) can0 085#7F68800024C07F69
(1487341902.820064) can0 091#7EEC7EE447E6F000
(1487341902.821189) can0 092#6FB96F6F736A4DE6
(1487341902.821190) can0 33B#0000000000000000
(1487341902.822186) can0 242#02902013D2000001
(1487341902.822188) can0 3B3#4048020F10050002
(1487341902.822188) can0 40A#C1014B3931485232
(1487341902.823184) can0 42C#8C40000009B00000
(1487341902.823185) can0 217#1328133413341330
(1487341902.825064) can0 047#2000000000000000
(1487341902.826060) can0 165#10CD3C0000000000
(1487341902.826061) can0 167#727FD6100019E200
(1487341902.826062) can0 200#00007FD87FDA0000
(1487341902.826063) can0 202#0480080060721665
(1487341902.827059) can0 204#C0007D0597000000
(1487341902.827060) can0 230#300600009D000000
(1487341902.827061) can0 082#830814008F804000
(1487341902.828184) can0 085#7F68800023D07F69
(1487341902.828185) can0 3CC#B000000000000000
(1487341902.829189) can0 078#0068000000000000
(1487341902.830184) can0 091#7EE17EE451E7F000
(1487341902.830185) can0 092#6FB76F6C737447E7
(1487341902.831435) can0 186#140D01F9007205F9
(1487341902.832436) can0 187#DD1408C800600300
(1487341902.833440) can0 076#3E80C0800FFF0000
(1487341902.833441) can0 077#166C07F87FF809EE
(1487341902.833442) can0 07D#0000FF00001FB7FE
(1487341902.834559) can0 213#FFFF00040001FF40
(1487341902.834561) can0 214#000000000000FF00
(1487341902.834562) can0 216#B296FD8100000000
(1487341902.834563) can0 217#1328133413301330
(1487341902.835560) can0 3CA#FE7FB7FF00000000
(1487341902.835561) can0 415#166AD07808000800
(1487341902.835563) can0 41D#8000600000000000
(1487341902.835563) can0 167#727FD6100019E200
(1487341902.836559) can0 4B0#01008000000000FF
(1487341902.836560) can0 202#047E100060721666
(1487341902.836561) can0 204#C0007D0597000000
(1487341902.836563) can0 3A8#0100271000000000
(1487341902.837525) can0 42F#7D04002E65F80596
(1487341902.837526) can0 085#7F68800022E07F69
(1487341902.837527) can0 455#A000000000000000
(1487341902.840059) can0 091#7ED47EE35EE8F000
(1487341902.841065) can0 092#6FB66F6C73803BE8
(1487341902.842934) can0 217#1328133413281330
(1487341902.845063) can0 047#2000000000000000
(1487341902.846060) can0 05C#003000F9201E0000
(1487341902.846061) can0 165#10CD3C0000000000
(1487341902.846062) can0 167#727FD6100019E200
(1487341902.846063) can0 200#00007FD87FDA0000
(1487341902.847061) can0 202#047C180060721667
(1487341902.847063) can0 204#C0007D0598000000
(1487341902.847064) can0 230#300600009D000000
(1487341902.847065) can0 082#820814008F804000
(1487341902.848060) can0 085#7F68800021F07F69
(1487341902.849191) can0 078#0168800000000000
(1487341902.850185) can0 091#7ED17EE360E9F000
(1487341902.851185) can0 092#6FB96F6F73892BE9
(1487341902.851187) can0 05D#835787603C000000
(1487341902.851188) can0 186#140D01F9007205F9
(1487341902.852185) can0 187#DD1408C800600300
(1487341902.852186) can0 18A#0020180114000000
(1487341902.853188) can0 076#3E80C0800FFF0000
(1487341902.853190) can0 077#166B07F87FF805EE
(1487341902.854184) can0 07D#0000FE10002017F6
(1487341902.854186) can0 213#FFFF00040001FF40
(1487341902.854187) can0 214#000000000000FE10
(1487341902.854188) can0 216#C4AA119400000000
(1487341902.855310) can0 217#1328133013281330
(1487341902.855311) can0 415#1668D47908000800
(1487341902.855312) can0 41D#8000600000000000
(1487341902.855313) can0 4B0#01008000100000FE
(1487341902.856313) can0 167#727FD5100019E200
(1487341902.856315) can0 202#047B200060721667
(1487341902.856316) can0 204#C0007D0598000000
(1487341902.856317) can0 3A8#0100271000000000
(1487341902.857313) can0 085#7F68800030007F69
(1487341902.858310) can0 3CC#B000000000000000
(1487341902.860185) can0 091#7EDB7EE355EAF000
(1487341902.861189) can0 083#0020000000000000
(1487341902.861190) can0 092#6FBE6F74738227EA
(1487341902.861191) can0 2A1#FFFFFFFF00000000
(1487341902.862184) can0 242#02902013D2000001
(1487341902.863314) can0 217#132C1330132C1330
(1487341902.863315) can0 3CA#FE7F480300000000
(1487341902.865064) can0 047#2000000000000000
(1487341902.866059) can0 165#10CD3C0000000000
(1487341902.866060) can0 167#727FD5100019E200
(1487341902.867060) can0 178#000002020E73CE73
(1487341902.867062) can0 200#00007FD87FDA0000
(1487341902.868185) can0 082#820814008F804000
(1487341902.868186) can0 085#7F6880002F107F69
(1487341902.868187) can0 202#047A280060721667
(1487341902.868188) can0 204#C0007D059A000000
(1487341902.869189) can0 230#300600009D000000
(1487341902.869191) can0 261#0000000000000000
(1487341902.870185) can0 42F#7D04002E65F80598
(1487341902.870192) can0 078#0568800000000000
(1487341902.870193) can0 091#7EE47EE34BEBF000
(1487341902.871184) can0 092#6FBF6F7973683AEB
(1487341902.871185) can0 186#140D01F9007205F9
(1487341902.871186) can0 187#DD1408C800600300
(1487341902.872189) can0 42C#8C40000009B00000
(1487341902.873188) can0 076#3E80C0800FFF0000
(1487341902.874185) can0 077#166A07F87FF811F0
(1487341902.874187) can0 07D#0000FD20002027F8
(1487341902.874188) can0 213#FFFF00040001FF40
(1487341902.874188) can0 214#000000000000FD20
(1487341902.874189) can0 216#D8BD25A800000000
(1487341902.875185) can0 217#13281334132C132C
(1487341902.875187) can0 415#1668D87808000800
(1487341902.875188) can0 416#5E00F00001000000
(1487341902.875189) can0 41D#8000600000000000
(1487341902.876185) can0 3A8#0100271000000000
(1487341902.876186) can0 167#727FD5100019E100
(1487341902.876187) can0 202#0479300060721667
(1487341902.876188) can0 204#C0007D059B000000
(1487341902.877192) can0 4B0#01008000200000FD
(1487341902.877195) can0 085#7F6880002E207F69
(1487341902.880059) can0 091#7EE27EE34CECF000
(1487341902.881066) can0 092#6FB96F79735156EC
(1487341902.881067) can0 33B#0000000000000000
(1487341902.882935) can0 217#132C1334132C132C
(1487341902.885313) can0 047#2000000000000000
(1487341902.886258) can0 165#10CD3C0000000000
(1487341902.886260) can0 167#727FD5100019E100
(1487341902.886261) can0 200#00007FD87FD90000
(1487341902.886263) can0 05A#00000045EAA10000
(1487341902.887310) can0 202#0478380060721667
(1487341902.887312) can0 204#C0007D059C000000
(1487341902.887313) can0 230#300600009D000000
(1487341902.887314) can0 082#820814008F804000
(1487341902.888276) can0 085#7F6880002D307F69
(1487341902.888277) can0 3CC#B000000000000000
(1487341902.889313) can0 078#0069000000000000
(1487341902.890309) can0 04A#0200000000000000
(1487341902.890310) can0 04B#00C0D8D8D8D8C000
(1487341902.890312) can0 04C#105FFFC000000000
(1487341902.891309) can0 091#7ED67EE357EDF000
(1487341902.891310) can0 092#6FB46F7973515AED
(1487341902.891311) can0 186#140D01F9007205F9
(1487341902.891312) can0 187#DD1408C800600300
(1487341902.892310) can0 3A7#0E401A045F700000
(1487341902.893439) can0 076#3E80C0800FFF0000
(1487341902.893441) can0 077#166A07F87FF809F1
(1487341902.894436) can0 07D#0000FC30001F47FB
(1487341902.894437) can0 213#FFFF00040001FF40
(1487341902.894438) can0 214#000000000000FC30
(1487341902.894439) can0 216#ECD13ABC00000000
(1487341902.895434) can0 217#133013341330132C
(1487341902.895436) can0 3CA#FE7F480300000000
(1487341902.895437) can0 415#166BDC7408000800
(1487341902.895438) can0 41D#8000600000000000
(1487341902.895439) can0 167#727FD5100019E100
(1487341902.896434) can0 4B0#01008000300000FC
(1487341902.896436) can0 202#0477400060721667
(1487341902.896437) can0 204#C0007D059B000000
(1487341902.896437) can0 3A8#0100271000000000
(1487341902.897438) can0 42F#7D04002E65F8059B
(1487341902.897440) can0 085#7F6880002C407F69
(1487341902.900059) can0 091#7EBF7EE36DEEF000
(1487341902.901063) can0 092#6FB26F7A735C4FEE
(1487341902.901065) can0 3A6#0E401A045F700000
(1487341902.902060) can0 242#02902015D2000001
(1487341902.903060) can0 217#133013341334132C
(1487341902.905188) can0 047#2000000000000000
(1487341902.906186) can0 165#10CD3C0000000000
(1487341902.906188) can0 167#727FD5100019E100
(1487341902.906189) can0 200#00007FD87FD90000
(1487341902.906190) can0 202#0476480060721667
(1487341902.907185) can0 204#C0007D059C000000
(1487341902.907187) can0 230#300600009D000000
(1487341902.907188) can0 082#810814008F804000
(1487341902.908185) can0 085#7F6880002B507F69
(1487341902.909187) can0 078#0168800000000000
(1487341902.910185) can0 422#000000903802FE02
(1487341902.910186) can0 423#CE20000000000000
(1487341902.910187) can0 430#37000ECFC8897700
(1487341902.910187) can0 091#7EA47EE288EFF000
(1487341902.911186) can0 092#6FB36F7A736346EF
(1487341902.911187) can0 186#140A01F9007205F9
(1487341902.911188) can0 187#DC1408C800700300
(1487341902.912936) can0 076#3E80C0800FFF0000
(1487341902.913937) can0 077#166A07F87FF801F1
(1487341902.913938) can0 07D#0000FB40001F77F0
(1487341902.913939) can0 213#FFFF00040001FF40
(1487341902.913940) can0 214#000000000000FB40
(1487341902.915060) can0 216#00E54CD000000000
(1487341902.915061) can0 217#133013381334132C
(1487341902.915061) can0 415#166DE07108000800
(1487341902.915062) can0 41D#8000600000000000
(1487341902.916060) can0 4B0#01008000400000FB
(1487341902.916061) can0 167#727FD4100019E100
(1487341902.916061) can0 202#0475500060721667
(1487341902.916063) can0 204#C0007D059B000000
(1487341902.917063) can0 261#0000000000000000
(1487341902.917064) can0 3A8#0100271000000000
(1487341902.918060) can0 085#7F6880002A607F69
(1487341902.918061) can0 3CC#B000000000000000
(1487341902.920060) can0 091#7E907EE499F0F000
(1487341902.921063) can0 092#6FBA6F7B736937F0
(1487341902.922059) can0 42C#8C40000009B00000
(1487341902.923060) can0 217#133013381334132C
(1487341902.924061) can0 3CA#FE7F480300000000
(1487341902.925064) can0 047#2000000000000000
(1487341902.926185) can0 165#10CD3C0000000000
(1487341902.926186) can0 167#727FD4100019E100
(1487341902.926187) can0 200#00007FD87FD90000
(1487341902.927185) can0 202#0473580060721668
(1487341902.927187) can0 204#C0007D059B000000
(1487341902.927188) can0 230#300600009D000000
(1487341902.927188) can0 42F#7D04002E65F7059B
(1487341902.928184) can0 082#820814008F804000
(1487341902.928185) can0 085#7F68800029707F69
(1487341902.929188) can0 078#0168800000000000
(1487341902.930185) can0 091#7E8A7EE59DF1F000
(1487341902.931185) can0 092#6FC06F7B737029F1
(1487341902.931186) can0 186#140801F9007205F9
(1487341902.931187) can0 187#DC1408C800700300
(1487341902.932934) can0 076#3E80C0800FFF0000
(1487341902.934060) can0 077#166B07F87FF80DF2
(1487341902.934061) can0 07D#0000FA50001FB7E1
(1487341902.934062) can0 213#FFFF00040001FF40
(1487341902.934063) can0 214#000000000000FA50
(1487341902.935060) can0 216#13F960E400000000
(1487341902.935061) can0 217#1334133813341330
(1487341902.935062) can0 415#1671E46C08000800
(1487341902.935063) can0 41D#8000600000000000
(1487341902.936060) can0 4B0#01008000500000FA
(1487341902.936061) can0 167#727FD4100019E100
(1487341902.936062) can0 202#0471600060721669
(1487341902.936063) can0 204#C0007D059A000000
(1487341902.937063) can0 3A8#0100271000000000
(1487341902.937065) can0 455#A000000000000000
(1487341902.937065) can0 085#7F68800028807F69
(1487341902.939809) can0 091#7E8A7EE59CF2F000
(1487341902.940811) can0 092#6FC16F79737722F2
(1487341902.940812) can0 33B#0000000000000000
(1487341902.942063) can0 242#02902015D2000001
(1487341902.943060) can0 217#1330133813341330
(1487341902.945033) can0 047#2000000000000000
(1487341902.946184) can0 05C#00D000EF201E0000
(1487341902.946186) can0 165#10CD3C0000000000
(1487341902.946192) can0 167#727FD4100019E000
(1487341902.946193) can0 200#00007FD87FD80000
(1487341902.947185) can0 202#046F68006072166A
(1487341902.947186) can0 204#C0007D059A000000
(1487341902.947187) can0 230#300600009D000000
(1487341902.947188) can0 082#820814008F804000
(1487341902.948184) can0 085#7F68800027907F69
(1487341902.948186) can0 3CC#B000000000000000
(1487341902.949173) can0 078#0068000000000000
(1487341902.950185) can0 091#7E8F7EE497F3F000
(1487341902.950187) can0 092#6FBF6F7673801DF3
(1487341902.951184) can0 186#140601F9007205F9
(1487341902.951186) can0 187#DC1408C800700300
(1487341902.951187) can0 05D#8357AF6032000000
(1487341902.951188) can0 18A#0020180114000000
(1487341902.952184) can0 3E5#0000000080000000
(1487341902.953192) can0 076#3E80C0800FFF0000
(1487341902.953194) can0 077#166B07F97FF815F1
(1487341902.954313) can0 07D#0000F960001FF7DF
(1487341902.954314) can0 213#FFFF00040001FF40
(1487341902.954315) can0 214#000000000000F960
(1487341902.954316) can0 216#270B74F700000000
(1487341902.955310) can0 217#1330133813301330
(1487341902.955311) can0 3CA#FE7F480300000000
(1487341902.955312) can0 415#1671E86B08000800
(1487341902.955313) can0 41D#8000600000000000
(1487341902.956310) can0 167#727FD4100019E000
(1487341902.956311) can0 4B0#01008000600000F9
(1487341902.956312) can0 202#046D70006072166B
(1487341902.956313) can0 204#C0007D0599000000
(1487341902.957312) can0 3A8#0100271000000000
(1487341902.957314) can0 42F#7D04002E65F7059B
(1487341902.957315) can0 085#7F68800026A07F69
(1487341902.960059) can0 091#7E997EE38DF4F000
(1487341902.961066) can0 092#6FBD6F77738D10F4
(1487341902.961067) can0 083#0020000000000000
(1487341902.961068) can0 2A1#FFFFFFFF00000000
(1487341902.962934) can0 217#132C133813281334
(1487341902.965066) can0 047#2000000000000000
(1487341902.966060) can0 165#10CD3C0000000000
(1487341902.966061) can0 167#727FD3100019E100
(1487341902.967063) can0 178#000001FF0E73CE73
(1487341902.967064) can0 200#00007FD97FD90000
(1487341902.967065) can0 202#046C78006072166B
(1487341902.968064) can0 082#830814008F804000
(1487341902.968066) can0 085#7F68800025B07F69
(1487341902.968067) can0 204#C0007D0599000000
(1487341902.968067) can0 230#300600009D000000
(1487341902.969067) can0 261#0000000000000000
(1487341902.970185) can0 078#0569800000000000
(1487341902.970186) can0 186#140601F9007205F9
(1487341902.971185) can0 091#7E9E7EE387F5F000
(1487341902.971186) can0 092#6FBA6F79739607F5
(1487341902.971187) can0 187#DC1408C800700300
(1487341902.972184) can0 42C#8C40000009B00000
(1487341902.973188) can0 076#3E80C0800FFF0000
(1487341902.974185) can0 077#166C07F87FF811F1
(1487341902.974186) can0 07D#0000F870002057E4
(1487341902.974186) can0 213#FFFF00040001FF40
(1487341902.974187) can0 214#000000000000F870
(1487341902.975184) can0 216#3B1F880B00000000
(1487341902.975186) can0 217#132C133413241330
(1487341902.975187) can0 415#166BEC7008000800
(1487341902.975188) can0 416#5F00EF0001000000
(1487341902.975189) can0 41D#8000600000000000
(1487341902.976184) can0 167#727FD4100019E200
(1487341902.976186) can0 202#047A00006072166C
(1487341902.976186) can0 204#C0007D0599000000
(1487341902.976187) can0 3A8#0100271000000000
(1487341902.977188) can0 4B0#01008000700000F8
(1487341902.977190) can0 085#7F68800024C07F69
(1487341902.978185) can0 3CC#B000000000000000
(1487341902.980059) can0 091#7E9E7EE287F6F000
(1487341902.981063) can0 092#6FB96F78739509F6
(1487341902.982184) can0 242#02902014D2000001
(1487341902.983184) can0 217#132C133013241330
(1487341902.983186) can0 3CA#FE7F180700000000
(1487341902.985313) can0 047#2000000000000000
(1487341902.986434) can0 165#10CD3C0000000000
(1487341902.986435) can0 167#727FD4100019E200
(1487341902.986436) can0 05A#00000045F0410000
(1487341902.986437) can0 168#0000000000000000
(1487341902.987434) can0 200#00007FDA7FDA0000
(1487341902.987435) can0 202#047908006072166C
(1487341902.987437) can0 082#820814008F804000
(1487341902.987437) can0 085#7F68800023D07F69
(1487341902.988435) can0 204#C0007D0599000000
(1487341902.988436) can0 230#300600009D000000
(1487341902.988437) can0 42F#7D04002E65F80599
(1487341902.989442) can0 078#0168800000000000
(1487341902.990435) can0 186#140501F9007205F9
(1487341902.990436) can0 187#DC1408C800700300
(1487341902.990437) can0 04A#0200000000000000
(1487341902.991434) can0 04B#00C0D8D8D8D8C000
(1487341902.991436) can0 04C#105FFFC000000000
(1487341902.991436) can0 091#7EA17EE184F7F000
(1487341902.991437) can0 092#6FBA6F76738E10F7
(1487341902.993066) can0 076#3E80C0800FFF0000
(1487341902.994061) can0 077#166C07F87FF809F1
(1487341902.994062) can0 07D#0000F780002087E5
(1487341902.994063) can0 213#FFFF00040001FF40
(1487341902.994063) can0 214#000000000000F780
(1487341902.995060) can0 216#4F349B1F00000000
(1487341902.995061) can0 217#132C13301328132C
(1487341902.995062) can0 415#1668F07208000800
(1487341902.995063) can0 41D#8000600000000000
(1487341902.996060) can0 4B0#01008000800000F7
(1487341902.996061) can0 3A8#0100271000000000
(1487341902.996062) can0 167#727FD6100019E300
(1487341902.996062) can0 202#047910006072166B
(1487341902.997063) can0 204#C0007D0598000000
(1487341902.998059) can0 085#7F68800022E07F69
(1487341903.000151) can0 091#7EA67EE07FF8F000
(1487341903.001153) can0 092#6FB96F7373871AF8
(1487341903.001153) can0 33B#0000000000000000
(1487341903.002935) can0 217#132C1330132C132C
(1487341903.005034) can0 047#2000000000000000
(1487341903.006061) can0 165#10CD3C0000000000
(1487341903.006062) can0 167#727FD7100019E400
(1487341903.006063) can0 200#00007FDD7FDD0000
(1487341903.006064) can0 202#047918006072166A
(1487341903.007060) can0 204#C0007D0598000000
(1487341903.007062) can0 230#300600009D000000
(1487341903.007062) can0 082#820814008F804000
(1487341903.008059) can0 085#7F68800021F07F69
(1487341903.008060) can0 3CC#B000000000000000
(1487341903.009035) can0 078#0068000000000000
(1487341903.010152) can0 422#000000903802FE02
(1487341903.010153) can0 423#CE20000000000000
(1487341903.010154) can0 430#37000ECFC8897700
(1487341903.010155) can0 091#7EAF7EE075F9F000
(1487341903.010156) can0 092#6FB76F7073871EF9
(1487341903.011184) can0 186#140501F8007205F8
(1487341903.011186) can0 187#DB1408C800800300
(1487341903.012892) can0 076#3E80C0800FFF0000
(1487341903.013945) can0 077#166B07F77FF809F0
(1487341903.013946) can0 07D#0000F690002037E8
(1487341903.013947) can0 213#FFFF00040001FF40
(1487341903.013947) can0 214#000000000000F690
(1487341903.014944) can0 216#6348AF3300000000
(1487341903.014946) can0 217#133413301330132C
(1487341903.014947) can0 3CA#FE7F180700000000
(1487341903.014948) can0 415#166BF46E08000800
(1487341903.016070) can0 41D#8000600000000000
(1487341903.016071) can0 167#727FD7100019E400
(1487341903.016072) can0 4B0#01008000900000F6
(1487341903.016077) can0 202#047820006072166A
(1487341903.017099) can0 204#C0007D0599000000
(1487341903.017101) can0 261#0000000000000000
(1487341903.017103) can0 3A8#0100271000000000
(1487341903.018070) can0 085#7F68800030007F69
(1487341903.018071) can0 42F#7D04002E65F90599
(1487341903.020068) can0 091#7EBD7EE264FAF000
(1487341903.021132) can0 092#6FB56F6F738D1AFA
(1487341903.022191) can0 242#02902013D2000001
(1487341903.022192) can0 40A#C1023130373639FF
(1487341903.023188) can0 42C#8C40000009B00000
(1487341903.023189) can0 217#1330132C1330132C
(1487341903.025035) can0 047#2000000000000000
(1487341903.026067) can0 165#10CD3C0000000000
(1487341903.026067) can0 167#727FD9100019E500
(1487341903.026068) can0 200#00007FDF7FDF0000
(1487341903.026069) can0 202#047728006072166A
(1487341903.027190) can0 204#C0007D059A000000
(1487341903.027191) can0 230#300600009D000000
(1487341903.027191) can0 082#830814008E804000
(1487341903.028191) can0 085#7F6880002F107F69
(1487341903.029164) can0 078#0168800000000000
(1487341903.030188) can0 186#140401F8007205F8
(1487341903.030189) can0 187#DB1408C800800300
(1487341903.030190) can0 091#7ED27EE54BFBF000
(1487341903.031191) can0 092#6FB76F73738C14FB
(1487341903.032939) can0 076#3E80C0800FFF0000
(1487341903.033938) can0 077#166A07F87FF805EE
(1487341903.033938) can0 07D#0000F5A0002057EF
(1487341903.033939) can0 213#FFFF00040001FF40
(1487341903.033940) can0 214#000000000000F5A0
(1487341903.034937) can0 216#765AC34500000000
(1487341903.034938) can0 217#133013301334132C
(1487341903.034939) can0 415#166BF86D08000800
(1487341903.034939) can0 41D#8000600000000000
(1487341903.036062) can0 4B0#01008000A00000F5
(1487341903.036063) can0 167#727FDA100019E600
(1487341903.036064) can0 202#047630006072166A
(1487341903.036065) can0 204#C0007D059B000000
(1487341903.037066) can0 3A8#0100271000000000
(1487341903.037066) can0 455#A000000000000000
(1487341903.038063) can0 085#7F6880002E207F69
(1487341903.038063) can0 3CC#B000000000000000
(1487341903.040188) can0 091#7EEC7EE530FCF000
(1487341903.041190) can0 092#6FB66F77738319FC
(1487341903.042938) can0 217#133013301334132C
(1487341903.043938) can0 3CA#FE7F180700000000
(1487341903.045070) can0 047#2000000000000000
(1487341903.046065) can0 05C#007000F5201E0000
(1487341903.046066) can0 165#10CD3C0000000000
(1487341903.046066) can0 167#727FDA100019E600
(1487341903.047064) can0 200#00007FE07FE00000
(1487341903.047065) can0 202#047538006072166A
(1487341903.047065) can0 204#C0007D059D000000
(1487341903.047066) can0 230#300600009D000000
(1487341903.048064) can0 082#840814008E804000
(1487341903.048065) can0 085#7F6880002D307F69
(1487341903.048066) can0 42F#7D04002E65FB059A
(1487341903.049191) can0 078#0168800000000000
(1487341903.050187) can0 186#140401F8007205F8
(1487341903.050188) can0 187#DB1408C800800300
(1487341903.050189) can0 18A#0020180114000000
(1487341903.050189) can0 091#7EFD7EE320FDF000
(1487341903.051187) can0 092#6FAF6F79737828FD
(1487341903.051188) can0 05D#8357975F39000000
(1487341903.052187) can0 169#0082C00000000000
(1487341903.053193) can0 076#3E80C0800FFF0000
(1487341903.054188) can0 077#166A07F97FF805F1
(1487341903.054188) can0 07D#0000F4B0002027FD
(1487341903.054189) can0 213#FFFF00040001FF40
(1487341903.054189) can0 214#000000000000F4B0
(1487341903.054190) can0 216#8A6ED75900000000
(1487341903.055188) can0 217#133013341338132C
(1487341903.055192) can0 415#166BFC6C08000800
(1487341903.055192) can0 41D#8000600000000000
(1487341903.055193) can0 4B0#01008000B00000F4
(1487341903.056313) can0 167#727FDC100019E700
(1487341903.056314) can0 202#0475400060721669
(1487341903.056314) can0 204#C0007D059F000000
(1487341903.056315) can0 3A8#0100271000000000
(1487341903.057317) can0 085#7F6980002A407F6A
(1487341903.060065) can0 091#7F037EE01BFEF000
(1487341903.061191) can0 092#6FA76F7A736E38FE
(1487341903.061191) can0 083#0020000000000000
(1487341903.061192) can0 2A1#FFFFFFFF00000000
(1487341903.061192) can0 33B#0000000000000000
(1487341903.062187) can0 242#02902012D2000001
(1487341903.063187) can0 217#133013341338132C
(1487341903.065066) can0 047#2000000000000000
(1487341903.066064) can0 165#10CD3C0000000000
(1487341903.066065) can0 167#727FDE100019E900
(1487341903.067188) can0 178#000002030E73CE73
(1487341903.067188) can0 200#00007FE37FE30000
(1487341903.067189) can0 202#0474480060721669
(1487341903.068187) can0 082#840814008E804000
(1487341903.068188) can0 085#7F6980002A507F69
(1487341903.068189) can0 204#C0007D05A1000000
(1487341903.068189) can0 230#300600009D000000
(1487341903.069191) can0 261#0000000000000000
(1487341903.069191) can0 3CC#B000000000000000
(1487341903.070188) can0 186#140401F8007205F8
(1487341903.070188) can0 078#0468000000000000
(1487341903.070189) can0 187#DB1408C800800300
(1487341903.070189) can0 091#7EFA7EDE26FFF000
(1487341903.071142) can0 092#6FA66F7B736B3AFF
(1487341903.071143) can0 42C#8C40000009B00000
(1487341903.072938) can0 076#3E80C0800FFF0000
(1487341903.073938) can0 077#166B07F87FF7F9F1
(1487341903.073939) can0 07D#0000F3C0001FC803
(1487341903.073939) can0 213#FFFF00040001FF40
(1487341903.073940) can0 214#000000000000F3C0
(1487341903.074937) can0 216#9E82EA6D00000000
(1487341903.074938) can0 217#133013341338132C
(1487341903.074938) can0 3CA#FE7F180700000000
(1487341903.074939) can0 415#166DC07908000800
(1487341903.076063) can0 416#5000FE0001000000
(1487341903.076064) can0 167#727FDE100019E900
(1487341903.076064) can0 41D#8000600000000000
(1487341903.076065) can0 202#0473500060721669
(1487341903.077066) can0 204#C0007D05A4000000
(1487341903.077067) can0 3A8#0100271000000000
(1487341903.077067) can0 4B0#01008000C00000F3
(1487341903.078062) can0 085#7F69800029607F69
(1487341903.078063) can0 42F#7D04002E65FD059F
(1487341903.080063) can0 091#7EE77EDE3800F000
(1487341903.081065) can0 092#6FAA6F7873733000
(1487341903.082937) can0 217#132C133413341330
(1487341903.085066) can0 047#2000000000000000
(1487341903.086064) can0 165#10CD3C0000000000
(1487341903.086065) can0 167#727FE0100019EA00
(1487341903.086065) can0 200#00007FE57FE50000
(1487341903.086065) can0 202#047158006072166A
(1487341903.087063) can0 05A#00000045E6E10000
(1487341903.087064) can0 204#C0007D05A5000000
(1487341903.087064) can0 230#300600009D000000
(1487341903.087064) can0 082#820814008E804000
(1487341903.088062) can0 085#7F69800028707F69
(1487341903.089192) can0 078#0169800000000000
(1487341903.089193) can0 186#140401F8007205F8
(1487341903.090189) can0 187#DB1408C800800300
(1487341903.090189) can0 04A#0200000000000000
(1487341903.090190) can0 04B#00C0D8D8D8D8C000
(1487341903.091187) can0 04C#105FFFC000000000
(1487341903.091188) can0 091#7ED67EE04601F000
(1487341903.091188) can0 092#6FAF6F77737D2101
(1487341903.092187) can0 3A7#0E401A045F700000
(1487341903.093191) can0 076#3E81C0800FFF0000
(1487341903.094188) can0 077#166C07F77FF7FDF1
(1487341903.094188) can0 07D#0000F2D0001FE7FC
(1487341903.094189) can0 213#FFFF00040001FF40
(1487341903.094189) can0 214#000000000000F2D0
(1487341903.095188) can0 216#B296FE8100000000
(1487341903.095189) can0 217#132C133413301330
(1487341903.095189) can0 415#166CC47908000800
(1487341903.095190) can0 41D#8000600000000000
(1487341903.095190) can0 4B0#01008000D00000F2
(1487341903.096188) can0 167#727FE2100019EB00
(1487341903.096188) can0 202#047060006072166A
(1487341903.096189) can0 204#C0007D05A8000000
(1487341903.096189) can0 3A8#0100271000000000
(1487341903.097191) can0 085#7F69800027807F69
(1487341903.098183) can0 3CC#B000000000000000
(1487341903.100064) can0 091#7ED17EE44602F000
(1487341903.101067) can0 092#6FB36F7B737E1702
(1487341903.101068) can0 3A6#0E401A045F700000
(1487341903.102062) can0 242#0290200CD2000001
(1487341903.103065) can0 217#132C133413281330
(1487341903.104063) can0 3CA#FE7F280C00000000
(1487341903.105067) can0 047#2000000000000000
(1487341903.106189) can0 165#10CD3C0000000000
(1487341903.106190) can0 167#727FE2100019EB00
(1487341903.106191) can0 200#00007FE67FE60000
(1487341903.107188) can0 202#046F68006072166A
(1487341903.107189) can0 204#C0007D05A8000000
(1487341903.107189) can0 230#300600009D000000
(1487341903.107190) can0 42F#7D04002E65FF05A5
(1487341903.108187) can0 082#830814008E804000
(1487341903.108188) can0 085#7F69800026907F69
(1487341903.109190) can0 186#140401F8007205F8
(1487341903.109191) can0 078#0168800000000000
(1487341903.110188) can0 187#DB1408C800800300
(1487341903.110188) can0 422#000000903802FE02
(1487341903.110189) can0 091#7ED27EE64203F000
(1487341903.110189) can0 423#CE20000000000000
(1487341903.111190) can0 092#6FB36F8173751903
(1487341903.111191) can0 430#37000ECFC889F700
(1487341903.112937) can0 076#3E81C0800FFF0000
(1487341903.113939) can0 077#166C07F97FF801F2
(1487341903.113940) can0 07D#0000F1E0002017F5
(1487341903.113941) can0 213#FFFF00040001FF40
(1487341903.113941) can0 214#000000000000F1E0
(1487341903.115063) can0 216#C4A9129400000000
(1487341903.115064) can0 217#1330133813281330
(1487341903.115064) can0 415#166BC87908000800
(1487341903.115065) can0 41D#8000600000000000
(1487341903.116062) can0 4B0#01008000E00000F1
(1487341903.116063) can0 167#727FE4100019EC00
(1487341903.116064) can0 202#046E70006072166A
(1487341903.116064) can0 204#C0007D05AA000000
(1487341903.117066) can0 261#0000000000000000
(1487341903.117066) can0 3A8#0100271000000000
(1487341903.117067) can0 085#7F69800025A07F69
(1487341903.119694) can0 091#7ED17EE54304F000
(1487341903.120689) can0 092#6FB16F83736D2004
(1487341903.120690) can0 33B#0000000000000000
(1487341903.121691) can0 42C#8C40000009B00000
(1487341903.122938) can0 217#1330133813281330
(1487341903.125315) can0 047#2000000000000000
(1487341903.126314) can0 165#10CD3C0000000000
(1487341903.126314) can0 167#727FE5100019EE00
(1487341903.126315) can0 200#00007FE97FE90000
(1487341903.126315) can0 202#046D78006072166A
(1487341903.127312) can0 204#C0007D05AA000000
(1487341903.127313) can0 230#300600009D000000
(1487341903.127314) can0 082#840814008E804000
(1487341903.127314) can0 085#7F69800024B07F69
(1487341903.128313) can0 3CC#B000000000000000
(1487341903.129316) can0 186#140401F8007205F8
(1487341903.129316) can0 078#0068000000000000
(1487341903.129320) can0 187#DA1408C800900300
(1487341903.130314) can0 091#7ECE7EE44605F000
(1487341903.130315) can0 092#6FAF6F8673701B05
(1487341903.132939) can0 076#3E81C0800FFF0000
(1487341903.133937) can0 077#166C07F97FF801F4
(1487341903.133938) can0 07D#0000F0F0001FC7F5
(1487341903.133939) can0 213#FFFF00040001FF40
(1487341903.133939) can0 214#000000000000F0F0
(1487341903.135063) can0 216#D8BD26A800000000
(1487341903.135063) can0 217#13341334132C1330
(1487341903.135064) can0 3CA#FE7F280C00000000
