(1486049917.468062) vcan0 083#4020000008000000
(1486049917.469050) vcan0 091#7EF27EF47A9DF000
(1486049917.469073) vcan0 082#860814009F804000
(1486049917.469090) vcan0 085#7C47800072307C4B
(1486049917.470065) vcan0 092#6FBB6F8773687E9D
(1486049917.472814) vcan0 217#15541558154C1558
(1486049917.473824) vcan0 047#2000000000000000
(1486049917.473849) vcan0 165#20C3460000000000
(1486049917.473877) vcan0 167#727FD1100019CA00
(1486049917.474795) vcan0 200#00007FD77FD70000
(1486049917.474819) vcan0 202#04FE0800608518E5
(1486049917.474842) vcan0 59E#9E00FFFFFFFFFFFF
(1486049917.474858) vcan0 204#C0007D0341000000
(1486049917.475777) vcan0 230#500600009A000000
(1486049917.475794) vcan0 42F#7D04002E65F60341
(1486049917.475817) vcan0 078#0169800000000000
(1486049917.475837) vcan0 422#0000008F3802FE02
(1486049917.476774) vcan0 423#9360000000000000
(1486049917.476791) vcan0 430#37000CF4C88C7700
(1486049917.476812) vcan0 43A#0000020000000000
(1486049917.477770) vcan0 33B#0000000000000000
(1486049917.478817) vcan0 091#7EF37EF4789EF000
(1486049917.478846) vcan0 085#7C47800071407C4B
(1486049917.479940) vcan0 092#6FC16F8573627F9E
(1486049917.479969) vcan0 186#1405021500850400
(1486049917.479993) vcan0 187#DC1408C800700300
(1486049917.480919) vcan0 3CA#027F07DE00000000
(1486049917.482673) vcan0 3A8#0100271000000000
(1486049917.483703) vcan0 167#727FD1100019CA00
(1486049917.483741) vcan0 076#3E80C0800FFF0000
(1486049917.483769) vcan0 077#18EF07FB7FF801F4
(1486049917.483792) vcan0 07D#0000FA50001F97FF
(1486049917.484683) vcan0 202#04FD1000608518E5
(1486049917.484709) vcan0 204#C0007D0341000000
(1486049917.484726) vcan0 213#FFFF000400020040
(1486049917.484748) vcan0 214#000000000000FA50
(1486049917.485670) vcan0 216#EA1C766A00000000
(1486049917.485695) vcan0 217#15541558154C1554
(1486049917.485717) vcan0 415#18F0E4EB08000800
(1486049917.485739) vcan0 41D#8000600000000000
(1486049917.486690) vcan0 4B0#01008000500040F2
(1486049917.487689) vcan0 242#05B32134DF000001
(1486049917.487720) vcan0 3C3#62C1000000000000
(1486049917.488813) vcan0 091#7EF57EF4759FF000
(1486049917.488845) vcan0 082#860814009F804000
(1486049917.489837) vcan0 085#7C47800070507C4B
(1486049917.489868) vcan0 092#6FBD6F84736A7B9F
(1486049917.489892) vcan0 3CC#3000000000000000
(1486049917.492814) vcan0 217#1550155815501550
(1486049917.493783) vcan0 047#2000000000000000
(1486049917.493802) vcan0 165#20C3460000000000
(1486049917.493840) vcan0 167#727FD1100019CA00
(1486049917.493857) vcan0 200#00007FD77FD70000
(1486049917.494797) vcan0 202#04FA1800608518E7
(1486049917.494823) vcan0 204#C0007D0342000000
(1486049917.494845) vcan0 230#500600009A000000
(1486049917.495792) vcan0 078#0068000000000000
(1486049917.498566) vcan0 091#7EFA7EF370A0F000
(1486049917.499555) vcan0 085#7C4780006F607C4B
(1486049917.499587) vcan0 092#6FB96F85737671A0
(1486049917.499612) vcan0 186#1405021500850400
(1486049917.499629) vcan0 187#DC1408C800700300
(1486049917.500529) vcan0 18A#0020180214000000
(1486049917.502577) vcan0 05A#00000045F0410000
(1486049917.503553) vcan0 3A8#0100271000000000
(1486049917.503601) vcan0 076#3E80C0800FFF0000
(1486049917.503618) vcan0 077#18EE07FB7FF805F3
(1486049917.503642) vcan0 07D#0000F960001FA7FF
(1486049917.504551) vcan0 167#727FD1100019CA00
(1486049917.504569) vcan0 213#FFFF00040001FF40
(1486049917.504592) vcan0 214#000000000000F960
(1486049917.504615) vcan0 202#04F82000608518E8
(1486049917.505531) vcan0 204#C0007D0342000000
(1486049917.505548) vcan0 216#FF328C7F00000000
(1486049917.505571) vcan0 217#1550155815541550
(1486049917.505591) vcan0 261#0000000000000000
(1486049917.506572) vcan0 415#18EBE8EF08000800
(1486049917.506611) vcan0 41D#8000600000000000
(1486049917.506650) vcan0 42F#7D04002E65F60341
(1486049917.506680) vcan0 4B0#01008000600040F1
(1486049917.507677) vcan0 188#4000000000000000
(1486049917.507733) vcan0 42C#8C20000008C00000
(1486049917.508682) vcan0 04A#0200000000000000
(1486049917.508737) vcan0 04B#00C0D8D8D8D8C000
(1486049917.509687) vcan0 04C#105FFFC000000000
(1486049917.509731) vcan0 082#850814009F804000
(1486049917.509762) vcan0 085#7C4780006E707C4B
(1486049917.509789) vcan0 091#7EFA7EF36FA1F000
(1486049917.509843) vcan0 092#6FB66F86737474A1
(1486049917.510671) vcan0 3CA#027F07DE00000000
(1486049917.511681) vcan0 455#A000000000000000
(1486049917.512967) vcan0 047#2000000000000000
(1486049917.513961) vcan0 217#15501558155C1558
(1486049917.514005) vcan0 165#20C3460000000000
(1486049917.514040) vcan0 167#727FD1100019CA00
(1486049917.514071) vcan0 200#00007FD77FD70000
(1486049917.515075) vcan0 202#04F72800608518E8
(1486049917.515118) vcan0 204#C0007D0342000000
(1486049917.515150) vcan0 230#500600009A000000
(1486049917.516068) vcan0 078#0168800000000000
(1486049917.517060) vcan0 3C3#7EC1000000000000
(1486049917.518426) vcan0 186#1404021500850400
(1486049917.519448) vcan0 085#7C4780006D807C4B
(1486049917.519506) vcan0 091#7EF87EF271A2F000
(1486049917.519561) vcan0 092#6FB36F8973687FA2
(1486049917.519612) vcan0 187#DC1408C800700300
(1486049917.520415) vcan0 3CC#3000000000000000
(1486049917.522545) vcan0 3A8#0100271000000000
(1486049917.523568) vcan0 167#727FD1100019CA00
(1486049917.523624) vcan0 076#3E80C0800FFF0000
(1486049917.523674) vcan0 077#18EF07FB7FF7FDF3
(1486049917.524572) vcan0 07D#0000F870001FD801
(1486049917.524630) vcan0 202#04F63000608518E8
(1486049917.524685) vcan0 204#C0007D0342000000
(1486049917.524726) vcan0 213#FFFF00040001FF40
(1486049917.524757) vcan0 214#000000000000F870
(1486049917.525552) vcan0 216#1649A39600000000
(1486049917.525590) vcan0 217#15501558155C1558
(1486049917.525622) vcan0 415#18EBECEE08000800
(1486049917.525655) vcan0 41D#8000600000000000
(1486049917.526557) vcan0 4B0#01008000700040F0
(1486049917.526616) vcan0 3A7#0E423A045F700000
(1486049917.527557) vcan0 242#05B32131DF000001
(1486049917.528691) vcan0 091#7EF87EF270A3F000
(1486049917.529685) vcan0 082#850814009F804000
(1486049917.529722) vcan0 085#7C4780006C907C4B
(1486049917.529760) vcan0 092#6FB66F8973647FA3
(1486049917.532809) vcan0 217#1554155C15601558
(1486049917.533814) vcan0 047#2000000000000000
(1486049917.533854) vcan0 05C#807000F4201E0000
(1486049917.533893) vcan0 165#20C3460000000000
(1486049917.533926) vcan0 167#727FD1100019CA00
(1486049917.534800) vcan0 200#00007FD77FD70000
(1486049917.534835) vcan0 202#04F53800608518E8
(1486049917.534872) vcan0 204#C0007D0342000000
(1486049917.535803) vcan0 230#500600009A000000
(1486049917.535839) vcan0 078#0368800000000000
(1486049917.535875) vcan0 42F#7D04002E65F60342
(1486049917.537800) vcan0 083#4020000008000000
(1486049917.538811) vcan0 2A1#FFFFFFFF00000000
(1486049917.538865) vcan0 091#7F007EF167A4F000
(1486049917.538918) vcan0 186#1404021500850400
(1486049917.538957) vcan0 085#7C4780006BA07C4B
(1486049917.539810) vcan0 092#6FBC6F85736E72A4
(1486049917.539866) vcan0 187#DC1408C800700300
(1486049917.539908) vcan0 33B#0000000000000000
(1486049917.539940) vcan0 454#3646200372204242
(1486049917.540798) vcan0 3CA#027F17DD00000000
(1486049917.542544) vcan0 3A8#0100271000000000
(1486049917.543567) vcan0 167#727FD1100019CA00
(1486049917.543614) vcan0 076#3E80C0800FFF0000
(1486049917.543665) vcan0 077#18F007FB7FF7FDF4
(1486049917.544572) vcan0 07D#0000F780001F8800
(1486049917.544630) vcan0 202#04F34000608518E9
(1486049917.544675) vcan0 204#C0007D0342000000
(1486049917.544725) vcan0 213#FFFF000400020040
(1486049917.544757) vcan0 214#000000000000F780
(1486049917.545678) vcan0 216#2C5EB8AC00000000
(1486049917.545719) vcan0 217#155415601560155C
(1486049917.545755) vcan0 415#18F0F0E808000800
(1486049917.545788) vcan0 416#5C00F20001000000
(1486049917.546677) vcan0 41D#8000600000000000
(1486049917.546713) vcan0 4B0#01008000800030F1
(1486049917.548551) vcan0 091#7F0C7EF15AA5F000
(1486049917.549559) vcan0 082#850814009F804000
(1486049917.549605) vcan0 085#7C4780006AB07C4B
(1486049917.549659) vcan0 092#6FBC6F82737F63A5
(1486049917.549711) vcan0 3CC#3000000000000000
(1486049917.551942) vcan0 05D#8357AF6032000000
(1486049917.552942) vcan0 217#15581560155C155C
(1486049917.553919) vcan0 047#2000000000000000
(1486049917.553965) vcan0 3A6#0E401A045F700000
(1486049917.554016) vcan0 165#20C3460000000000
(1486049917.554056) vcan0 167#727FD1100019CA00
(1486049917.554941) vcan0 178#000002000E78CA78
(1486049917.554990) vcan0 200#00007FD77FD70000
(1486049917.555041) vcan0 202#04F24800608518E9
(1486049917.555926) vcan0 204#C0007D0342000000
(1486049917.555962) vcan0 078#0468000000000000
(1486049917.555998) vcan0 230#500600009A000000
(1486049917.556030) vcan0 261#0000000000000000
(1486049917.557298) vcan0 42C#8C20000008C00000
(1486049917.558307) vcan0 091#7F167EF14FA6F000
(1486049917.559320) vcan0 186#1404021400850400
(1486049917.559379) vcan0 085#7C47800069C07C4B
(1486049917.559432) vcan0 092#6FB86F83738F55A6
(1486049917.559484) vcan0 187#DB1408C800800300
(1486049917.562700) vcan0 3A8#0100271000000000
(1486049917.563666) vcan0 076#3E80C0800FFF0000
(1486049917.563699) vcan0 077#18F107FA7FF805F2
(1486049917.563731) vcan0 07D#0000F69000200807
(1486049917.564699) vcan0 167#727FD1100019CA00
(1486049917.564732) vcan0 202#04F05000608518EA
(1486049917.564766) vcan0 213#FFFF000400020040
(1486049917.564788) vcan0 214#000000000000F690
(1486049917.565657) vcan0 204#C0007D0342000000
(1486049917.565681) vcan0 216#4174CEC100000000
(1486049917.565708) vcan0 217#1558156015541560
(1486049917.565732) vcan0 415#18F4F4E308000800
(1486049917.565757) vcan0 41D#8000600000000000
(1486049917.566653) vcan0 42F#7D04002E65F60342
(1486049917.566676) vcan0 4B0#01008000900030F0
(1486049917.567653) vcan0 242#05B32131DF000001
(1486049917.568660) vcan0 091#7F1C7EF247A7F000
(1486049917.568693) vcan0 092#6FB66F8573954EA7
(1486049917.569673) vcan0 082#860814009F804000
(1486049917.569702) vcan0 085#7C47800068D07C4B
(1486049917.570792) vcan0 3CA#027F17DD00000000
(1486049917.572920) vcan0 047#2000000000000000
(1486049917.573919) vcan0 217#1558156415541560
(1486049917.573952) vcan0 165#20C3460000000000
(1486049917.573981) vcan0 167#727FD1100019CA00
(1486049917.574007) vcan0 200#00007FD77FD70000
(1486049917.574937) vcan0 202#04ED5800608518EC
(1486049917.574977) vcan0 204#C0007D0342000000
(1486049917.575007) vcan0 230#500600009A000000
(1486049917.575928) vcan0 078#0169800000000000
(1486049917.575958) vcan0 422#0000008F3802FE02
(1486049917.575981) vcan0 423#9360000000000000
(1486049917.576003) vcan0 430#3F000CF4E88C7700
(1486049917.576937) vcan0 431#057B00C609800002
(1486049917.577958) vcan0 186#1404021400850400
(1486049917.579063) vcan0 187#DB1408C800800300
(1486049917.579094) vcan0 091#7F1C7EF444A8F000
(1486049917.579119) vcan0 085#7C47800067E07C4B
(1486049917.579141) vcan0 092#6FB56F88738C54A8
(1486049917.580030) vcan0 3CC#3000000000000000
(1486049917.581020) vcan0 265#2001010410000000
(1486049917.581041) vcan0 453#3257364570646166
(1486049917.582587) vcan0 3A8#0100271000000000
(1486049917.583581) vcan0 167#727FD1100019CA00
(1486049917.583616) vcan0 076#3E80C0800FFF0000
(1486049917.583641) vcan0 077#18F207FB7FF7FDF3
(1486049917.584548) vcan0 07D#0000F5A00020680C
(1486049917.584582) vcan0 202#04EB6000608518ED
(1486049917.584608) vcan0 204#C0007D0343000000
(1486049917.584634) vcan0 213#FFFF000400020040
(1486049917.585525) vcan0 214#000000000000F5A0
(1486049917.585552) vcan0 216#588BE4D600000000
(1486049917.585576) vcan0 217#155815601550155C
(1486049917.585599) vcan0 415#18F4F8E208000800
(1486049917.586527) vcan0 41D#8000600000000000
(1486049917.586550) vcan0 4B0#01008000A00040ED
(1486049917.588528) vcan0 091#7F107EF44FA9F000
(1486049917.589540) vcan0 082#860814009F804000
(1486049917.589564) vcan0 085#7C47800066F07C4B
(1486049917.589589) vcan0 092#6FB26F8873845EA9
(1486049917.592847) vcan0 217#155815601550155C
(1486049917.593797) vcan0 047#2000000000000000
(1486049917.593852) vcan0 165#20C3460000000000
(1486049917.593886) vcan0 167#727FD1100019CA00
(1486049917.594785) vcan0 200#00007FD77FD70000
(1486049917.594809) vcan0 202#04E96800608518EE
(1486049917.594832) vcan0 204#C0007D0343000000
(1486049917.594852) vcan0 230#500600009A000000
(1486049917.595782) vcan0 42F#7D04002E65F60342
(1486049917.595807) vcan0 078#0168800000000000
(1486049917.597843) vcan0 186#1407021300850400
(1486049917.598800) vcan0 187#DB1408C800800300
(1486049917.598833) vcan0 18A#0020180214000000
(1486049917.598862) vcan0 33B#0000000000000000
(1486049917.598889) vcan0 085#7C47800075007C4B
(1486049917.599795) vcan0 091#7EFC7EF463AAF000
(1486049917.599826) vcan0 092#6FAF6F8873865EAA
(1486049917.600806) vcan0 3CA#027F17DD00000000
(1486049917.602593) vcan0 05A#00000045E6E10000
(1486049917.603575) vcan0 3A8#0100271000000000
(1486049917.603661) vcan0 076#3E80C0800FFF0000
(1486049917.603695) vcan0 077#18F307FB7FF7F9F4
(1486049917.603729) vcan0 07D#0000F4B000201808
(1486049917.604548) vcan0 167#727FD1100019CA00
(1486049917.604585) vcan0 202#04E87000608518EE
(1486049917.604631) vcan0 213#FFFF000400020140
(1486049917.604676) vcan0 214#000000000000F4B0
(1486049917.605556) vcan0 204#C0007D0343000000
(1486049917.605600) vcan0 216#6EA0FAED00000000
(1486049917.605642) vcan0 217#1554155C15541558
(1486049917.605671) vcan0 261#0000000000000000
(1486049917.606564) vcan0 415#18F3FCE208000800
(1486049917.606594) vcan0 41D#8000600000000000
(1486049917.606612) vcan0 4B0#01008000B00040EC
(1486049917.607691) vcan0 242#05B3212FDF000001
(1486049917.608693) vcan0 40A#C000000740C39E00
(1486049917.608733) vcan0 42C#8C20000008C00000
(1486049917.608767) vcan0 04A#0200000000000000
(1486049917.608803) vcan0 04B#00C0D8D8D8D8C000
(1486049917.609701) vcan0 04C#105FFFC000000000
(1486049917.609733) vcan0 082#850814009F804000
(1486049917.609770) vcan0 085#7C47800074107C4B
(1486049917.609802) vcan0 091#7EEB7EF473ABF000
(1486049917.610690) vcan0 092#6FB06F8773885BAB
(1486049917.610726) vcan0 3CC#3000000000000000
(1486049917.611680) vcan0 455#A000000000000000
(1486049917.612929) vcan0 047#2000000000000000
(1486049917.613975) vcan0 217#1554156015581558
(1486049917.614021) vcan0 165#20C3460000000000
(1486049917.614048) vcan0 167#727FD1100019CA00
(1486049917.614071) vcan0 200#00007FD77FD70000
(1486049917.614979) vcan0 202#04E67800608518EF
(1486049917.615024) vcan0 204#C0007D0343000000
(1486049917.615051) vcan0 230#500600009A000000
(1486049917.615943) vcan0 078#0068000000000000
(1486049917.617709) vcan0 186#1406021300850400
(1486049917.618813) vcan0 187#DB1408C800800300
(1486049917.618855) vcan0 085#7C47800073207C4B
(1486049917.619705) vcan0 091#7ED97EF484ACF000
(1486049917.619742) vcan0 092#6FB46F8573855BAC
(1486049917.622595) vcan0 3A8#0100271000000000
(1486049917.623693) vcan0 167#727FD1100019CA00
(1486049917.623735) vcan0 076#3E80C0800FFF0000
(1486049917.623758) vcan0 077#18F407FB7FF7F9F4
(1486049917.624601) vcan0 07D#0000F3C0002037FE
(1486049917.624648) vcan0 202#04F50000608518EF
(1486049917.624685) vcan0 204#C0007D0343000000
(1486049917.624710) vcan0 213#FFFF000400020040
(1486049917.625571) vcan0 214#000000000000F3C0
(1486049917.625606) vcan0 216#83B60F0300000000
(1486049917.625637) vcan0 217#15501560155C1558
(1486049917.625667) vcan0 415#18EFC0F508000800
(1486049917.626538) vcan0 41D#8000600000000000
(1486049917.626563) vcan0 42F#7D04002E65F60343
(1486049917.626598) vcan0 4B0#01008000C00040EB
(1486049917.628564) vcan0 082#840814009F804000
(1486049917.629598) vcan0 085#7C47800072307C4B
(1486049917.629647) vcan0 091#7ECA7EF492ADF000
(1486049917.629685) vcan0 092#6FBB6F81738953AD
(1486049917.630596) vcan0 3CA#027F17DD00000000
(1486049917.632852) vcan0 217#15541564155C1558
(1486049917.633941) vcan0 047#2000000000000000
(1486049917.633983) vcan0 05C#801000FA201E0000
(1486049917.634023) vcan0 165#20C3460000000000
(1486049917.634050) vcan0 167#727FD1100019CA00
(1486049917.634822) vcan0 200#00007FD77FD70000
(1486049917.634847) vcan0 202#04F40800608518EF
(1486049917.634882) vcan0 204#C0007D0343000000
(1486049917.635815) vcan0 230#500600009A000000
(1486049917.635841) vcan0 078#0168800000000000
(1486049917.637569) vcan0 186#1406021300850400
(1486049917.638690) vcan0 187#DB1408C800800300
(1486049917.638735) vcan0 083#4020000008000000
(1486049917.638764) vcan0 2A1#FFFFFFFF00000000
(1486049917.639694) vcan0 085#7C47800071407C4B
(1486049917.639751) vcan0 091#7EC07EF49BAEF000
(1486049917.639789) vcan0 092#6FC06F7F73993FAE
(1486049917.639824) vcan0 3CC#3000000000000000
(1486049917.642690) vcan0 3A8#0100271000000000
(1486049917.643737) vcan0 167#727FD1100019CA00
(1486049917.643773) vcan0 076#3E80C0800FFF0000
(1486049917.643798) vcan0 077#18F407FB7FF801F2
(1486049917.643840) vcan0 07D#0000F2D0002037F4
(1486049917.644729) vcan0 202#04F31000608518EF
(1486049917.644778) vcan0 204#C0007D0343000000
(1486049917.644805) vcan0 213#FFFF000400020040
(1486049917.644829) vcan0 214#000000000000F2D0
(1486049917.645689) vcan0 216#9ACB261800000000
(1486049917.645732) vcan0 217#1554156015601558
(1486049917.645766) vcan0 415#18F3C4F008000800
(1486049917.645799) vcan0 416#5D00F10001000000
(1486049917.646678) vcan0 41D#8000600000000000
(1486049917.646704) vcan0 4B0#01008000D00040EA
(1486049917.647852) vcan0 084#1100002125270A00
(1486049917.648831) vcan0 242#05B3212EDF000001
(1486049917.648872) vcan0 091#7EB87EF4A2AFF000
(1486049917.648907) vcan0 082#840814009F804000
(1486049917.649829) vcan0 085#7C47800070507C4B
(1486049917.649867) vcan0 092#6FBD6F8073A732AF
(1486049917.652066) vcan0 05D#8357976038000000
(1486049917.652924) vcan0 217#155415601560155C
(1486049917.653910) vcan0 047#2000000000000000
(1486049917.653937) vcan0 165#20C3460000000000
(1486049917.653961) vcan0 167#727FD1100019CA00
(1486049917.654898) vcan0 178#000002000E78CA78
(1486049917.654921) vcan0 200#00007FD77FD70000
(1486049917.655923) vcan0 202#04F21800608518EF
(1486049917.655960) vcan0 078#0568800000000000
(1486049917.655993) vcan0 204#C0007D0343000000
(1486049917.656016) vcan0 230#500600009A000000
(1486049917.656938) vcan0 261#0000000000000000
(1486049917.658070) vcan0 42C#8C20000008C00000
(1486049917.658096) vcan0 42F#7D04002E65F60343
(1486049917.658118) vcan0 186#1408021300850400
(1486049917.658153) vcan0 187#DA1408C800900300
(1486049917.658187) vcan0 33B#0000000000000000
(1486049917.659079) vcan0 085#7C4780006F607C4B
(1486049917.659127) vcan0 091#7EB07EF4A9B0F000
(1486049917.659164) vcan0 092#6FB86F8373A03AB0
(1486049917.660078) vcan0 3D8#0000000080C43030
(1486049917.661078) vcan0 3CA#027F37D900000000
(1486049917.661125) vcan0 3CD#0000000000000000
(1486049917.662581) vcan0 3A8#0100271000000000
(1486049917.663628) vcan0 167#727FD1100019CA00
(1486049917.663689) vcan0 076#3E80C0800FFF0000
(1486049917.663740) vcan0 077#18F507FB7FF805F2
(1486049917.664585) vcan0 07D#0000F1E00020B7EE
(1486049917.664613) vcan0 202#04F12000608518EF
(1486049917.664635) vcan0 204#C0007D0343000000
(1486049917.664654) vcan0 213#FFFF000400020040
(1486049917.665566) vcan0 214#000000000000F1E0
(1486049917.665609) vcan0 216#B0E23C2F00000000
(1486049917.665645) vcan0 217#1558156015601560
(1486049917.665680) vcan0 415#18F1C8F108000800
(1486049917.666534) vcan0 41D#8000600000000000
(1486049917.666559) vcan0 4B0#01008000E00040E9
(1486049917.668594) vcan0 091#7EAD7EF4ABB1F000
(1486049917.669692) vcan0 082#830814009F804000
(1486049917.669749) vcan0 085#7C4780006E707C4B
(1486049917.669788) vcan0 092#6FB66F8673894FB1
(1486049917.669853) vcan0 3CC#3000000000000000
(1486049917.672855) vcan0 217#15581560155C1560
(1486049917.673859) vcan0 047#2000000000000000
(1486049917.673894) vcan0 165#20C3460000000000
(1486049917.673922) vcan0 167#727FD1100019CA00
(1486049917.673945) vcan0 200#00007FD77FD70000
(1486049917.674817) vcan0 202#04F02800608518EF
(1486049917.674857) vcan0 204#C0007D0343000000
(1486049917.674881) vcan0 230#500600009A000000
(1486049917.675816) vcan0 078#0069000000000000
(1486049917.675852) vcan0 422#0000008F3802FE02
(1486049917.675876) vcan0 423#9360000000000000
(1486049917.675897) vcan0 430#37000CF4C88C7700
(1486049917.677197) vcan0 186#140A021200850400
(1486049917.678219) vcan0 187#DA1408C800900300
(1486049917.679221) vcan0 091#7EB47EF4A3B2F000
(1486049917.679270) vcan0 085#7C4780006D807C4B
(1486049917.679308) vcan0 092#6FB76F86737660B2
(1486049917.682726) vcan0 3A8#0100271000000000
(1486049917.683812) vcan0 167#727FD1100019CA00
(1486049917.683850) vcan0 076#3E80C0800FFF0000
(1486049917.683874) vcan0 077#18F507FB7FF7FDF3
(1486049917.683917) vcan0 07D#0000F0F0002037EB
(1486049917.684733) vcan0 202#04EF3000608518EF
(1486049917.684780) vcan0 204#C0007D0343000000
(1486049917.684808) vcan0 213#FFFF000400020140
(1486049917.684843) vcan0 214#000000000000F0F0
(1486049917.685695) vcan0 216#C5F7514500000000
(1486049917.685732) vcan0 217#1554156015541560
(1486049917.685766) vcan0 415#18F5CCEC08000800
(1486049917.685799) vcan0 41D#8000600000000000
(1486049917.686685) vcan0 42F#7D04002E65F60343
(1486049917.686709) vcan0 4B0#01008000F00040E8
(1486049917.687702) vcan0 242#05B32130DF000001
(1486049917.688943) vcan0 091#7EBE7EF498B3F000
(1486049917.688998) vcan0 082#830814009F804000
(1486049917.689874) vcan0 085#7C4780006C907C4B
(1486049917.689921) vcan0 092#6FB86F8473775FB3
(1486049917.690843) vcan0 3CA#027F37D900000000
(1486049917.692967) vcan0 047#2000000000000000
(1486049917.693972) vcan0 217#1554156015501560
(1486049917.694019) vcan0 165#20C3460000000000
(1486049917.694048) vcan0 167#727FD1100019CA00
(1486049917.694072) vcan0 200#00007FD77FD70000
(1486049917.695069) vcan0 202#04ED3800608518F0
(1486049917.695125) vcan0 204#C0007D0343000000
(1486049917.695153) vcan0 230#500600009A000000
(1486049917.695953) vcan0 078#0168800000000000
(1486049917.697052) vcan0 186#140B021200850400
(1486049917.698096) vcan0 187#DA1408C800900300
(1486049917.698128) vcan0 18A#0020180214000000
(1486049917.699188) vcan0 091#7ECB7EF48AB4F000
(1486049917.699243) vcan0 085#7C4780006BA07C4B
(1486049917.699281) vcan0 092#6FBE6F8373824EB4
(1486049917.700094) vcan0 3CC#3000000000000000
(1486049917.702683) vcan0 05A#00000045EC810000
(1486049917.703700) vcan0 3A8#0100271000000000
(1486049917.703777) vcan0 076#3E80C0800FFF0000
(1486049917.703803) vcan0 077#18F607FB7FF7FDF3
(1486049917.703843) vcan0 07D#0000FF00001FD7F0
(1486049917.704691) vcan0 167#727FD1100019CA00
(1486049917.704730) vcan0 202#04EC4000608518F0
(1486049917.704772) vcan0 213#FFFF000400020040
(1486049917.704809) vcan0 214#000000000000FF00
(1486049917.705696) vcan0 204#C0007D0343000000
(1486049917.705733) vcan0 216#DC0D685A00000000
(1486049917.705776) vcan0 217#1558155C1550155C
(1486049917.705835) vcan0 261#0000000000000000
(1486049917.706566) vcan0 415#18F1D0EF08000800
(1486049917.706603) vcan0 41D#8000600000000000
(1486049917.706627) vcan0 4B0#01008000000040F7
(1486049917.708200) vcan0 04A#0200000000000000
(1486049917.709206) vcan0 04B#00C0D8D8D8D8C000
(1486049917.709253) vcan0 04C#105FFFC000000000
(1486049917.709289) vcan0 082#840814009F804000
(1486049917.709336) vcan0 085#7C4780006AB07C4B
(1486049917.710209) vcan0 091#7ED97EF47BB5F000
(1486049917.710296) vcan0 092#6FC36F8173814BB5
(1486049917.710346) vcan0 42C#8C20000008C00000
(1486049917.711421) vcan0 455#A000000000000000
(1486049917.712897) vcan0 047#2000000000000000
(1486049917.713941) vcan0 217#1554155C15541558
(1486049917.713977) vcan0 165#20C3460000000000
(1486049917.714002) vcan0 167#727FD1100019CA00
(1486049917.714024) vcan0 200#00007FD77FD70000
(1486049917.714934) vcan0 202#04EB4800608518F0
(1486049917.714968) vcan0 204#C0007D0343000000
(1486049917.714992) vcan0 230#500600009A000000
(1486049917.715914) vcan0 42F#7D04002E65F60343
(1486049917.715945) vcan0 078#0168800000000000
(1486049917.716893) vcan0 186#140C021200850400
(1486049917.717947) vcan0 187#DA1408C800900300
(1486049917.718002) vcan0 33B#0000000000000000
(1486049917.719043) vcan0 091#7EE07EF473B6F000
(1486049917.719077) vcan0 085#7C47800069C07C4B
(1486049917.719104) vcan0 092#6FBD6F7F73765DB6
(1486049917.720042) vcan0 3CA#027F37D900000000
(1486049917.722675) vcan0 3A8#0100271000000000
(1486049917.723812) vcan0 167#727FD1100019CA00
(1486049917.723834) vcan0 076#3E80C0800FFF0000
(1486049917.723851) vcan0 077#18F607FB7FF809F2
(1486049917.723878) vcan0 07D#0000FE10002007F8
(1486049917.724789) vcan0 202#04EA5000608518F0
(1486049917.724812) vcan0 204#C0007D0343000000
(1486049917.724828) vcan0 213#FFFF000400020040
(1486049917.724844) vcan0 214#000000000000FE10
(1486049917.725788) vcan0 216#F1247E7100000000
(1486049917.725831) vcan0 217#1550155C15541554
(1486049917.725854) vcan0 415#18F0D4EF08000800
(1486049917.725876) vcan0 41D#8000600000000000
(1486049917.726786) vcan0 4B0#01008000100040F6
(1486049917.726810) vcan0 3A7#0E423A045F700000
(1486049917.727812) vcan0 242#05B3212FDF000001
(1486049917.728794) vcan0 091#7EE57EF46DB7F000
(1486049917.728832) vcan0 082#830814009F804000
(1486049917.729819) vcan0 085#7C47800068D07C4B
(1486049917.729853) vcan0 092#6FB46F7D73706DB7
(1486049917.729877) vcan0 3CC#3000000000000000
(1486049917.732830) vcan0 217#154C155815541554
(1486049917.733834) vcan0 047#2000000000000000
(1486049917.733860) vcan0 05C#80B000F0201E0000
(1486049917.733888) vcan0 165#20C3460000000000
(1486049917.733906) vcan0 167#727FD1100019CA00
(1486049917.734813) vcan0 200#00007FD77FD70000
(1486049917.734835) vcan0 202#04E95800608518F0
(1486049917.734862) vcan0 204#C0007D0343000000
(1486049917.734880) vcan0 230#500600009A000000
(1486049917.735804) vcan0 078#0068000000000000
(1486049917.736914) vcan0 186#140C021200850400
(1486049917.737911) vcan0 187#DA1408C800900300
(1486049917.737932) vcan0 083#4020000008000000
(1486049917.738902) vcan0 2A1#FFFFFFFF00000000
(1486049917.738919) vcan0 091#7EE47EF46DB8F000
(1486049917.738947) vcan0 085#7C47800067E07C4B
(1486049917.738971) vcan0 092#6FAE6F7D73736FB8
(1486049917.742600) vcan0 3A8#0100271000000000
(1486049917.743536) vcan0 167#727FD1100019CA00
(1486049917.743557) vcan0 076#3E80C0800FFF0000
(1486049917.743574) vcan0 077#18F407FB7FF7FDF1
(1486049917.744552) vcan0 07D#0000FD20001FC7FC
(1486049917.744595) vcan0 202#04E96000608518EF
(1486049917.744622) vcan0 204#C0007D0343000000
(1486049917.744639) vcan0 213#FFFF00040001FF40
(1486049917.744660) vcan0 214#000000000000FD20
(1486049917.745541) vcan0 216#0739938700000000
(1486049917.745569) vcan0 217#154C1558155C1554
(1486049917.745592) vcan0 415#18E8D8F608000800
(1486049917.745614) vcan0 416#5E00F00001000000
(1486049917.746687) vcan0 41D#8000600000000000
(1486049917.746725) vcan0 42F#7D04002E65F60343
(1486049917.746757) vcan0 4B0#01008000200040F5
(1486049917.748182) vcan0 091#7ED97EF477B9F000
(1486049917.749180) vcan0 092#6FAC6F7E73776BB9
(1486049917.749211) vcan0 082#820814009F804000
(1486049917.749236) vcan0 085#7C47800066F07C4B
(1486049917.750331) vcan0 3CA#027F37D900000000
(1486049917.751966) vcan0 05D#8357BF5F2F000000
(1486049917.752930) vcan0 217#154C1558155C1554
(1486049917.753954) vcan0 047#2000000000000000
(1486049917.753995) vcan0 3A6#0E401A045F700000
(1486049917.754026) vcan0 165#20C3460000000000
(1486049917.754058) vcan0 167#727FD1100019CA00
(1486049917.754946) vcan0 178#000001FF0E78CA78
(1486049917.754993) vcan0 200#00007FD77FD70000
(1486049917.755022) vcan0 202#04E96800608518EE
(1486049917.755917) vcan0 204#C0007D0343000000
(1486049917.755942) vcan0 078#0568800000000000
(1486049917.755964) vcan0 230#500600009A000000
(1486049917.755984) vcan0 261#0000000000000000
(1486049917.756930) vcan0 186#140C021200850400
(1486049917.756964) vcan0 187#D91408C800A00300
(1486049917.757913) vcan0 42C#8C20000008C00000
(1486049917.758903) vcan0 091#7EC37EF48CBAF000
(1486049917.758932) vcan0 085#7C47800075007C4B
(1486049917.758956) vcan0 092#6FAE6F7D73736DBA
(1486049917.760016) vcan0 3CC#3000000000000000
(1486049917.762924) vcan0 3A8#0100271000000000
(1486049917.763973) vcan0 076#3E80C0800FFF0000
(1486049917.764023) vcan0 077#18F407FB7FF7F5F1
(1486049917.764067) vcan0 07D#0000FC30001FD7F8
(1486049917.764103) vcan0 167#727FD1100019CA00
(1486049917.764929) vcan0 202#04E97000608518ED
(1486049917.764968) vcan0 204#C0007D0342000000
(1486049917.765001) vcan0 213#FFFF00040001FF40
(1486049917.765031) vcan0 214#000000000000FC30
(1486049917.765921) vcan0 216#1E4FA99C00000000
(1486049917.765949) vcan0 217#154C155415601554
(1486049917.765972) vcan0 415#18E7DCF608000800
(1486049917.765993) vcan0 41D#8000600000000000
(1486049917.766897) vcan0 4B0#01008000300040F4
(1486049917.767933) vcan0 242#05B32132DF000001
(1486049917.768948) vcan0 091#7EB07EF49EBBF000
(1486049917.768974) vcan0 082#810814009F804000
(1486049917.768998) vcan0 085#7C47800074107C4B
(1486049917.770095) vcan0 092#6FB66F7E736076BB
(1486049917.772934) vcan0 217#154C155815601558
(1486049917.773872) vcan0 047#2000000000000000
(1486049917.773906) vcan0 165#20C3460000000000
(1486049917.773931) vcan0 167#727FD1100019CA00
(1486049917.774830) vcan0 200#00007FD77FD70000
(1486049917.774874) vcan0 202#04EA7800608518EB
(1486049917.774919) vcan0 204#C0007D0342000000
(1486049917.774962) vcan0 230#500600009A000000
(1486049917.775826) vcan0 078#0169800000000000
(1486049917.775862) vcan0 422#0000008F3802FE02
(1486049917.775886) vcan0 423#9360000000000000
(1486049917.775910) vcan0 42F#7D04002E65F60343
(1486049917.776953) vcan0 430#37000CF4C88CF700
(1486049917.776988) vcan0 186#140C021200850400
(1486049917.777014) vcan0 187#D91408C800A00300
(1486049917.777949) vcan0 33B#0000000000000000
(1486049917.779079) vcan0 091#7EA97EF4A4BCF000
(1486049917.779112) vcan0 085#7C47800073207C4B
(1486049917.779138) vcan0 092#6FBE6F7D734985BC
(1486049917.780100) vcan0 3CA#027F47D800000000
(1486049917.782725) vcan0 3A8#0100271000000000
(1486049917.783729) vcan0 167#727FD1100019CA00
(1486049917.783762) vcan0 076#3E80C0800FFF0000
(1486049917.783789) vcan0 077#18F407FB7FF7FDF1
(1486049917.783813) vcan0 07D#0000FB40001F77EC
(1486049917.784729) vcan0 202#04FA0000608518EA
(1486049917.784763) vcan0 204#C0007D0342000000
(1486049917.784786) vcan0 213#FFFF00040001FF40
(1486049917.784809) vcan0 214#000000000000FB40
(1486049917.785729) vcan0 216#3366C0B300000000
(1486049917.785762) vcan0 217#154C1554155C1558
(1486049917.785788) vcan0 415#18E6E0F608000800
(1486049917.785829) vcan0 41D#8000600000000000
(1486049917.786724) vcan0 4B0#01008000400040F3
(1486049917.788201) vcan0 091#7EB07EF49CBDF000
(1486049917.789203) vcan0 092#6FC26F7A734785BD
(1486049917.789236) vcan0 082#7F0814009F804000
(1486049917.789262) vcan0 085#7C46800074307C4A
(1486049917.790226) vcan0 3CC#3000000000000000
(1486049917.792842) vcan0 217#154C155815541558
(1486049917.793936) vcan0 047#2000000000000000
(1486049917.793978) vcan0 165#20C3460000000000
(1486049917.794002) vcan0 167#727FD1100019CA00
(1486049917.794943) vcan0 200#00007FD77FD70000
(1486049917.794980) vcan0 202#04FA0800608518E9
(1486049917.795006) vcan0 204#C0007D0342000000
(1486049917.795936) vcan0 230#500600009A000000
(1486049917.795973) vcan0 078#0068000000000000
(1486049917.796935) vcan0 186#1410021100850400
(1486049917.796976) vcan0 187#D91408C800A00300
(1486049917.797869) vcan0 18A#0020180214000000
(1486049917.798970) vcan0 091#7EBB7EF490BEF000
(1486049917.799004) vcan0 085#7C46800072407C4B
(1486049917.799975) vcan0 092#6FC06F7873636CBE
(1486049917.802684) vcan0 05A#00000045F2210000
(1486049917.803691) vcan0 3A8#0100271000000000
(1486049917.803768) vcan0 076#3E80C0800FFF0000
(1486049917.803793) vcan0 077#18F407FB7FF809F0
(1486049917.803819) vcan0 07D#0000FA50001F07EC
(1486049917.804600) vcan0 167#727FD1100019CA00
(1486049917.804632) vcan0 202#04FA1000608518E8
(1486049917.804659) vcan0 213#FFFF00040001FF40
(1486049917.804682) vcan0 214#000000000000FA50
(1486049917.805600) vcan0 204#C0007D0342000000
(1486049917.805634) vcan0 216#497BD5C800000000
(1486049917.805662) vcan0 217#154C155815501558
(1486049917.805687) vcan0 261#0000000000000000
(1486049917.806707) vcan0 415#18E8E4F308000800
(1486049917.806741) vcan0 41D#8000600000000000
(1486049917.806766) vcan0 4B0#01008000500040F2
(1486049917.806792) vcan0 42F#7D04002E65F60342
(1486049917.807823) vcan0 242#05B32132DF000001
(1486049917.808829) vcan0 3B3#4048020F10050002
(1486049917.808862) vcan0 40A#C100334641365030
(1486049917.808888) vcan0 42C#8C20000008C00000
(1486049917.808911) vcan0 04A#0200000000000000
(1486049917.809871) vcan0 04B#00C0D8D8D8D8C000
(1486049917.809903) vcan0 04C#105FFFC000000000
(1486049917.809928) vcan0 082#7C0814009F804000
(1486049917.809953) vcan0 085#7C46800071507C4B
(1486049917.810852) vcan0 091#7EC47EF486BFF000
(1486049917.810886) vcan0 092#6FBA6F7873864EBF
(1486049917.810912) vcan0 3CA#027F47D800000000
(1486049917.811824) vcan0 455#A000000000000000
(1486049917.812975) vcan0 047#2000000000000000
(1486049917.814063) vcan0 217#154C155415501558
(1486049917.814103) vcan0 165#20C3460000000000
(1486049917.814127) vcan0 167#727FD1100019CA00
(1486049917.814151) vcan0 200#00007FD77FD70000
(1486049917.815063) vcan0 202#04F91800608518E8
(1486049917.815103) vcan0 204#C0007D0341000000
(1486049917.815132) vcan0 230#500600009A000000
(1486049917.816059) vcan0 078#0168800000000000
(1486049917.816972) vcan0 186#140F021100850400
(1486049917.817007) vcan0 187#D91408C800A00300
(1486049917.818607) vcan0 085#7C46800070607C4B
(1486049917.819596) vcan0 091#7EC57EF484C0F000
(1486049917.819629) vcan0 092#6FB36F7C739442C0
(1486049917.819655) vcan0 3CC#3000000000000000
(1486049917.822714) vcan0 3A8#0100271000000000
(1486049917.823691) vcan0 167#727FD1100019CA00
(1486049917.823723) vcan0 076#3E80C0800FFF0000
(1486049917.823748) vcan0 077#18F307FB7FF801F0
(1486049917.823773) vcan0 07D#0000F960002027F2
(1486049917.824728) vcan0 202#04F82000608518E8
(1486049917.824761) vcan0 204#C0007D0341000000
(1486049917.824784) vcan0 213#FFFF00040001FF40
(1486049917.824806) vcan0 214#000000000000F960
(1486049917.825728) vcan0 216#5E91EBDE00000000
(1486049917.825763) vcan0 217#1550155415501560
(1486049917.825792) vcan0 415#18E8E8F208000800
(1486049917.825834) vcan0 41D#8000600000000000
(1486049917.826682) vcan0 4B0#01008000600040F1
(1486049917.828559) vcan0 091#7EC17EF487C1F000
(1486049917.829597) vcan0 082#7E0814009F804000
(1486049917.829631) vcan0 085#7C45800071707C4A
(1486049917.829658) vcan0 092#6FB16F83737957C1
(1486049917.832850) vcan0 217#154C155415541554
(1486049917.833838) vcan0 047#2000000000000000
(1486049917.833872) vcan0 05C#805000F6201E0000
(1486049917.833898) vcan0 165#20C3460000000000
(1486049917.833922) vcan0 167#727FD1100019CA00
(1486049917.834845) vcan0 200#00007FD77FD70000
(1486049917.834878) vcan0 202#04F82800608518E7
(1486049917.834905) vcan0 204#C0007D0341000000
(1486049917.835843) vcan0 078#0168800000000000
(1486049917.835875) vcan0 230#500600009A000000
(1486049917.835900) vcan0 42F#7D04002E65F60342
(1486049917.836950) vcan0 186#140F021100850400
(1486049917.836983) vcan0 187#D91408C800A00300
(1486049917.837975) vcan0 083#4020000008000000
(1486049917.838971) vcan0 2A1#FFFFFFFF00000000
(1486049917.839003) vcan0 33B#0000000000000000
(1486049917.839031) vcan0 085#7C4580006F807C4B
(1486049917.839056) vcan0 091#7EB77EF490C2F000
(1486049917.839969) vcan0 092#6FB36F87734782C2
(1486049917.840002) vcan0 3CA#027F47D800000000
(1486049917.842592) vcan0 3A8#0100271000000000
(1486049917.843596) vcan0 167#727FD1100019CA00
(1486049917.843628) vcan0 076#3E80C0800FFF0000
(1486049917.843650) vcan0 077#18F207FB7FF7F9F3
(1486049917.844688) vcan0 07D#0000F870001FE7F1
(1486049917.844727) vcan0 202#04F73000608518E7
(1486049917.844756) vcan0 204#C0007D0341000000
(1486049917.844780) vcan0 213#FFFF00040001FF40
(1486049917.845691) vcan0 214#000000000000F870
(1486049917.845731) vcan0 216#75A601F300000000
(1486049917.845760) vcan0 217#154C155015581554
(1486049917.845784) vcan0 415#18E5ECF408000800
(1486049917.845837) vcan0 416#5F00EF0001000000
(1486049917.846596) vcan0 41D#8000600000000000
(1486049917.846628) vcan0 4B0#01008000700040F0
(1486049917.847593) vcan0 242#05B32133DF000001
(1486049917.848726) vcan0 091#7EAE7EF19BC3F000
(1486049917.849721) vcan0 082#7E0814009F804000
(1486049917.849753) vcan0 085#7C4580006E907C4B
(1486049917.849779) vcan0 092#6FB46F86732A9EC3
(1486049917.849814) vcan0 3CC#3000000000000000
(1486049917.852059) vcan0 05D#8357A75F35000000
(1486049917.852935) vcan0 217#1548155415581558
(1486049917.853907) vcan0 047#2000000000000000
(1486049917.853934) vcan0 165#20C3460000000000
(1486049917.853959) vcan0 167#727FD1100019CA00
(1486049917.854899) vcan0 178#000001FF0E78CA78
(1486049917.854923) vcan0 200#00007FD77FD70000
(1486049917.854946) vcan0 202#04F63800608518E7
(1486049917.855970) vcan0 078#0468000000000000
(1486049917.856005) vcan0 204#C0007D0341000000
(1486049917.856029) vcan0 230#500600009A000000
(1486049917.856051) vcan0 261#0000000000000000
(1486049917.856952) vcan0 186#140B021200850400
(1486049917.856987) vcan0 187#D81408C800B00300
(1486049917.857960) vcan0 42C#8C20000008C00000
(1486049917.859066) vcan0 091#7EA87EEFA2C4F000
(1486049917.859100) vcan0 085#7C4580006DA07C4B
(1486049917.859127) vcan0 092#6FB66F84733493C4
(1486049917.862953) vcan0 3A8#0100271000000000
(1486049917.863946) vcan0 076#3E7FC0800FFF0000
(1486049917.863995) vcan0 077#18F207FA7FF7FDF3
(1486049917.864030) vcan0 07D#0000F780001E87EB
(1486049917.864055) vcan0 167#727FD1100019CA00
(1486049917.865062) vcan0 202#04F64000608518E6
(1486049917.865101) vcan0 213#FFFF00040001FF40
(1486049917.865125) vcan0 214#000000000000F780
(1486049917.865149) vcan0 204#C0007D0341000000
(1486049917.865983) vcan0 216#8BBD170A00000000
(1486049917.866017) vcan0 217#1548155415601558
(1486049917.866045) vcan0 415#18E2F0F608000800
(1486049917.866070) vcan0 41D#8000600000000000
(1486049917.866975) vcan0 42F#7D04002E65F60341
(1486049917.867010) vcan0 4B0#01008000800040EF
(1486049917.868598) vcan0 091#7EA77EEEA3C5F000
(1486049917.869597) vcan0 082#7D0814009F804000
(1486049917.869631) vcan0 085#7C4580006CB07C4B
(1486049917.869657) vcan0 092#6FB86F82735274C5
(1486049917.870598) vcan0 3CA#027F47D800000000
(1486049917.872825) vcan0 217#1548155415641558
(1486049917.873939) vcan0 047#2000000000000000
(1486049917.873978) vcan0 165#20C3460000000000
(1486049917.874003) vcan0 167#727FD1100019CA00
(1486049917.874026) vcan0 200#00007FD77FD70000
(1486049917.874941) vcan0 202#04F64800608518E5
(1486049917.874981) vcan0 204#C0007D0341000000
(1486049917.875005) vcan0 230#500600009A000000
(1486049917.875851) vcan0 078#0169800000000000
(1486049917.875887) vcan0 422#0000008F3802FE02
(1486049917.875912) vcan0 423#9360000000000000
(1486049917.875936) vcan0 430#37000CF4C88C7700
(1486049917.875960) vcan0 186#1408021200850400
(1486049917.876847) vcan0 187#D81408C800B00300
(1486049917.878516) vcan0 091#7EA67EEEA3C6F000
(1486049917.879471) vcan0 085#7C4580006BC07C4B
(1486049917.879505) vcan0 092#6FB76F80736365C6
(1486049917.879530) vcan0 3CC#3000000000000000
(1486049917.882811) vcan0 3A8#0100271000000000
(1486049917.883814) vcan0 076#3E7FC0800FFF0000
(1486049917.883852) vcan0 077#18F307F97FF7FDF2
(1486049917.883878) vcan0 07D#0000F690001F37E9
(1486049917.884858) vcan0 167#727FD1100019CA00
(1486049917.884891) vcan0 202#04F65000608518E4
(1486049917.884918) vcan0 213#FFFF00040001FF40
(1486049917.884941) vcan0 204#C0007D0341000000
(1486049917.884963) vcan0 214#000000000000F690
(1486049917.885876) vcan0 216#A0D32C2000000000
(1486049917.885911) vcan0 217#154C155415641558
(1486049917.885940) vcan0 415#18E4F4F308000800
(1486049917.885964) vcan0 41D#8000600000000000
(1486049917.886825) vcan0 4B0#01008000900040EE
(1486049917.887823) vcan0 242#05B32133DF000001
(1486049917.888844) vcan0 091#7EA17EEEA7C7F000
(1486049917.888878) vcan0 082#7D0814009F804000
(1486049917.889855) vcan0 085#7C4580006AD07C4B
(1486049917.889890) vcan0 092#6FB46F7E73616BC7
(1486049917.892849) vcan0 217#155015581560155C
(1486049917.893854) vcan0 047#2000000000000000
(1486049917.893887) vcan0 165#20C3460000000000
(1486049917.893915) vcan0 167#727FD1100019CA00
(1486049917.894845) vcan0 200#00007FD77FD70000
(1486049917.894878) vcan0 202#04F55800608518E4
(1486049917.894906) vcan0 204#C0007D0341000000
(1486049917.894929) vcan0 230#500600009A000000
(1486049917.895934) vcan0 078#0168800000000000
(1486049917.895974) vcan0 42F#7D04002E65F60341
(1486049917.897060) vcan0 186#1407021300850400
(1486049917.897099) vcan0 187#D81408C800B00300
(1486049917.897122) vcan0 18A#0020180214000000
(1486049917.898057) vcan0 33B#0000000000000000
(1486049917.899066) vcan0 091#7E9B7EEFABC8F000
(1486049917.899106) vcan0 092#6FB46F80735574C8
(1486049917.899133) vcan0 085#7C45800069E07C4B
(1486049917.900095) vcan0 3CA#027F37DA00000000
(1486049917.902594) vcan0 05A#00000045E8C10000
(1486049917.903596) vcan0 3A8#0100271000000000
(1486049917.903667) vcan0 076#3E7FC0800FFF0000
(1486049917.903693) vcan0 077#18F407F97FF7FDF1
(1486049917.903717) vcan0 07D#0000F5A0001F77E7
(1486049917.904721) vcan0 167#727FD1100019CA00
(1486049917.904753) vcan0 202#04F46000608518E4
(1486049917.904780) vcan0 213#FFFF00040001FF40
(1486049917.904803) vcan0 204#C0007D0342000000
(1486049917.905728) vcan0 214#000000000000F5A0
(1486049917.905761) vcan0 216#B7E8433500000000
(1486049917.905788) vcan0 217#15501558155C155C
(1486049917.905834) vcan0 261#0000000000000000
(1486049917.906702) vcan0 415#18ECF8EA08000800
(1486049917.906737) vcan0 41D#8000600000000000
(1486049917.906762) vcan0 4B0#01008000A00040ED
(1486049917.907698) vcan0 42C#8C20000008C00000
(1486049917.908691) vcan0 04A#0200000000000000
(1486049917.908726) vcan0 04B#00C0D8D8D8D8C000
(1486049917.908752) vcan0 04C#105FFFC000000000
(1486049917.909704) vcan0 082#7C0814009F804000
(1486049917.909739) vcan0 085#7C45800068F07C4B
(1486049917.909765) vcan0 091#7E9A7EEFABC9F000
(1486049917.909789) vcan0 092#6FB66F85734B76C9
(1486049917.910720) vcan0 3CC#3000000000000000
(1486049917.911720) vcan0 455#A000000000000000
(1486049917.912970) vcan0 047#2000000000000000
(1486049917.913952) vcan0 217#1550155815581560
(1486049917.913986) vcan0 165#20C3460000000000
(1486049917.914011) vcan0 167#727FD1100019CA00
(1486049917.914034) vcan0 200#00007FD77FD70000
(1486049917.914976) vcan0 202#04F26800608518E5
(1486049917.915011) vcan0 204#C0007D0342000000
(1486049917.915036) vcan0 230#500600009A000000
(1486049917.915059) vcan0 078#0068000000000000
(1486049917.915951) vcan0 186#1406021300850400
(1486049917.915985) vcan0 187#D81408C800B00300
(1486049917.918575) vcan0 091#7EA17EEEA4CAF000
(1486049917.919701) vcan0 085#7C45800077007C4B
(1486049917.919743) vcan0 092#6FB66F8B734C6ECA
(1486049917.922681) vcan0 3A8#0100271000000000
(1486049917.923685) vcan0 167#727FD1100019CA00
(1486049917.923723) vcan0 076#3E7FC0800FFF0000
(1486049917.923747) vcan0 077#18F407FA7FF7FDF3
(1486049917.924599) vcan0 07D#0000F4B0001F17E5
(1486049917.924633) vcan0 202#04F07000608518E6
(1486049917.924660) vcan0 204#C0007D0342000000
(1486049917.924682) vcan0 213#FFFF00040001FF40
(1486049917.924704) vcan0 214#000000000000F4B0
(1486049917.925728) vcan0 216#CDFD594C00000000
(1486049917.925762) vcan0 217#1550155C15541564
(1486049917.925790) vcan0 415#18EDFCE808000800
(1486049917.925841) vcan0 41D#8000600000000000
(1486049917.926702) vcan0 42F#7D04002E65F60341
(1486049917.926758) vcan0 3A7#0E423A045F700000
(1486049917.926809) vcan0 4B0#01008000B00040EC
(1486049917.927703) vcan0 242#05B32133DF000001
(1486049917.928703) vcan0 091#7EAF7EEE95CBF000
(1486049917.929866) vcan0 082#7D0814009F804000
(1486049917.929957) vcan0 085#7C45800076107C4B
(1486049917.930019) vcan0 092#6FB46F90735462CB
(1486049917.930663) vcan0 3CA#027F37DA00000000
(1486049917.932821) vcan0 217#1558155815541560
(1486049917.933836) vcan0 047#2000000000000000
(1486049917.933881) vcan0 05C#80F000EC201E0000
(1486049917.933909) vcan0 165#20C3460000000000
(1486049917.933932) vcan0 167#727FD1100019CA00
(1486049917.934845) vcan0 200#00007FD77FD70000
(1486049917.934877) vcan0 202#04EF7800608518E6
(1486049917.934905) vcan0 204#C0007D0342000000
(1486049917.934928) vcan0 230#500600009A000000
(1486049917.935974) vcan0 078#0168800000000000
(1486049917.936010) vcan0 186#1406021300850400
(1486049917.936035) vcan0 187#D81408C800B00300
(1486049917.938073) vcan0 083#4020000008000000
(1486049917.939189) vcan0 2A1#FFFFFFFF00000000
(1486049917.939227) vcan0 091#7EBE7EED86CCF000
(1486049917.939256) vcan0 085#7C45800075207C4B
(1486049917.939282) vcan0 092#6FB46F9173555FCC
(1486049917.940092) vcan0 3CC#3000000000000000
(1486049917.942808) vcan0 3A8#0100271000000000
(1486049917.943809) vcan0 167#727FD1100019CA00
(1486049917.943847) vcan0 076#3E7FC0800FFF0000
(1486049917.943871) vcan0 077#18F607F97FF7FDF7
(1486049917.943898) vcan0 07D#0000F3C0001F37EB
(1486049917.944731) vcan0 202#04FD0000608518E7
(1486049917.944781) vcan0 204#C0007D0342000000
(1486049917.944824) vcan0 213#FFFF000400020040
(1486049917.944852) vcan0 214#000000000000F3C0
(1486049917.945728) vcan0 216#E2146E6200000000
(1486049917.945762) vcan0 217#1558155815581560
(1486049917.945789) vcan0 350#0000000000000000
(1486049917.945834) vcan0 3E0#0000000080000000
(1486049917.946704) vcan0 415#18F0C0F408000800
(1486049917.946739) vcan0 416#5000FE0001000000
(1486049917.946765) vcan0 41D#8000600000000000
(1486049917.946788) vcan0 4B0#01008000C00040EB
(1486049917.948575) vcan0 091#7EC97EEC7BCDF000
(1486049917.949600) vcan0 082#7C0814009F804000
(1486049917.949633) vcan0 085#7C45800074307C4B
(1486049917.949660) vcan0 092#6FB66F8E734A6ACD
(1486049917.951949) vcan0 05D#83578F5F3B000000
(1486049917.952974) vcan0 217#1554155C15581558
(1486049917.953975) vcan0 047#2000000000000000
(1486049917.954008) vcan0 3A6#0E401A045F700000
(1486049917.954033) vcan0 165#20C3460000000000
(1486049917.954055) vcan0 167#727FD1100019CA00
(1486049917.954968) vcan0 178#000002000E78CA78
(1486049917.955002) vcan0 078#0168800000000000
(1486049917.956060) vcan0 186#1405021300850400
(1486049917.956100) vcan0 187#D71408C800C00300
(1486049917.956128) vcan0 200#00007FD77FD70000
(1486049917.956152) vcan0 202#04FB0800608518E8
(1486049917.957021) vcan0 204#C0007D0342000000
(1486049917.957087) vcan0 230#500600009A000000
(1486049917.957139) vcan0 261#0000000000000000
(1486049917.958072) vcan0 42F#7D04002E65F60342
(1486049917.958128) vcan0 33B#0000000000000000
(1486049917.959058) vcan0 42C#8C20000008C00000
(1486049917.959109) vcan0 091#7ED37EEE6ECEF000
(1486049917.959163) vcan0 085#7C45800073407C4B
(1486049917.959214) vcan0 092#6FB76F88734573CE
(1486049917.960065) vcan0 3CA#027F37DA00000000
(1486049917.962840) vcan0 3A8#0100271000000000
(1486049917.963982) vcan0 076#3E7FC0800FFF0000
(1486049917.964036) vcan0 077#18F707F97FF7FDF6
(1486049917.964091) vcan0 07D#0000F2D0001F17F3
(1486049917.964144) vcan0 167#727FD1100019CA00
(1486049917.964933) vcan0 202#04F91000608518E9
(1486049917.964963) vcan0 204#C0007D0342000000
(1486049917.964986) vcan0 213#FFFF000400020040
(1486049917.965008) vcan0 214#000000000000F2D0
(1486049917.965953) vcan0 216#F92A857700000000
(1486049917.965988) vcan0 217#1554155C15541554
(1486049917.966015) vcan0 415#18F1C4F208000800
(1486049917.966040) vcan0 41D#8000600000000000
(1486049917.966950) vcan0 4B0#01008000D00040EA
(1486049917.967949) vcan0 242#05B32132DF000001
(1486049917.968976) vcan0 091#7EDE7EEF61CFF000
(1486049917.969010) vcan0 092#6FB16F8473576ACF
(1486049917.969036) vcan0 082#7E0814009F804000
(1486049917.969946) vcan0 085#7C45800072507C4B
(1486049917.969983) vcan0 3CC#3000000000000000
(1486049917.972855) vcan0 217#1550155C155C1554
(1486049917.973841) vcan0 047#2000000000000000
(1486049917.973878) vcan0 165#20C3460000000000
(1486049917.973903) vcan0 167#727FD1100019CA00
(1486049917.974836) vcan0 200#00007FD77FD70000
(1486049917.974886) vcan0 202#04F71800608518EA
(1486049917.974931) vcan0 204#C0007D0343000000
(1486049917.974969) vcan0 078#0469000000000000
(1486049917.975850) vcan0 230#500600009A000000
(1486049917.975883) vcan0 186#1405021400850400
(1486049917.975919) vcan0 187#D71408C800C00300
(1486049917.975944) vcan0 422#0000008F3802FE02
(1486049917.976841) vcan0 423#9360000000000000
(1486049917.976874) vcan0 430#37000CF4C88C7700
(1486049917.978600) vcan0 091#7EE07EF15CD0F000
(1486049917.979601) vcan0 085#7C45800071607C4B
(1486049917.979644) vcan0 092#6FAA6F84737453D0
(1486049917.982723) vcan0 3A8#0100271000000000
(1486049917.983735) vcan0 167#727FD1100019CA00
(1486049917.983770) vcan0 076#3E7FC0800FFF0000
(1486049917.983797) vcan0 077#18F707FA7FF7F9F3
(1486049917.983833) vcan0 07D#0000F1E0001F57FA
(1486049917.984728) vcan0 202#04F52000608518EB
(1486049917.984772) vcan0 204#C0007D0343000000
(1486049917.984799) vcan0 213#FFFF000400020040
(1486049917.984822) vcan0 214#000000000000F1E0
(1486049917.985728) vcan0 216#0E3F9B8E00000000
(1486049917.985772) vcan0 217#1550156015601554
(1486049917.985824) vcan0 415#18EFC8F308000800
(1486049917.985861) vcan0 41D#8000600000000000
(1486049917.986666) vcan0 42F#7D04002E65F60342
(1486049917.986692) vcan0 4B0#01008000E00040E9
(1486049917.988534) vcan0 091#7ED37EF267D1F000
(1486049917.989570) vcan0 082#7E0814009F804000
(1486049917.989594) vcan0 085#7C45800070707C4B
(1486049917.989626) vcan0 092#6FA66F86737F49D1
(1486049917.990635) vcan0 3CA#027F37DA00000000
(1486049917.992947) vcan0 217#155415601564155C
(1486049917.993936) vcan0 047#2000000000000000
(1486049917.993976) vcan0 165#20C3460000000000
(1486049917.994000) vcan0 167#727FD1100019CA00
(1486049917.994024) vcan0 200#00007FD77FD70000
(1486049917.994960) vcan0 202#04F42800608518EB
(1486049917.995016) vcan0 204#C0007D0343000000
(1486049917.995043) vcan0 230#500600009A000000
(1486049917.995067) vcan0 078#0168800000000000
(1486049917.995979) vcan0 186#1404021400850400
(1486049917.996024) vcan0 187#D71408C800C00300
(1486049917.996051) vcan0 18A#0020180214000000
(1486049917.998581) vcan0 091#7EC07EF378D2F000
(1486049917.999578) vcan0 085#7C4580006F807C4B
(1486049917.999617) vcan0 092#6FA86F88736F54D2
(1486049917.999650) vcan0 3CC#3000000000000000
(1486049918.002600) vcan0 05A#00000045EE610000
(1486049918.003705) vcan0 3A8#0100271000000000
(1486049918.003786) vcan0 076#3E7FC0800FFF0000
(1486049918.003812) vcan0 077#18F707FB7FF7EDF3
(1486049918.003850) vcan0 07D#0000F0F0002007F7
(1486049918.004702) vcan0 167#727FD1100019CA00
(1486049918.004747) vcan0 202#04F23000608518EC
(1486049918.004788) vcan0 204#C0007D0343000000
(1486049918.004814) vcan0 213#FFFF000400020040
(1486049918.005707) vcan0 214#000000000000F0F0
(1486049918.005767) vcan0 216#2456B0A400000000
(1486049918.005831) vcan0 217#1558156415641560
(1486049918.005882) vcan0 261#0000000000000000
(1486049918.006609) vcan0 415#18F1CCF007FF07FF
(1486049918.006653) vcan0 41D#8000600000000000
(1486049918.006679) vcan0 4B0#01008000F00030EA
(1486049918.007552) vcan0 242#05B32130DF000001
(1486049918.008676) vcan0 40A#C1014B3931485232
(1486049918.008712) vcan0 42C#8C20000008C00000
(1486049918.008735) vcan0 04A#0200000000000000
(1486049918.008757) vcan0 04B#00C0D8D8D8D8C000
(1486049918.009705) vcan0 04C#105FFFC000000000
(1486049918.009732) vcan0 082#7D0814009F804000
(1486049918.009766) vcan0 085#7C4580006E907C4B
(1486049918.009799) vcan0 091#7EB47EF482D3F000
(1486049918.010722) vcan0 092#6FAF6F88735B60D3
(1486049918.011721) vcan0 455#A000000000000000
(1486049918.012970) vcan0 047#2000000000000000
(1486049918.013983) vcan0 217#155C156415641560
(1486049918.014028) vcan0 165#20C3460000000000
(1486049918.014055) vcan0 167#727FD1100019CA00
(1486049918.014078) vcan0 200#00007FD77FD70000
(1486049918.014975) vcan0 202#04F13800608518EC
(1486049918.015019) vcan0 204#C0007D0343000000
(1486049918.015045) vcan0 230#500600009A000000
(1486049918.015984) vcan0 078#0168800000000000
(1486049918.016018) vcan0 186#1404021400850400
(1486049918.016043) vcan0 187#D71408C800C00300
(1486049918.016067) vcan0 42F#7D04002E65F60343
(1486049918.018071) vcan0 33B#0000000000000000
(1486049918.019107) vcan0 091#7EB17EF484D4F000
(1486049918.019150) vcan0 085#7C4580006DA07C4B
(1486049918.019185) vcan0 092#6FB56F85735265D4
(1486049918.020068) vcan0 3CA#027EA7E000000000
(1486049918.022723) vcan0 3A8#0100271000000000
(1486049918.023837) vcan0 167#727FD1100019CA00
(1486049918.023880) vcan0 076#3E7FC0800FFF0000
(1486049918.023904) vcan0 077#18F907FB7FF7F9F4
(1486049918.023943) vcan0 07D#0000FF00001F67ED
(1486049918.024732) vcan0 202#04EF4000608518ED
(1486049918.024777) vcan0 204#C0007D0343000000
(1486049918.024804) vcan0 213#FFFF000400020040
(1486049918.024827) vcan0 214#000000000000FF00
(1486049918.025728) vcan0 216#3B6CC7B900000000
(1486049918.025772) vcan0 217#15581564155C1564
(1486049918.025833) vcan0 415#18FBD0E507FF07FF
(1486049918.025871) vcan0 41D#8000600000000000
(1486049918.026679) vcan0 4B0#01008000000030F9
(1486049918.028547) vcan0 082#7E0814009F804000
(1486049918.029571) vcan0 085#7C4580006CB07C4B
(1486049918.029607) vcan0 091#7EB17EF483D5F000
(1486049918.029641) vcan0 092#6FB56F85735A5CD5
(1486049918.029673) vcan0 3CC#3000000000000000
(1486049918.032847) vcan0 217#155C156815581564
(1486049918.033948) vcan0 047#2000000000000000
(1486049918.033995) vcan0 05C#809000F2201E0000
(1486049918.034037) vcan0 165#20C3460000000000
(1486049918.034063) vcan0 167#727FD1100019CA00
(1486049918.034957) vcan0 200#00007FD77FD70000
(1486049918.035002) vcan0 202#04EC4800608518EF
(1486049918.035042) vcan0 204#C0007D0343000000
(1486049918.035068) vcan0 186#1404021400850400
(1486049918.035855) vcan0 187#D71408C800C00300
(1486049918.035890) vcan0 078#0068000000000000
(1486049918.035930) vcan0 230#500600009A000000
(1486049918.038073) vcan0 083#4020000008000000
(1486049918.039080) vcan0 2A1#FFFFFFFF00000000
(1486049918.039107) vcan0 091#7EAE7EF485D6F000
(1486049918.039140) vcan0 085#7C4580006BC07C4B
(1486049918.039172) vcan0 092#6FB26F86737047D6
(1486049918.042680) vcan0 3A8#0100271000000000
(1486049918.043700) vcan0 167#727FD1100019CA00
(1486049918.043745) vcan0 076#3E7FC0800FFF0000
(1486049918.043769) vcan0 077#18FA07FB7FF7FDF3
(1486049918.044612) vcan0 07D#0000FE10001F57EC
(1486049918.044657) vcan0 202#04E95000608518F1
(1486049918.044694) vcan0 204#C0007D0343000000
(1486049918.044719) vcan0 213#FFFF000400020040
(1486049918.044741) vcan0 214#000000000000FE10
(1486049918.045574) vcan0 216#5081DCD000000000
(1486049918.045608) vcan0 217#1560156415581560
(1486049918.045641) vcan0 415#18F9D4E607FF07FF
(1486049918.045673) vcan0 416#5100FD0001000000
(1486049918.046562) vcan0 41D#8000600000000000
(1486049918.046595) vcan0 42F#7D04002E65F60343
(1486049918.046619) vcan0 4B0#01008000100030F8
(1486049918.047702) vcan0 242#05B3212FDF000001
(1486049918.048823) vcan0 091#7EA87EF48AD7F000
(1486049918.049720) vcan0 082#800814009F804000
(1486049918.049760) vcan0 085#7C4580006AD07C4B
(1486049918.049794) vcan0 092#6FB26F86738333D7
(1486049918.050696) vcan0 3CA#027EA7E000000000
(1486049918.051973) vcan0 05D#8357B75E32000000
(1486049918.052929) vcan0 217#1560156415581560
(1486049918.053949) vcan0 047#2000000000000000
(1486049918.053982) vcan0 165#20C3460000000000
(1486049918.054008) vcan0 167#727FD1100019CA00
(1486049918.054961) vcan0 178#000002000E78CA78
(1486049918.054997) vcan0 186#1407021300850400
(1486049918.055036) vcan0 187#D61408C800D00300
(1486049918.055072) vcan0 200#00007FD77FD70000
(1486049918.056079) vcan0 078#0568800000000000
(1486049918.056139) vcan0 202#04E75800608518F2
(1486049918.056176) vcan0 204#C0007D0344000000
(1486049918.056210) vcan0 230#500600009A000000
(1486049918.057100) vcan0 261#0000000000000000
(1486049918.058096) vcan0 42C#8C20000008C00000
(1486049918.059101) vcan0 091#7E9E7EF493D8F000
(1486049918.059144) vcan0 085#7C45800069E07C4B
(1486049918.059181) vcan0 092#6FB76F87738827D8
(1486049918.060064) vcan0 3CC#3000000000000000
(1486049918.062835) vcan0 3A8#0100271000000000
(1486049918.063845) vcan0 076#3E7FC0800FFF0000
(1486049918.063880) vcan0 077#18FA07FB7FF7F9F3
(1486049918.063920) vcan0 07D#0000FD20002017E9
(1486049918.063956) vcan0 167#727FD1100019CA00
(1486049918.064820) vcan0 202#04E56000608518F3
(1486049918.064855) vcan0 204#C0007D0344000000
(1486049918.064879) vcan0 213#FFFF000400020040
(1486049918.064902) vcan0 214#000000000000FD20
(1486049918.065953) vcan0 216#6698F2E500000000
(1486049918.065989) vcan0 217#156015641558155C
(1486049918.066022) vcan0 415#18FAD8E407FF07FF
(1486049918.066054) vcan0 41D#8000600000000000
(1486049918.066926) vcan0 4B0#01008000200040F5
(1486049918.068171) vcan0 091#7E9C7EF494D9F000
(1486049918.069191) vcan0 092#6FBF6F86737D2AD9
(1486049918.069225) vcan0 082#800814009F804000
(1486049918.069249) vcan0 085#7C45800068F07C4B
(1486049918.072945) vcan0 217#15601564155C1558
(1486049918.073937) vcan0 047#2000000000000000
(1486049918.073977) vcan0 165#20C3460000000000
(1486049918.074001) vcan0 167#727FD1100019CA00
(1486049918.074953) vcan0 200#00007FD77FD70000
(1486049918.075000) vcan0 202#04E46800608518F3
(1486049918.075041) vcan0 204#C0007D0344000000
(1486049918.075066) vcan0 186#1409021300850400
(1486049918.076077) vcan0 078#0169800000000000
(1486049918.076135) vcan0 187#D61408C800D00300
(1486049918.076162) vcan0 230#500600009A000000
(1486049918.076185) vcan0 422#0000008F3802FE02
(1486049918.076207) vcan0 423#9360000000000000
(1486049918.076985) vcan0 42F#7D04002E65F60344
(1486049918.077030) vcan0 430#37000CF4C88C7700
(1486049918.078061) vcan0 33B#0000000000000000
(1486049918.079102) vcan0 091#7EA57EF48ADAF000
(1486049918.079146) vcan0 092#6FC26F84737530DA
(1486049918.079182) vcan0 085#7C45800077007C4B
(1486049918.080065) vcan0 3CA#027EA7E000000000
(1486049918.082590) vcan0 3A8#0100271000000000
(1486049918.083830) vcan0 167#727FD1100019CA00
(1486049918.083873) vcan0 076#3E7FC0800FFF0000
(1486049918.083897) vcan0 077#18FA07FB7FF805F3
(1486049918.083936) vcan0 07D#0000FC30001FF7E5
(1486049918.084835) vcan0 202#04E27000608518F4
(1486049918.084892) vcan0 204#C0007D0344000000
(1486049918.084919) vcan0 213#FFFF000400020040
(1486049918.084941) vcan0 214#000000000000FC30
(1486049918.085740) vcan0 216#7DAE09FB00000000
(1486049918.085785) vcan0 217#155C1568155C1558
(1486049918.085873) vcan0 415#18FADCE307FF07FF
(1486049918.085928) vcan0 41D#8000600000000000
(1486049918.086699) vcan0 4B0#01008000300040F4
(1486049918.087681) vcan0 242#05B3212EDF000001
(1486049918.088713) vcan0 091#7EB17EF47DDBF000
(1486049918.089700) vcan0 082#810814009F804000
(1486049918.089753) vcan0 085#7C45800076107C4B
(1486049918.089801) vcan0 092#6FBA6F81737837DB
(1486049918.089875) vcan0 3CC#3000000000000000
(1486049918.092830) vcan0 217#1558156415601560
(1486049918.093894) vcan0 047#2000000000000000
(1486049918.093943) vcan0 165#20C3460000000000
(1486049918.093983) vcan0 167#727FD1100019CA00
(1486049918.094017) vcan0 200#00007FD77FD70000
(1486049918.094894) vcan0 202#04E07800608518F5
(1486049918.094960) vcan0 204#C0007D0344000000
(1486049918.095000) vcan0 186#140B021200850400
(1486049918.095050) vcan0 078#0068000000000000
(1486049918.095970) vcan0 187#D61408C800D00300
(1486049918.096009) vcan0 18A#0020180214000000
(1486049918.096042) vcan0 230#500600009A000000
(1486049918.098212) vcan0 091#7EC07EF46DDCF000
(1486049918.099213) vcan0 092#6FAF6F80738139DC
(1486049918.099265) vcan0 085#7C45800076207C4A
(1486049918.102774) vcan0 05A#00000045F4010000
(1486049918.103673) vcan0 3A8#0100271000000000
(1486049918.103787) vcan0 076#3E7FC0800FFF0000
(1486049918.103830) vcan0 077#18FA07FB7FF801F2
(1486049918.103886) vcan0 07D#0000FB40001FE7EC
(1486049918.104613) vcan0 167#727FD1100019CA00
(1486049918.104659) vcan0 202#04EF0000608518F5
(1486049918.104713) vcan0 213#FFFF000400020040
(1486049918.104751) vcan0 214#000000000000FB40
(1486049918.105731) vcan0 204#C0007D0344000000
(1486049918.105772) vcan0 216#92C31E1200000000
(1486049918.105861) vcan0 217#155815641564155C
(1486049918.105896) vcan0 261#0000000000000000
(1486049918.106702) vcan0 415#18F7E0E507FF07FF
(1486049918.106738) vcan0 41D#8000600000000000
(1486049918.106762) vcan0 42F#7D04002E65F60344
(1486049918.106783) vcan0 4B0#01008000400040F3
(1486049918.107652) vcan0 42C#8C20000008C00000
(1486049918.108705) vcan0 04A#0200000000000000
(1486049918.108755) vcan0 04B#00C0D8D8D8D8C000
(1486049918.108791) vcan0 04C#105FFFC000000000
(1486049918.109676) vcan0 082#820814009F804000
(1486049918.109714) vcan0 085#7C45800075307C4A
(1486049918.109747) vcan0 091#7ED27EF45ADDF000
(1486049918.109781) vcan0 092#6FAD6F82738D2CDD
(1486049918.110675) vcan0 3CA#027EA7E500000000
(1486049918.111714) vcan0 455#A000000000000000
(1486049918.112998) vcan0 047#2000000000000000
(1486049918.113970) vcan0 217#155C156415681560
(1486049918.114020) vcan0 165#20C3460000000000
(1486049918.114056) vcan0 167#727FD1100019CA00
(1486049918.114090) vcan0 200#00007FD77FD70000
(1486049918.114941) vcan0 202#04EE0800608518F5
(1486049918.114977) vcan0 186#140B021200850400
(1486049918.115009) vcan0 187#D61408C800D00300
(1486049918.115040) vcan0 204#C0007D0344000000
(1486049918.115927) vcan0 078#0168800000000000
(1486049918.115960) vcan0 230#500600009A000000
(1486049918.118534) vcan0 085#7C45800074407C4A
(1486049918.119577) vcan0 091#7EDF7EF54BDEF000
(1486049918.119627) vcan0 092#6FB06F8373951FDE
(1486049918.119665) vcan0 3CC#3000000000000000
(1486049918.122677) vcan0 3A8#0100271000000000
(1486049918.123675) vcan0 167#727FD1100019CA00
(1486049918.123707) vcan0 076#3E7FC0800FFF0000
(1486049918.123731) vcan0 077#18FA07FB7FF7F5F2
(1486049918.123756) vcan0 07D#0000FA50002047F6
(1486049918.124688) vcan0 202#04ED1000608518F5
(1486049918.124722) vcan0 204#C0007D0345000000
(1486049918.124748) vcan0 213#FFFF000400020040
(1486049918.124769) vcan0 214#000000000000FA50
(1486049918.125650) vcan0 216#A8DA342700000000
(1486049918.125683) vcan0 217#1560156815641560
(1486049918.125715) vcan0 415#18FAE4E107FF07FF
(1486049918.125746) vcan0 41D#8000600000000000
(1486049918.126648) vcan0 4B0#01008000500040F2
(1486049918.126681) vcan0 3A7#0E423A045F700000
(1486049918.127646) vcan0 242#05B32130DF000001
(1486049918.128690) vcan0 091#7EDF7EF54ADFF000
(1486049918.129850) vcan0 082#820814009F804000
(1486049918.129897) vcan0 085#7C45800073507C4A
(1486049918.129935) vcan0 092#6FB16F8373971BDF
(1486049918.132817) vcan0 217#1560156815601560
(1486049918.133857) vcan0 047#2000000000000000
(1486049918.133905) vcan0 05C#803000F8201E0000
(1486049918.133952) vcan0 165#20C3460000000000
(1486049918.133989) vcan0 167#727FD1100019CA00
(1486049918.134851) vcan0 186#140B021200850400
(1486049918.134884) vcan0 187#D61408C800D00300
(1486049918.134912) vcan0 200#00007FD77FD70000
(1486049918.134935) vcan0 202#04EB1800608518F6
(1486049918.135947) vcan0 204#C0007D0345000000
(1486049918.135972) vcan0 078#0168800000000000
(1486049918.135995) vcan0 230#500600009A000000
(1486049918.136017) vcan0 42F#7D04002E65F60344
(1486049918.136913) vcan0 456#8000000000000000
(1486049918.138065) vcan0 5B3#B300FFFFFFFFFFFF
(1486049918.139074) vcan0 081#0000000000000000
(1486049918.139099) vcan0 083#4020000008000000
(1486049918.139120) vcan0 085#7C45800072607C4A
(1486049918.139154) vcan0 091#7EDA7EF74CE0F000
(1486049918.140064) vcan0 092#6FB06F8473941DE0
(1486049918.140098) vcan0 2A1#FFFFFFFF00000000
(1486049918.140121) vcan0 33B#0000000000000000
(1486049918.140141) vcan0 3CA#027EA7E500000000
(1486049918.141038) vcan0 3E6#0001040880000000
(1486049918.142692) vcan0 3A8#0100271000000000
(1486049918.143732) vcan0 167#727FD1100019CA00
(1486049918.143767) vcan0 076#3E7FC0800FFF0000
(1486049918.143795) vcan0 077#18FB07FB7FF7F9F3
(1486049918.143831) vcan0 07D#0000F960002077FA
(1486049918.144700) vcan0 202#04EA2000608518F6
(1486049918.144736) vcan0 204#C0007D0344000000
(1486049918.144770) vcan0 213#FFFF000400020040
(1486049918.144791) vcan0 214#000000000000F960
(1486049918.145698) vcan0 216#BFEF4B3D00000000
(1486049918.145733) vcan0 217#15601568155C1564
(1486049918.145766) vcan0 415#18FEE8DC07FF07FF
(1486049918.145798) vcan0 416#5200FC0001000000
(1486049918.146660) vcan0 41D#8000600000000000
(1486049918.146685) vcan0 4B0#01008000600040F1
(1486049918.148162) vcan0 091#7EDB7EF948E1F000
(1486049918.149159) vcan0 092#6FB26F86738923E1
(1486049918.149193) vcan0 082#830814009F804000
(1486049918.149226) vcan0 085#7C45800071707C4A
(1486049918.150168) vcan0 3CC#3000000000000000
(1486049918.151938) vcan0 05D#83579F5E38000000
(1486049918.152977) vcan0 217#1560156815581564
(1486049918.153951) vcan0 047#2000000000000000
(1486049918.153981) vcan0 3A6#0E401A045F700000
(1486049918.154005) vcan0 186#140C021100850400
(1486049918.154040) vcan0 165#20C3460000000000
(1486049918.154943) vcan0 187#D51408C800E00300
(1486049918.154979) vcan0 167#727FD1100019CA00
(1486049918.155004) vcan0 178#000002000E78CA78
(1486049918.155026) vcan0 078#0068000000000000
(1486049918.155942) vcan0 200#00007FD77FD70000
(1486049918.155967) vcan0 202#04E82800608518F7
(1486049918.156001) vcan0 204#C0007D0345000000
(1486049918.156033) vcan0 230#500600009A000000
(1486049918.157058) vcan0 261#0000000000000000
(1486049918.158055) vcan0 42C#8C20000008C00000
(1486049918.159066) vcan0 091#7EDE7EF944E2F000
(1486049918.159100) vcan0 085#7C4680006E807C4B
(1486049918.159132) vcan0 092#6FB46F86737D2CE2
(1486049918.162818) vcan0 3A8#0100271000000000
(1486049918.163952) vcan0 076#3E7FC0800FFF0000
(1486049918.164209) vcan0 077#18FC07FC7FF7F9F3
(1486049918.164253) vcan0 07D#0000F870002037F9
(1486049918.164290) vcan0 167#727FD1100019CA00
(1486049918.164803) vcan0 202#04E63000608518F8
(1486049918.164841) vcan0 213#FFFF000400020040
(1486049918.164865) vcan0 214#000000000000F870
(1486049918.164898) vcan0 204#C0007D0345000000
(1486049918.165799) vcan0 216#D405605400000000
(1486049918.165857) vcan0 217#1560156815581564
(1486049918.165881) vcan0 415#18FCECDD07FF07FF
(1486049918.165915) vcan0 41D#8000600000000000
(1486049918.166783) vcan0 42F#7D04002E65F60344
(1486049918.166809) vcan0 4B0#01008000700040F0
(1486049918.168165) vcan0 242#05B32130DF000001
(1486049918.169298) vcan0 091#7EDE7EF547E3F000
(1486049918.169333) vcan0 082#830814009F804000
(1486049918.169356) vcan0 085#7C4680006D907C4B
(1486049918.169387) vcan0 092#6FB56F84737930E3
(1486049918.170290) vcan0 3CA#027EA7E500000000
(1486049918.172941) vcan0 047#2000000000000000
(1486049918.173950) vcan0 217#1560156415581560
(1486049918.173985) vcan0 165#20C3460000000000
(1486049918.174009) vcan0 167#727FD1100019CA00
(1486049918.174030) vcan0 186#140C021100850400
(1486049918.174957) vcan0 187#D51408C800E00300
(1486049918.175012) vcan0 200#00007FD77FD70000
(1486049918.175052) vcan0 202#04E53800608518F8
(1486049918.175088) vcan0 078#0569800000000000
(1486049918.175974) vcan0 204#C0007D0344000000
(1486049918.176023) vcan0 230#500600009A000000
(1486049918.176059) vcan0 422#0000008F3802FE02
(1486049918.176091) vcan0 423#9360000000000000
(1486049918.176927) vcan0 430#37000CF4C88C7700
(1486049918.178552) vcan0 091#7EE17EF444E4F000
(1486049918.179594) vcan0 085#7C4680006CA07C4B
(1486049918.179645) vcan0 092#6FB36F8173802DE4
(1486049918.179683) vcan0 3CC#3000000000000000
(1486049918.182593) vcan0 3A8#0100271000000000
(1486049918.183702) vcan0 076#3E80C0800FFF0000
(1486049918.183753) vcan0 077#18FC07FB7FF7FDF3
(1486049918.183790) vcan0 07D#0000F780001FE7FA
(1486049918.184834) vcan0 167#727FD1100019CA00
(1486049918.184875) vcan0 202#04E34000608518F9
(1486049918.184917) vcan0 204#C0007D0344000000
(1486049918.184943) vcan0 213#FFFF000400020040
(1486049918.185740) vcan0 214#000000000000F780
(1486049918.185784) vcan0 216#E91C766900000000
(1486049918.185843) vcan0 217#155C1564155C155C
(1486049918.185879) vcan0 415#18FBF0DD07FF07FF
(1486049918.186700) vcan0 41D#8000600000000000
(1486049918.186726) vcan0 4B0#01008000800040EF
(1486049918.188196) vcan0 091#7EE37EF441E5F000
(1486049918.189160) vcan0 092#6FB26F7F738926E5
(1486049918.189196) vcan0 082#840814009F804000
(1486049918.189228) vcan0 085#7C4680006BB07C4B
(1486049918.192828) vcan0 217#155815601560155C
(1486049918.193827) vcan0 047#2000000000000000
(1486049918.193854) vcan0 165#20C3460000000000
(1486049918.193875) vcan0 167#727FD1100019CA00
(1486049918.193897) vcan0 186#140C021000850400
(1486049918.194797) vcan0 187#D51408C800E00300
(1486049918.194823) vcan0 18A#0020180214000000
(1486049918.194843) vcan0 200#00007FD77FD70000
(1486049918.194865) vcan0 202#04E24800608518F9
(1486049918.195851) vcan0 078#0168800000000000
(1486049918.195894) vcan0 204#C0007D0345000000
(1486049918.195930) vcan0 230#500600009A000000
(1486049918.195955) vcan0 42F#7D04002E65F60345
(1486049918.198170) vcan0 33B#0000000000000000
(1486049918.199199) vcan0 091#7EE07EF443E6F000
(1486049918.199236) vcan0 085#7C4680006AC07C4B
(1486049918.199270) vcan0 092#6FB36F7E738F1FE6
(1486049918.200276) vcan0 3CA#027EA7E500000000
(1486049918.202597) vcan0 05A#00000045EAA10000
(1486049918.203574) vcan0 168#0000000000000000
(1486049918.203605) vcan0 167#727FD1100019CA00
(1486049918.203627) vcan0 076#3E80C0800FFF0000
(1486049918.203649) vcan0 077#18FB07FB7FF7F9F1
(1486049918.204566) vcan0 07D#0000F690002037FC
(1486049918.204602) vcan0 202#04E15000608518F9
(1486049918.204636) vcan0 204#C0007D0345000000
(1486049918.204659) vcan0 213#FFFF000400020040
(1486049918.205568) vcan0 214#000000000000F690
(1486049918.205603) vcan0 216#00318D7F00000000
(1486049918.205636) vcan0 217#1558156015641558
(1486049918.205668) vcan0 261#0000000000000000
(1486049918.206555) vcan0 3A8#0100271000000000
(1486049918.206620) vcan0 415#18F5F4E207FF07FF
(1486049918.206653) vcan0 41D#8000600000000000
(1486049918.206677) vcan0 4B0#01008000900040EE
(1486049918.207544) vcan0 242#05B32132DF000001
(1486049918.208539) vcan0 04A#0200000000000000
(1486049918.208564) vcan0 04B#00C0D8D8D8D8C000
(1486049918.209675) vcan0 04C#105FFFC000000000
(1486049918.209700) vcan0 082#830814009F804000
(1486049918.209732) vcan0 085#7C46800069D07C4B
(1486049918.209763) vcan0 091#7EDE7EF444E7F000
(1486049918.209792) vcan0 092#6FB46F7E739319E7
(1486049918.210666) vcan0 3CC#3000000000000000
(1486049918.210693) vcan0 3EB#C604140000200000
(1486049918.210713) vcan0 40A#C1023130373639FF
(1486049918.211666) vcan0 42C#8C20000008C00000
(1486049918.211690) vcan0 3E2#0000000080000000
(1486049918.212689) vcan0 455#A000000000000000
(1486049918.213850) vcan0 047#2000000000000000
(1486049918.213895) vcan0 186#140D021000850400
(1486049918.213936) vcan0 165#20C3460000000000
(1486049918.213964) vcan0 167#727FD1100019CA00
(1486049918.214700) vcan0 187#D51408C800E00300
(1486049918.214726) vcan0 200#00007FD77FD70000
(1486049918.214748) vcan0 202#04E15800608518F8
(1486049918.214782) vcan0 204#C0007D0345000000
(1486049918.215694) vcan0 217#155815601564155C
(1486049918.215730) vcan0 078#0068000000000000
(1486049918.215763) vcan0 230#500600009A000000
(1486049918.218566) vcan0 091#7EE97EF438E8F000
(1486049918.219565) vcan0 085#7C46800068E07C4B
(1486049918.219600) vcan0 092#6FB86F80739312E8
(1486049918.222801) vcan0 3A8#0100271000000000
(1486049918.223832) vcan0 167#727FD1100019CA00
(1486049918.223876) vcan0 076#3E80C0800FFF0000
(1486049918.223901) vcan0 077#18FB07FB7FF7FDF1
(1486049918.223939) vcan0 07D#0000F5A0002067FA
(1486049918.224827) vcan0 202#04E16000608518F7
(1486049918.224888) vcan0 204#C0007D0345000000
(1486049918.224916) vcan0 213#FFFF000400020040
(1486049918.224940) vcan0 214#000000000000F5A0
(1486049918.225860) vcan0 216#1647A29500000000
(1486049918.225920) vcan0 217#155815601568155C
(1486049918.225958) vcan0 415#18F4F8E207FF07FF
(1486049918.225993) vcan0 41D#8000600000000000
(1486049918.226731) vcan0 42F#7D04002E65F60345
(1486049918.226765) vcan0 4B0#01008000A00040ED
(1486049918.228566) vcan0 082#840814009F804000
(1486049918.229568) vcan0 085#7C46800067F07C4B
(1486049918.229605) vcan0 091#7EFD7EF423E9F000
(1486049918.229640) vcan0 092#6FBA6F7F738C17E9
(1486049918.230564) vcan0 3CA#027EB7E900000000
(1486049918.232800) vcan0 186#140D021000850400
(1486049918.233852) vcan0 187#D51408C800E00300
(1486049918.233895) vcan0 047#2000000000000000
(1486049918.233919) vcan0 05C#80D000EE201E0000
(1486049918.233959) vcan0 165#20C3460000000000
(1486049918.234839) vcan0 167#727FD1100019CA00
(1486049918.234883) vcan0 217#1558156415681560
(1486049918.234925) vcan0 200#00007FD77FD70000
(1486049918.234951) vcan0 202#04E16800608518F6
(1486049918.235826) vcan0 204#C0007D0344000000
(1486049918.235887) vcan0 078#0168800000000000
(1486049918.235924) vcan0 230#500600009A000000
(1486049918.238312) vcan0 083#4020000008000000
(1486049918.239332) vcan0 2A1#FFFFFFFF00000000
(1486049918.239379) vcan0 085#7C46800076007C4B
(1486049918.239419) vcan0 091#7F0A7EF414EAF000
(1486049918.239454) vcan0 092#6FB66F7F73871FEA
(1486049918.240193) vcan0 3CC#3000000000000000
(1486049918.242714) vcan0 3A8#0100271000000000
(1486049918.243829) vcan0 167#727FD1100019CA00
(1486049918.243873) vcan0 076#3E80C0800FFF0000
(1486049918.243896) vcan0 077#18FC07FB7FF801F1
(1486049918.243935) vcan0 07D#0000F4B000204802
(1486049918.244827) vcan0 202#04E07000608518F6
(1486049918.244887) vcan0 204#C0007D0344000000
(1486049918.244914) vcan0 213#FFFF000400020040
(1486049918.244937) vcan0 214#000000000000F4B0
(1486049918.245725) vcan0 216#2B5EB8AB00000000
(1486049918.245769) vcan0 217#155C156415641564
(1486049918.245831) vcan0 415#18F7FCDE07FF07FF
(1486049918.245870) vcan0 416#5300FB0001000000
(1486049918.246852) vcan0 41D#8000600000000000
(1486049918.246885) vcan0 4B0#01008000B00040EC
(1486049918.247816) vcan0 242#05B32131DF000001
(1486049918.248798) vcan0 091#7F0F7EF40EEBF000
(1486049918.248835) vcan0 082#830814009F804000
(1486049918.249834) vcan0 085#7C46800075107C4B
(1486049918.249870) vcan0 092#6FB06F80738A20EB
(1486049918.251951) vcan0 05D#8357875F3D000000
(1486049918.253076) vcan0 186#140D021000850400
(1486049918.253118) vcan0 187#D41408C800F00300
(1486049918.254077) vcan0 047#2000000000000000
(1486049918.254121) vcan0 217#1558156415601564
(1486049918.254161) vcan0 165#20C3460000000000
(1486049918.254186) vcan0 167#727FD1100019CA00
(1486049918.254948) vcan0 178#000001FF0E78CA78
(1486049918.254985) vcan0 078#0168800000000000
(1486049918.256072) vcan0 200#00007FD77FD70000
(1486049918.256097) vcan0 202#04E07800608518F5
(1486049918.256129) vcan0 204#C0007D0344000000
(1486049918.257056) vcan0 230#500600009A000000
(1486049918.257081) vcan0 261#0000000000000000
(1486049918.258198) vcan0 42C#8C20000008C00000
(1486049918.258242) vcan0 42F#7D04002E65F60344
(1486049918.259200) vcan0 33B#0000000000000000
(1486049918.259249) vcan0 091#7F157EF407ECF000
(1486049918.259292) vcan0 085#7C46800074207C4B
(1486049918.259328) vcan0 092#6FAE6F82739019EC
(1486049918.260067) vcan0 3CA#027EB7E900000000
(1486049918.262830) vcan0 3A8#0100271000000000
(1486049918.263953) vcan0 167#727FD1100019CA00
(1486049918.263997) vcan0 076#3E80C0800FFF0000
(1486049918.264021) vcan0 077#18FC07FB7FF7F9F2
(1486049918.264060) vcan0 07D#0000F3C000203808
(1486049918.264951) vcan0 202#04EF0000608518F5
(1486049918.265012) vcan0 204#C0007D0344000000
(1486049918.265039) vcan0 213#FFFF000400020040
(1486049918.265062) vcan0 214#000000000000F3C0
(1486049918.265884) vcan0 216#4273CEC000000000
(1486049918.265928) vcan0 217#1558156415581564
(1486049918.265966) vcan0 415#18F5C0EF08000800
(1486049918.266000) vcan0 41D#8000600000000000
(1486049918.266851) vcan0 4B0#01008000C00040EB
(1486049918.268596) vcan0 091#7F1D7EF4FEEDF000
(1486049918.269577) vcan0 082#830814009F804000
(1486049918.269606) vcan0 085#7C46800073307C4B
(1486049918.269640) vcan0 092#6FAF6F84738F16ED
(1486049918.269674) vcan0 3CC#3000000000000000
(1486049918.272696) vcan0 186#140D020F00850400
(1486049918.273827) vcan0 187#D41408C800F00300
(1486049918.273869) vcan0 047#2000000000000000
(1486049918.273892) vcan0 165#20C3460000000000
(1486049918.273916) vcan0 167#727FD1100019CA00
(1486049918.274825) vcan0 217#155C156015581564
(1486049918.274884) vcan0 200#00007FD77FD70000
(1486049918.274911) vcan0 202#04EE0800608518F5
(1486049918.274947) vcan0 204#C0007D0344000000
(1486049918.275728) vcan0 078#0469000000000000
(1486049918.275772) vcan0 422#0000008F3802FE02
(1486049918.275799) vcan0 230#500600009A000000
(1486049918.275821) vcan0 423#9360000000000000
(1486049918.276694) vcan0 430#37000CF4C88C7700
(1486049918.278597) vcan0 091#7F237EF4F7EEF000
(1486049918.279696) vcan0 085#7C47800071407C4B
(1486049918.279755) vcan0 092#6FB36F8373871AEE
(1486049918.282696) vcan0 3A8#0100271000000000
(1486049918.283826) vcan0 167#727FD1100019CA00
(1486049918.283872) vcan0 076#3E80C0800FFF0000
(1486049918.283902) vcan0 077#18FC07FB7FF7F9F3
(1486049918.283941) vcan0 07D#0000F2D00020480C
(1486049918.284956) vcan0 202#04ED1000608518F5
(1486049918.285016) vcan0 204#C0007D0343000000
(1486049918.285054) vcan0 213#FFFF000400020040
(1486049918.285079) vcan0 214#000000000000F2D0
(1486049918.285888) vcan0 216#5889E4D700000000
(1486049918.285932) vcan0 217#155C156015581560
(1486049918.285970) vcan0 415#18F5C4EE08000800
(1486049918.286004) vcan0 41D#8000600000000000
(1486049918.286802) vcan0 42F#7D04002E65F60344
(1486049918.286829) vcan0 4B0#01008000D00040EA
(1486049918.287794) vcan0 242#05B32133DF000001
(1486049918.288822) vcan0 091#7F297EF4F0EFF000
(1486049918.288858) vcan0 092#6FB56F8173811FEF
(1486049918.288892) vcan0 082#830814009F804000
(1486049918.289831) vcan0 085#7C47800070507C4B
(1486049918.290814) vcan0 3CA#027EB7E900000000
(1486049918.292432) vcan0 186#140D020F00850400
(1486049918.293553) vcan0 187#D41408C800F00300
(1486049918.293594) vcan0 047#2000000000000000
(1486049918.293617) vcan0 18A#0020180214000000
(1486049918.293641) vcan0 165#20C3460000000000
(1486049918.294611) vcan0 167#727FD1100019CA00
(1486049918.294646) vcan0 217#1558155C15581560
(1486049918.294688) vcan0 200#00007FD77FD70000
(1486049918.294713) vcan0 202#04ED1800608518F4
(1486049918.295595) vcan0 078#0168800000000000
(1486049918.295640) vcan0 204#C0007D0343000000
(1486049918.295666) vcan0 230#500600009A000000
(1486049918.298597) vcan0 091#7F317EF4E7F0F000
(1486049918.299599) vcan0 085#7C4780006F607C4B
(1486049918.299642) vcan0 092#6FB36F80737E24F0
(1486049918.299678) vcan0 3CC#3000000000000000
(1486049918.302595) vcan0 05A#00000045F0410000
(1486049918.303827) vcan0 3A8#0100271000000000
(1486049918.303907) vcan0 076#3E80C0800FFF0000
(1486049918.303934) vcan0 077#18FB07FB7FF7FDF2
(1486049918.303972) vcan0 07D#0000F1E000200810
(1486049918.304834) vcan0 167#727FD1100019CA00
(1486049918.304879) vcan0 202#04EC2000608518F4
(1486049918.304919) vcan0 204#C0007D0343000000
(1486049918.304945) vcan0 213#FFFF00040001FF40
(1486049918.305736) vcan0 214#000000000000F1E0
(1486049918.305780) vcan0 216#6D9EF9ED00000000
(1486049918.305843) vcan0 217#1558155C155C155C
(1486049918.305879) vcan0 261#0000000000000000
(1486049918.306727) vcan0 415#18F2C8F008000800
(1486049918.306772) vcan0 41D#8000600000000000
(1486049918.306799) vcan0 4B0#01008000E00040E9
(1486049918.307678) vcan0 3B3#4048020F10050002
(1486049918.308689) vcan0 3C3#7EC1000000000000
(1486049918.308714) vcan0 42C#8C20000008C00000
(1486049918.308737) vcan0 04A#0200000000000000
(1486049918.309692) vcan0 04B#00C0D8D8D8D8C000
(1486049918.309715) vcan0 04C#105FFFC000000000
(1486049918.309737) vcan0 082#840814009F804000
(1486049918.309773) vcan0 085#7C4780006E707C4B
(1486049918.310692) vcan0 091#7F347EF4E3F1F000
(1486049918.310728) vcan0 092#6FAE6F7F73792EF1
(1486049918.311680) vcan0 455#A000000000000000
(1486049918.312677) vcan0 186#140D021000850400
(1486049918.312712) vcan0 187#D41408C800F00300
(1486049918.313828) vcan0 217#1554155C1560155C
(1486049918.313885) vcan0 047#2000000000000000
(1486049918.313914) vcan0 165#20C3460000000000
(1486049918.313937) vcan0 167#727FD1100019CA00
(1486049918.314930) vcan0 200#00007FD77FD70000
(1486049918.314967) vcan0 202#04EB2800608518F4
(1486049918.315010) vcan0 204#C0007D0343000000
(1486049918.315938) vcan0 230#500600009A000000
(1486049918.315974) vcan0 078#0168800000000000
(1486049918.315997) vcan0 42F#7D04002E65F60343
(1486049918.318300) vcan0 33B#0000000000000000
(1486049918.319306) vcan0 091#7F2F7EF4E7F2F000
(1486049918.319360) vcan0 085#7C4780006D807C4B
(1486049918.319398) vcan0 092#6FAA6F7E737239F2
(1486049918.320212) vcan0 3CA#027EB7E900000000
(1486049918.322586) vcan0 3A8#0100271000000000
(1486049918.323586) vcan0 076#3E80C0800FFF0000
(1486049918.323619) vcan0 077#18FA07FB7FF7F5F1
(1486049918.323671) vcan0 07D#0000F0F0001FE814
(1486049918.324592) vcan0 167#727FD1100019CA00
(1486049918.324637) vcan0 202#04EB3000608518F3
(1486049918.324676) vcan0 204#C0007D0343000000
(1486049918.324710) vcan0 213#FFFF00040001FF40
(1486049918.325594) vcan0 214#000000000000F0F0
(1486049918.325641) vcan0 216#84B50F0200000000
(1486049918.325678) vcan0 217#1554155C15641560
(1486049918.325712) vcan0 415#18F0CCF108000800
(1486049918.326557) vcan0 41D#8000600000000000
(1486049918.326584) vcan0 4B0#01008000F00040E8
(1486049918.326610) vcan0 3A7#0E423A045F700000
(1486049918.327640) vcan0 242#05B32133DF000001
(1486049918.328695) vcan0 091#7F2A7EF3ECF3F000
(1486049918.329831) vcan0 082#830814009F804000
(1486049918.329873) vcan0 085#7C4780006C907C4B
(1486049918.329900) vcan0 092#6FA96F7D73703CF3
(1486049918.329924) vcan0 3CC#3000000000000000
(1486049918.331926) vcan0 186#140D021000850400
(1486049918.333052) vcan0 187#D41408C800F00300
(1486049918.334058) vcan0 047#2000000000000000
(1486049918.334095) vcan0 217#155415581564155C
(1486049918.334123) vcan0 05C#807000F4201E0000
(1486049918.334148) vcan0 165#20C3460000000000
(1486049918.335061) vcan0 167#727FD1100019CA00
(1486049918.335097) vcan0 200#00007FD77FD70000
(1486049918.335120) vcan0 202#04EB3800608518F2
(1486049918.335146) vcan0 204#C0007D0343000000
(1486049918.335168) vcan0 078#0068000000000000
(1486049918.335968) vcan0 230#500600009A000000
(1486049918.338307) vcan0 083#4020000008000000
(1486049918.339308) vcan0 2A1#FFFFFFFF00000000
(1486049918.339346) vcan0 085#7C4780006BA07C4B
(1486049918.339372) vcan0 091#7F277EF3EEF4F000
(1486049918.339398) vcan0 092#6FAD6F7D737136F4
(1486049918.342802) vcan0 3A8#0100271000000000
(1486049918.343811) vcan0 167#727FD1100019CA00
(1486049918.343848) vcan0 076#3E80C0800FFF0000
(1486049918.343871) vcan0 077#18FA07FB7FF7F1F1
(1486049918.343897) vcan0 07D#0000FF00001FC810
(1486049918.344812) vcan0 202#04EA4000608518F2
(1486049918.344852) vcan0 204#C0007D0343000000
(1486049918.344875) vcan0 213#FFFF00040001FF40
(1486049918.344898) vcan0 214#000000000000FF00
(1486049918.345726) vcan0 216#9ACB261900000000
(1486049918.345760) vcan0 217#1554155C1568155C
(1486049918.345788) vcan0 415#18EDD0F308000800
(1486049918.345838) vcan0 416#5400FA0001000000
(1486049918.346722) vcan0 41D#8000600000000000
(1486049918.346755) vcan0 42F#7D04002E65F60343
(1486049918.346780) vcan0 4B0#01008000000040F7
(1486049918.348570) vcan0 091#7F247EF4EFF5F000
(1486049918.349573) vcan0 082#830814009F804000
(1486049918.349605) vcan0 085#7C4780006AB07C4B
(1486049918.349630) vcan0 092#6FB26F7F736E31F5
(1486049918.350592) vcan0 3CA#027EB7E900000000
(1486049918.351711) vcan0 186#140D021000850400
(1486049918.352714) vcan0 05D#8357AF6032000000
(1486049918.352748) vcan0 187#E31408C800000300
(1486049918.353686) vcan0 047#2000000000000000
(1486049918.353720) vcan0 169#008CC00000000000
(1486049918.353748) vcan0 217#1554156015641564
(1486049918.353774) vcan0 165#20C3460000000000
(1486049918.354850) vcan0 3A6#0E401A045F700000
(1486049918.354882) vcan0 167#727FD1100019CA00
(1486049918.354907) vcan0 178#000001FF0E78CA78
(1486049918.354930) vcan0 078#0168800000000000
(1486049918.355821) vcan0 200#00007FD77FD70000
(1486049918.355855) vcan0 202#04EB4800608518F0
(1486049918.355882) vcan0 204#C0007D0343000000
(1486049918.356842) vcan0 230#500600009A000000
(1486049918.356874) vcan0 261#0000000000000000
(1486049918.357854) vcan0 42C#8C20000008C00000
(1486049918.358838) vcan0 085#7C47800069C07C4B
(1486049918.358872) vcan0 091#7F227EF4F0F6F000
(1486049918.359846) vcan0 092#6FB46F82736930F6
(1486049918.359880) vcan0 3CC#3000000000000000
(1486049918.362844) vcan0 3A8#0100271000000000
(1486049918.363942) vcan0 167#727FD1100019CA00
(1486049918.364010) vcan0 076#3E80C0800FFF0000
(1486049918.364058) vcan0 077#18FB07FB7FF7F9F1
(1486049918.364114) vcan0 07D#0000FE10001FB80F
(1486049918.364826) vcan0 202#04EA5000608518F0
(1486049918.364860) vcan0 204#C0007D0343000000
(1486049918.364886) vcan0 213#FFFF00040001FF40
(1486049918.364909) vcan0 214#000000000000FE10
(1486049918.365840) vcan0 216#AFE03B2F00000000
(1486049918.365876) vcan0 217#15541560155C1564
(1486049918.365903) vcan0 415#18F1D4EE08000800
(1486049918.365928) vcan0 41D#8000600000000000
(1486049918.366843) vcan0 4B0#01008000100030F8
(1486049918.367838) vcan0 242#05B32132DF000001
(1486049918.368847) vcan0 091#7F217EF4F0F7F000
(1486049918.368881) vcan0 092#6FB46F8473682EF7
(1486049918.368908) vcan0 082#830814009F804000
(1486049918.369853) vcan0 085#7C47800068D07C4B
(1486049918.371837) vcan0 186#140D021000850400
(1486049918.372834) vcan0 187#E31408C800000300
(1486049918.373830) vcan0 047#2000000000000000
(1486049918.373873) vcan0 217#1554155C15581568
(1486049918.373900) vcan0 165#20C3460000000000
(1486049918.373922) vcan0 167#727FD1100019CA00
(1486049918.374947) vcan0 200#00007FD77FD70000
(1486049918.374994) vcan0 202#04EA5800608518EF
(1486049918.375038) vcan0 078#0569800000000000
(1486049918.375079) vcan0 204#C0007D0343000000
(1486049918.375931) vcan0 422#0000008F3802FE02
(1486049918.375963) vcan0 423#9360000000000000
(1486049918.375980) vcan0 230#500600009A000000
(1486049918.375996) vcan0 42F#7D04002E65F60343
(1486049918.376030) vcan0 430#37000CF4C88C7700
(1486049918.378175) vcan0 33B#0000000000000000
(1486049918.379177) vcan0 091#7F217EF4EFF8F000
(1486049918.379203) vcan0 085#7C47800067E07C4B
(1486049918.379226) vcan0 092#6FB26F8573682EF8
(1486049918.380209) vcan0 3CA#027EB7E900000000
(1486049918.382710) vcan0 3A8#0100271000000000
(1486049918.383716) vcan0 167#727FD1100019CA00
(1486049918.383749) vcan0 076#3E80C0800FFF0000
(1486049918.383776) vcan0 077#18FB07FB7FF7FDF3
(1486049918.383800) vcan0 07D#0000FD20001F980E
(1486049918.384931) vcan0 202#04E96000608518EF
(1486049918.384972) vcan0 204#C0007D0343000000
(1486049918.384996) vcan0 213#FFFF00040001FF40
(1486049918.385019) vcan0 214#000000000000FD20
(1486049918.385934) vcan0 216#C6F7524400000000
(1486049918.385974) vcan0 217#1554155C15541564
(1486049918.386001) vcan0 415#18F1D8ED08000800
(1486049918.386025) vcan0 41D#8000600000000000
(1486049918.386847) vcan0 4B0#01008000200040F5
(1486049918.388462) vcan0 091#7F247EF4EBF9F000
(1486049918.389581) vcan0 082#820814009F804000
(1486049918.389630) vcan0 085#7C47800066F07C4B
(1486049918.389672) vcan0 092#6FB06F83736336F9
(1486049918.389699) vcan0 3CC#3000000000000000
(1486049918.391720) vcan0 186#140A021000850400
(1486049918.392720) vcan0 187#E31408C800000300
(1486049918.392752) vcan0 18A#0020180214000000
(1486049918.392775) vcan0 3E5#0000000080000000
(1486049918.393720) vcan0 047#2000000000000000
(1486049918.393752) vcan0 217#1558155C15581560
(1486049918.393782) vcan0 165#20C3460000000000
(1486049918.394721) vcan0 167#727FD1100019CA00
(1486049918.394753) vcan0 200#00007FD77FD70000
(1486049918.394778) vcan0 202#04E86800608518EF
(1486049918.394803) vcan0 204#C0007D0342000000
(1486049918.394827) vcan0 230#500600009A000000
(1486049918.395711) vcan0 078#0068000000000000
(1486049918.398462) vcan0 091#7F2A7EF4E4FAF000
(1486049918.399679) vcan0 085#7C47800075007C4B
(1486049918.399719) vcan0 092#6FAD6F80735B43FA
(1486049918.402679) vcan0 05A#00000045E6E10000
(1486049918.403592) vcan0 3A8#0100271000000000
(1486049918.403664) vcan0 076#3E80C0800FFF0000
(1486049918.403690) vcan0 077#18FB07FB7FF7F9F3
(1486049918.403715) vcan0 07D#0000FC30001F880F
(1486049918.404592) vcan0 167#727FD1100019CA00
(1486049918.404625) vcan0 202#04E77000608518EF
(1486049918.404652) vcan0 213#FFFF00040001FF40
(1486049918.404676) vcan0 214#000000000000FC30
(1486049918.405572) vcan0 204#C0007D0342000000
(1486049918.405604) vcan0 216#DB0C685B00000000
(1486049918.405632) vcan0 217#1558155815581560
(1486049918.405656) vcan0 261#0000000000000000
(1486049918.406594) vcan0 415#18F1DCEC08000800
(1486049918.406626) vcan0 41D#8000600000000000
(1486049918.406654) vcan0 42F#7D04002E65F60343
(1486049918.406677) vcan0 4B0#01008000300040F4
(1486049918.407932) vcan0 242#05B32131DF000001
(1486049918.408844) vcan0 40A#C104014107F670C1
(1486049918.408879) vcan0 04A#0200000000000000
(1486049918.408905) vcan0 04B#00C0D8D8D8D8C000
(1486049918.408928) vcan0 04C#105FFFC000000000
(1486049918.409869) vcan0 082#820814009F804000
(1486049918.409902) vcan0 085#7C47800074107C4B
(1486049918.409930) vcan0 091#7F357EF4D8FBF000
(1486049918.409954) vcan0 092#6FAC6F80735648FB
(1486049918.410843) vcan0 42C#8C20000008C00000
(1486049918.410876) vcan0 3CA#027EB7E900000000
(1486049918.411844) vcan0 455#A000000000000000
(1486049918.411877) vcan0 186#1408021100850400
(1486049918.412842) vcan0 187#E31408C800000300
(1486049918.413851) vcan0 217#155415581558155C
(1486049918.413885) vcan0 047#2000000000000000
(1486049918.413913) vcan0 165#20C3460000000000
(1486049918.413935) vcan0 167#727FD1100019CA00
(1486049918.414934) vcan0 200#00007FD77FD70000
(1486049918.414973) vcan0 202#04E67800608518EF
(1486049918.415000) vcan0 204#C0007D0343000000
(1486049918.415026) vcan0 078#0168800000000000
(1486049918.415839) vcan0 230#500600009A000000
(1486049918.418678) vcan0 091#7F3F7EF4CDFCF000
(1486049918.419687) vcan0 085#7C47800073207C4B
(1486049918.419726) vcan0 092#6FB16F81735245FC
(1486049918.419755) vcan0 3CC#3000000000000000
(1486049918.422803) vcan0 3A8#0100271000000000
(1486049918.423804) vcan0 167#727FD1100019CA00
(1486049918.423842) vcan0 076#3E80C0800FFF0000
(1486049918.423865) vcan0 077#18FA07FB7FF7F5F2
(1486049918.423892) vcan0 07D#0000FB40001F4814
(1486049918.424807) vcan0 202#04F50000608518EF
(1486049918.424846) vcan0 204#C0007D0343000000
(1486049918.424869) vcan0 213#FFFF00040001FF40
(1486049918.424892) vcan0 214#000000000000FB40
(1486049918.425832) vcan0 216#F1227D7100000000
(1486049918.425874) vcan0 217#15501558155C155C
(1486049918.425900) vcan0 415#18ECE0F008000800
(1486049918.425925) vcan0 41D#8000600000000000
(1486049918.426714) vcan0 4B0#01008000400040F3
(1486049918.428587) vcan0 082#830814009F804000
(1486049918.429590) vcan0 085#7C47800072307C4B
(1486049918.429624) vcan0 091#7F447EF4C7FDF000
(1486049918.429651) vcan0 092#6FB56F82735140FD
(1486049918.431094) vcan0 186#1408021100850400
(1486049918.432091) vcan0 187#E31408C800000300
(1486049918.433084) vcan0 047#2000000000000000
(1486049918.434099) vcan0 217#1550155C1560155C
(1486049918.434134) vcan0 05C#801000FA201E0000
(1486049918.434161) vcan0 165#20C3460000000000
(1486049918.434184) vcan0 167#727FD1100019CA00
(1486049918.435179) vcan0 596#9600FFFFFFFFFFFF
(1486049918.435215) vcan0 200#00007FD77FD70000
(1486049918.435239) vcan0 202#04F50800608518EE
(1486049918.435266) vcan0 078#0168800000000000
(1486049918.436089) vcan0 204#C0007D0343000000
(1486049918.436122) vcan0 230#500600009A000000
(1486049918.436145) vcan0 42F#7D04002E65F60343
(1486049918.438214) vcan0 083#4020000008000000
(1486049918.439305) vcan0 2A1#FFFFFFFF00000000
(1486049918.439343) vcan0 085#7C47800071407C4B
(1486049918.439370) vcan0 091#7F407EF4CAFEF000
(1486049918.439395) vcan0 092#6FB36F8373573AFE
(1486049918.440180) vcan0 33B#0000000000000000
(1486049918.440203) vcan0 3CA#027ED7E200000000
(1486049918.442804) vcan0 3A8#0100271000000000
(1486049918.443806) vcan0 167#727FD1100019CA00
(1486049918.443843) vcan0 076#3E80C0800FFF0000
(1486049918.443867) vcan0 077#18FA07FB7FF7FDF2
(1486049918.443893) vcan0 07D#0000FA50001F3819
(1486049918.444814) vcan0 202#04F41000608518EE
(1486049918.444858) vcan0 204#C0007D0343000000
(1486049918.444882) vcan0 213#FFFF00040001FF40
(1486049918.444906) vcan0 214#000000000000FA50
(1486049918.445935) vcan0 216#0839938600000000
(1486049918.445974) vcan0 217#1550155C1560155C
(1486049918.445998) vcan0 415#18ECE4EF08000800
(1486049918.446023) vcan0 416#5500F90001000000
(1486049918.446824) vcan0 41D#8000600000000000
(1486049918.446857) vcan0 41E#0000000000000000
(1486049918.446882) vcan0 4B0#01008000500040F2
(1486049918.447843) vcan0 242#05B3212EDF000001
(1486049918.448846) vcan0 091#7F397EF4D0FFF000
(1486049918.448881) vcan0 092#6FAE6F85736033FF
(1486049918.448907) vcan0 082#830814009F804000
(1486049918.449866) vcan0 085#7C46800072507C4A
(1486049918.449899) vcan0 3CC#3000000000000000
(1486049918.450987) vcan0 186#1406021100850400
(1486049918.451929) vcan0 187#E21408C800100300
(1486049918.451964) vcan0 05D#8357975F39000000
(1486049918.453016) vcan0 047#2000000000000000
(1486049918.454019) vcan0 217#1550155C1564155C
(1486049918.454045) vcan0 165#20C3460000000000
(1486049918.454067) vcan0 167#727FD1100019CA00
(1486049918.455090) vcan0 178#000001FF0E78CA78
(1486049918.455123) vcan0 078#0068000000000000
(1486049918.455150) vcan0 200#00007FD77FD70000
(1486049918.455172) vcan0 202#04F41800608518ED
(1486049918.456093) vcan0 204#C0007D0343000000
(1486049918.456126) vcan0 230#500600009A000000
(1486049918.456150) vcan0 261#0000000000000000
(1486049918.458091) vcan0 42C#8C20000008C00000
(1486049918.459096) vcan0 091#7F2C7EF4DC00F000
(1486049918.459130) vcan0 092#6FAA6F84735E3900
(1486049918.459157) vcan0 085#7C46800070607C4B
(1486049918.462837) vcan0 3A8#0100271000000000
(1486049918.463831) vcan0 167#727FD1100019CA00
(1486049918.463861) vcan0 076#3E80C0800FFF0000
(1486049918.463882) vcan0 077#18FA07FB7FF7F5F3
(1486049918.463904) vcan0 07D#0000F960001F7815
(1486049918.464848) vcan0 202#04F32000608518ED
(1486049918.464895) vcan0 204#C0007D0342000000
(1486049918.464925) vcan0 213#FFFF00040001FF40
(1486049918.464949) vcan0 214#000000000000F960
(1486049918.465854) vcan0 216#1D4EAA9D00000000
(1486049918.465888) vcan0 217#1550156015641560
(1486049918.465915) vcan0 415#18EEE8EC08000800
(1486049918.465939) vcan0 41D#8000600000000000
(1486049918.466844) vcan0 42F#7D04002E65F60343
(1486049918.466876) vcan0 4B0#01008000600040F1
(1486049918.468551) vcan0 091#7F1D7EF4EA01F000
(1486049918.469571) vcan0 082#820814009F804000
(1486049918.469606) vcan0 085#7C4680006F707C4B
(1486049918.469631) vcan0 092#6FAA6F8373514601
(1486049918.470587) vcan0 3CA#027ED7E200000000
(1486049918.471586) vcan0 186#1405021200850400
(1486049918.471620) vcan0 187#E21408C800100300
(1486049918.472965) vcan0 047#2000000000000000
(1486049918.473972) vcan0 217#1554156015601560
(1486049918.474006) vcan0 165#20C3460000000000
(1486049918.474029) vcan0 167#727FD1100019CA00
(1486049918.474052) vcan0 200#00007FD77FD70000
(1486049918.475072) vcan0 202#04F22800608518ED
(1486049918.475115) vcan0 204#C0007D0342000000
(1486049918.475139) vcan0 59E#9E00FFFFFFFFFFFF
(1486049918.475162) vcan0 078#0569800000000000
(1486049918.475966) vcan0 230#500600009A000000
(1486049918.475998) vcan0 422#0000008F3802FE02
(1486049918.476021) vcan0 423#9360000000000000
(1486049918.476044) vcan0 430#37000CF4C88C7700
(1486049918.476931) vcan0 43A#0000020000000000
(1486049918.478591) vcan0 091#7F147EF4F202F000
(1486049918.479591) vcan0 085#7C4680006E807C4B
(1486049918.479625) vcan0 092#6FAE6F83734B4702
(1486049918.479651) vcan0 3CC#3000000000000000
(1486049918.482717) vcan0 3A8#0100271000000000
(1486049918.483720) vcan0 167#727FD1100019CA00
(1486049918.483754) vcan0 076#3E80C0800FFF0000
(1486049918.483780) vcan0 077#18FA07FB7FF7F1F3
(1486049918.484812) vcan0 07D#0000F870001F380C
(1486049918.484852) vcan0 202#04F23000608518EC
(1486049918.484879) vcan0 204#C0007D0343000000
(1486049918.484903) vcan0 213#FFFF00040001FF40
(1486049918.484925) vcan0 214#000000000000F870
(1486049918.485728) vcan0 216#3364BFB200000000
(1486049918.485763) vcan0 217#15541560155C1564
(1486049918.485793) vcan0 415#18F4ECE508000800
(1486049918.485843) vcan0 41D#8000600000000000
(1486049918.486716) vcan0 4B0#01008000700030F2
(1486049918.487717) vcan0 242#05B3212FDF000001
(1486049918.488711) vcan0 091#7F157EF5EF03F000
(1486049918.488745) vcan0 082#820814009F804000
(1486049918.489826) vcan0 085#7C4780006C907C4B
(1486049918.489869) vcan0 092#6FB66F8573523503
(1486049918.490843) vcan0 186#1405021200850400
(1486049918.491842) vcan0 187#E21408C800100300
(1486049918.491874) vcan0 18A#0020180214000000
(1486049918.492965) vcan0 047#2000000000000000
(1486049918.493974) vcan0 217#1554156015581564
(1486049918.494009) vcan0 165#20C3460000000000
(1486049918.494035) vcan0 167#727FD1100019CA00
(1486049918.494059) vcan0 200#00007FD77FD70000
(1486049918.494973) vcan0 202#04F03800608518ED
(1486049918.495007) vcan0 204#C0007D0343000000
(1486049918.495031) vcan0 078#0168800000000000
(1486049918.495056) vcan0 230#500600009A000000
(1486049918.495944) vcan0 42F#7D04002E65F60342
(1486049918.498316) vcan0 33B#0000000000000000
(1486049918.499431) vcan0 091#7F177EF4ED04F000
(1486049918.499471) vcan0 085#7C4780006BA07C4B
(1486049918.499497) vcan0 092#6FBC6F88735D2004
(1486049918.500422) vcan0 3CA#027ED7E200000000
(1486049918.502676) vcan0 3A8#0100271000000000
(1486049918.503684) vcan0 05A#00000045EC810000
(1486049918.503724) vcan0 076#3E80C0800FFF0000
(1486049918.503748) vcan0 077#18FB07FB7FF7FDF3
(1486049918.503772) vcan0 07D#0000F780001F380A
(1486049918.504689) vcan0 167#727FD1100019CA00
(1486049918.504727) vcan0 202#04EE4000608518EE
(1486049918.504755) vcan0 204#C0007D0342000000
(1486049918.504781) vcan0 213#FFFF00040001FF40
(1486049918.505591) vcan0 214#000000000000F780
(1486049918.505626) vcan0 216#4A79D6C800000000
(1486049918.505653) vcan0 217#1558156015581564
(1486049918.505676) vcan0 261#0000000000000000
(1486049918.506720) vcan0 415#18F1F0E708000800
(1486049918.506753) vcan0 41D#8000600000000000
(1486049918.506778) vcan0 4B0#01008000800040EF
(1486049918.506802) vcan0 188#4000000000000000
(1486049918.507691) vcan0 42C#8C20000008C00000
(1486049918.508711) vcan0 04A#0200000000000000
(1486049918.508744) vcan0 04B#00C0D8D8D8D8C000
(1486049918.508769) vcan0 04C#105FFFC000000000
(1486049918.509722) vcan0 082#830814009F804000
(1486049918.509756) vcan0 085#7C4780006AB07C4B
(1486049918.509781) vcan0 091#7F167EF5EC05F000
(1486049918.509829) vcan0 092#6FBF6F88735E1B05
(1486049918.510714) vcan0 3CC#3000000000000000
(1486049918.511716) vcan0 186#1405021200850400
(1486049918.511749) vcan0 187#E21408C800100300
(1486049918.511774) vcan0 455#A000000000000000
(1486049918.512963) vcan0 047#2000000000000000
(1486049918.513970) vcan0 217#1558156015581560
(1486049918.514005) vcan0 165#20C3460000000000
(1486049918.514030) vcan0 167#727FD1100019CA00
(1486049918.514053) vcan0 200#00007FD77FD70000
(1486049918.515095) vcan0 202#04ED4800608518EE
(1486049918.515129) vcan0 204#C0007D0343000000
(1486049918.515156) vcan0 230#500600009A000000
(1486049918.515179) vcan0 078#0068000000000000
(1486049918.518569) vcan0 091#7F0E7EF7F106F000
(1486049918.519569) vcan0 085#7C4680006AC07C4B
(1486049918.519604) vcan0 092#6FBB6F8673542A06
(1486049918.522840) vcan0 3A8#0100271000000000
(1486049918.523844) vcan0 167#727FD1100019CA00
(1486049918.523876) vcan0 076#3E80C0800FFF0000
(1486049918.523904) vcan0 077#18FB07FB7FF805F4
(1486049918.523928) vcan0 07D#0000F690001F680A
(1486049918.524931) vcan0 202#04EC5000608518EE
(1486049918.524972) vcan0 204#C0007D0343000000
(1486049918.524995) vcan0 213#FFFF00040001FF40
(1486049918.525018) vcan0 214#000000000000F690
(1486049918.525864) vcan0 216#5F90EBDF00000000
(1486049918.525899) vcan0 217#1554156015581560
(1486049918.525927) vcan0 415#18F5F4E208000800
(1486049918.525951) vcan0 41D#8000600000000000
(1486049918.526845) vcan0 42F#7D04002E65F60342
(1486049918.526878) vcan0 3A7#0E423A045F700000
(1486049918.526906) vcan0 4B0#01008000900040EE
(1486049918.527807) vcan0 242#05B3212EDF000001
(1486049918.528841) vcan0 091#7F027EF7FC07F000
(1486049918.528872) vcan0 082#820814009F804000
(1486049918.529834) vcan0 085#7C46800069D07C4B
(1486049918.529871) vcan0 092#6FB36F83734F3907
(1486049918.530850) vcan0 3CA#027ED7E200000000
(1486049918.530888) vcan0 186#1405021200850400
(1486049918.530915) vcan0 187#E21408C800100300
(1486049918.532940) vcan0 047#2000000000000000
(1486049918.533947) vcan0 217#15581560155C155C
(1486049918.533983) vcan0 05C#80B000F0201E0000
(1486049918.534010) vcan0 165#20C3460000000000
(1486049918.534034) vcan0 167#727FD1100019CA00
(1486049918.534947) vcan0 200#00007FD77FD70000
(1486049918.534980) vcan0 202#04EA5800608518EF
(1486049918.535007) vcan0 204#C0007D0343000000
(1486049918.535030) vcan0 078#0368800000000000
(1486049918.536066) vcan0 230#500600009A000000
(1486049918.538317) vcan0 083#4020000008000000
(1486049918.539341) vcan0 2A1#FFFFFFFF00000000
(1486049918.539374) vcan0 085#7C46800068E07C4B
(1486049918.539400) vcan0 091#7EF87EF60708F000
(1486049918.539426) vcan0 092#6FAE6F8173513D08
(1486049918.540334) vcan0 3CC#3000000000000000
(1486049918.540368) vcan0 454#3646200372204242
(1486049918.542715) vcan0 3A8#0100271000000000
(1486049918.543802) vcan0 076#3E80C0800FFF0000
(1486049918.543838) vcan0 077#18FB07FC7FF7FDF3
(1486049918.543866) vcan0 07D#0000F5A0001F2804
(1486049918.544803) vcan0 167#727FD1100019CA00
(1486049918.544840) vcan0 202#04E86000608518F0
(1486049918.544867) vcan0 204#C0007D0343000000
