(1486049865.816040) vcan0 083#4020000008000000
(1486049865.816083) vcan0 2A1#FFFFFFFF00000000
(1486049865.818658) vcan0 186#140701FA008505FA
(1486049865.819784) vcan0 187#E11408C800200300
(1486049865.819843) vcan0 18A#00201A0114000000
(1486049865.819882) vcan0 3E5#0000000080000000
(1486049865.820789) vcan0 085#7C55800058607C54
(1486049865.820850) vcan0 078#0168800000000000
(1486049865.820889) vcan0 091#7EF47F2B6D70F000
(1486049865.820925) vcan0 092#6FD36FC473506E70
(1486049865.821687) vcan0 3CA#8280087800000000
(1486049865.821738) vcan0 422#000000933802FE02
(1486049865.821776) vcan0 423#9360000000000000
(1486049865.821834) vcan0 3A8#0100271300000000
(1486049865.822616) vcan0 167#72801C10001A2A00
(1486049865.822653) vcan0 076#3E80C0800FFF0000
(1486049865.822686) vcan0 077#19D208057FF82A01
(1486049865.822718) vcan0 07D#0000F1E0001FA7F9
(1486049865.823624) vcan0 202#040A2000608519D5
(1486049865.823662) vcan0 204#C0007D036D000000
(1486049865.823691) vcan0 213#FFFF00040001FF40
(1486049865.823714) vcan0 214#000000000000F1E0
(1486049865.824604) vcan0 216#3CD1131700000000
(1486049865.824630) vcan0 217#161C16281614161C
(1486049865.824654) vcan0 415#19DBC80608030803
(1486049865.824677) vcan0 41D#8000600000000000
(1486049865.824700) vcan0 430#37000CF3C88DF700
(1486049865.825638) vcan0 4B0#01008000E00000F1
(1486049865.827288) vcan0 3C3#62C0000000000000
(1486049865.829785) vcan0 082#6708140089804000
(1486049865.830875) vcan0 085#7C54800058707C54
(1486049865.830920) vcan0 091#7EF77F2C6871F000
(1486049865.830950) vcan0 092#6FCC6FC3734D7871
(1486049865.830975) vcan0 3CC#3000000000000000
(1486049865.831872) vcan0 217#161C162C161C1618
(1486049865.831916) vcan0 047#2000000000000000
(1486049865.832785) vcan0 05C#805000F6201E0000
(1486049865.832821) vcan0 165#10CD460000000000
(1486049865.832849) vcan0 167#72801C10001A2A00
(1486049865.832872) vcan0 200#00007FF080220000
(1486049865.833912) vcan0 202#04082800608519D6
(1486049865.833947) vcan0 204#C0007D036D000000
(1486049865.833970) vcan0 230#500600009A000000
(1486049865.838497) vcan0 186#140701FA008505FA
(1486049865.839493) vcan0 187#E11408C800200300
(1486049865.840500) vcan0 085#7C53800058807C54
(1486049865.840545) vcan0 078#0068000000000000
(1486049865.840570) vcan0 091#7EF07F2C6E72F000
(1486049865.841624) vcan0 092#6FC56FC273527A72
(1486049865.841671) vcan0 3A8#0100271000000000
(1486049865.842625) vcan0 167#72801C10001A2A00
(1486049865.842666) vcan0 076#3E80C0800FFF0000
(1486049865.842690) vcan0 077#19D308067FF81E03
(1486049865.842718) vcan0 07D#0000F0F0001F17FF
(1486049865.843622) vcan0 202#04073000608519D6
(1486049865.843669) vcan0 204#C0007D036D000000
(1486049865.843693) vcan0 213#FFFF000400020040
(1486049865.843717) vcan0 214#000000000000F0F0
(1486049865.844628) vcan0 216#53E8282E00000000
(1486049865.844672) vcan0 217#161C162C16201618
(1486049865.844697) vcan0 415#19DDCC0308020802
(1486049865.844721) vcan0 416#5700F70001000000
(1486049865.844746) vcan0 41D#8000600000000000
(1486049865.845516) vcan0 42F#7D04002E661C036D
(1486049865.845554) vcan0 4B0#01008000F00000F0
(1486049865.847262) vcan0 242#05B32003CE000001
(1486049865.849279) vcan0 05D#8357A75F35000000
(1486049865.850500) vcan0 082#6508140089804000
(1486049865.850545) vcan0 085#7C5180005A907C53
(1486049865.850569) vcan0 091#7EE87F2C7573F000
(1486049865.851502) vcan0 092#6FC46FC1735A7373
(1486049865.851563) vcan0 3CA#8280087800000000
(1486049865.852496) vcan0 217#1620163016241618
(1486049865.852556) vcan0 047#2000000000000000
(1486049865.852592) vcan0 165#10CD460000000000
(1486049865.853500) vcan0 167#72801C10001A2A00
(1486049865.853555) vcan0 178#000002000E79CA79
(1486049865.853591) vcan0 200#00007FF080210000
(1486049865.854501) vcan0 202#04053800608519D7
(1486049865.854560) vcan0 204#C0007D036E000000
(1486049865.854597) vcan0 230#500600009A000000
(1486049865.855360) vcan0 261#0000000000000000
(1486049865.855386) vcan0 33B#0000000000000000
(1486049865.856869) vcan0 3C3#7EC0000000000000
(1486049865.858048) vcan0 42C#8C20000008C00000
(1486049865.858958) vcan0 186#140601FA008505FA
(1486049865.859019) vcan0 187#E01408C800300300
(1486049865.859952) vcan0 085#7C50800059A07C54
(1486049865.861057) vcan0 3CC#3000000000000000
(1486049865.861144) vcan0 078#0569800000000000
(1486049865.861209) vcan0 091#7EDD7F2A8174F000
(1486049865.861268) vcan0 092#6FC96FBD73626974
(1486049865.861940) vcan0 3A8#0100271000000000
(1486049865.862074) vcan0 076#3E80C0800FFF0000
(1486049865.862931) vcan0 077#19D508067FF81603
(1486049865.863011) vcan0 07D#0000FF00001F57FC
(1486049865.863412) vcan0 167#72801C10001A2A00
(1486049865.863464) vcan0 202#04034000608519D8
(1486049865.863506) vcan0 213#FFFF000400020140
(1486049865.864064) vcan0 214#000000000000FF00
(1486049865.864140) vcan0 204#C0007D036E000000
(1486049865.864181) vcan0 216#6AFF3F4500000000
(1486049865.864221) vcan0 217#162016301624161C
(1486049865.865060) vcan0 415#19E1D0FE08010801
(1486049865.865137) vcan0 41D#8000600000000000
(1486049865.865180) vcan0 4B0#01008000000000FF
(1486049865.869951) vcan0 091#7ECB7F289475F000
(1486049865.870835) vcan0 082#6308140089804000
(1486049865.870893) vcan0 085#7C4E80005BB07C53
(1486049865.870937) vcan0 092#6FCD6FB8735E6D75
(1486049865.871828) vcan0 217#1620162C16201620
(1486049865.871886) vcan0 047#2000000000000000
(1486049865.872956) vcan0 165#10CD460000000000
(1486049865.873010) vcan0 167#72801C10001A2A00
(1486049865.873052) vcan0 200#00007FF080210000
(1486049865.873089) vcan0 202#04014800608519D9
(1486049865.873935) vcan0 204#C0007D036E000000
(1486049865.873971) vcan0 230#500600009A000000
(1486049865.874000) vcan0 42F#7D04002E661C036E
(1486049865.878091) vcan0 186#140501FA008505FA
(1486049865.879164) vcan0 187#E01408C800300300
(1486049865.880235) vcan0 085#7C4E800059C07C54
(1486049865.880287) vcan0 078#0168800000000000
(1486049865.881170) vcan0 091#7EBE7F25A376F000
(1486049865.881210) vcan0 092#6FCF6FB973527576
(1486049865.881241) vcan0 3CA#8280087800000000
(1486049865.882262) vcan0 3A8#0100271000000000
(1486049865.882352) vcan0 167#72801C10001A2A00
(1486049865.882382) vcan0 076#3E7CC0800FFF0000
(1486049865.882413) vcan0 077#19D708057FF81E00
(1486049865.883258) vcan0 07D#0000FE10001F67F3
(1486049865.883312) vcan0 202#04FF5000608519DA
(1486049865.883345) vcan0 204#C0007D036F000000
(1486049865.883373) vcan0 213#FFFF000400020140
(1486049865.884170) vcan0 214#000000000000FE10
(1486049865.884210) vcan0 216#8116565C00000000
(1486049865.884240) vcan0 217#1624162C16141628
(1486049865.884267) vcan0 415#19E0D4FE08000800
(1486049865.885147) vcan0 41D#8000600000000000
(1486049865.885185) vcan0 4B0#01008000100000FE
(1486049865.887385) vcan0 242#05B32005CE000001
(1486049865.889841) vcan0 091#7EBA7F23A877F000
(1486049865.890872) vcan0 082#6208140089804000
(1486049865.890917) vcan0 085#7C4D800059D07C54
(1486049865.890942) vcan0 092#6FCF6FB973557177
(1486049865.890967) vcan0 3CC#3000000000000000
(1486049865.891872) vcan0 217#1624163016101624
(1486049865.891919) vcan0 047#2000000000000000
(1486049865.892875) vcan0 165#10CD460000000000
(1486049865.892917) vcan0 167#72801C10001A2A00
(1486049865.892941) vcan0 200#00007FF080210000
(1486049865.892965) vcan0 202#04FD5800608519DB
(1486049865.893999) vcan0 204#C0007D036F000000
(1486049865.894041) vcan0 230#500600009A000000
(1486049865.897997) vcan0 186#140501FA008505FA
(1486049865.898911) vcan0 187#E01408C800300300
(1486049865.899904) vcan0 078#0068000000000000
(1486049865.901122) vcan0 085#7C4C800059E07C54
(1486049865.901168) vcan0 091#7EBC7F20A878F000
(1486049865.901191) vcan0 092#6FCB6FB9736B5E78
(1486049865.902122) vcan0 3A8#0100270D00000000
(1486049865.902208) vcan0 167#72801C10001A2A00
(1486049865.902234) vcan0 076#3E7AC0800FFF0000
(1486049865.903122) vcan0 077#19D908037FF82200
(1486049865.903169) vcan0 07D#0000FD20001F47ED
(1486049865.903200) vcan0 202#04FC6000608519DB
(1486049865.903224) vcan0 204#C0007D036E000000
(1486049865.904128) vcan0 213#FFFF000400020140
(1486049865.904169) vcan0 214#000000000000FD20
(1486049865.904197) vcan0 216#972D6D7100000000
(1486049865.904223) vcan0 05A#00000045E8C10000
(1486049865.904247) vcan0 217#16281630160C1628
(1486049865.905041) vcan0 261#0000000000000000
(1486049865.905074) vcan0 415#19E6D8F708000800
(1486049865.905102) vcan0 41D#8000600000000000
(1486049865.905124) vcan0 42F#7D04002E661C036E
(1486049865.906032) vcan0 4B0#01008000200000FD
(1486049865.907413) vcan0 42C#8C20000008C00000
(1486049865.909787) vcan0 082#6208140089804000
(1486049865.910873) vcan0 085#7C4C800058F07C54
(1486049865.910919) vcan0 04A#0200000000000000
(1486049865.910943) vcan0 04B#00C0D8D8D8D8C000
(1486049865.910966) vcan0 04C#105FFFC000000000
(1486049865.911784) vcan0 091#7EBA7F1DAC79F000
(1486049865.911822) vcan0 092#6FC86FBC73844479
(1486049865.911850) vcan0 3A7#0E423A045F700000
(1486049865.911874) vcan0 217#1628163016101624
(1486049865.912878) vcan0 047#2000000000000000
(1486049865.912921) vcan0 165#10CD460000000000
(1486049865.912945) vcan0 167#72801C10001A2A00
(1486049865.912968) vcan0 200#00007FF080210000
(1486049865.913898) vcan0 202#04F96800608519DD
(1486049865.913942) vcan0 204#C0007D036E000000
(1486049865.913965) vcan0 3CA#8280087800000000
(1486049865.913989) vcan0 230#500600009A000000
(1486049865.914907) vcan0 455#A000000000000000
(1486049865.915906) vcan0 083#4020000008000000
(1486049865.915939) vcan0 2A1#FFFFFFFF00000000
(1486049865.915964) vcan0 33B#0000000000000000
(1486049865.917890) vcan0 186#140401FA008505FA
(1486049865.918870) vcan0 187#E01408C800300300
(1486049865.918911) vcan0 18A#00201A0114000000
(1486049865.919784) vcan0 085#7C4C800067007C54
(1486049865.920877) vcan0 078#0168800000000000
(1486049865.920923) vcan0 091#7EB17F19B87AF000
(1486049865.920947) vcan0 092#6FC66FBD738A3E7A
(1486049865.920972) vcan0 3CC#3000000000000000
(1486049865.921894) vcan0 422#000000933802FE02
(1486049865.921933) vcan0 423#9360000000000000
(1486049865.921957) vcan0 3A8#0100270A00000000
(1486049865.922023) vcan0 430#37000CF3C88D7700
(1486049865.922873) vcan0 076#3E78C0800FFF0000
(1486049865.922919) vcan0 077#19DA08017FF81E00
(1486049865.922944) vcan0 07D#0000FC30001FA7ED
(1486049865.922969) vcan0 167#72801C10001A2A00
(1486049865.923893) vcan0 202#04F77000608519DE
(1486049865.923929) vcan0 204#C0007D036E000000
(1486049865.923954) vcan0 213#FFFF000400020140
(1486049865.923976) vcan0 214#000000000000FC30
(1486049865.924913) vcan0 216#AD44848800000000
(1486049865.924950) vcan0 217#162416301610161C
(1486049865.924977) vcan0 415#19E8DCF407FF07FF
(1486049865.924999) vcan0 41D#8000600000000000
(1486049865.925022) vcan0 4B0#01008000300000FC
(1486049865.927287) vcan0 242#05B32006CE000001
(1486049865.929778) vcan0 082#6408140489804000
(1486049865.930871) vcan0 085#7C4C800066107C54
(1486049865.930917) vcan0 091#7EA47F16C77BF000
(1486049865.930949) vcan0 092#6FC56FBA737E4D7B
(1486049865.931870) vcan0 217#1624162C16141618
(1486049865.931916) vcan0 047#2000000000000000
(1486049865.932873) vcan0 05C#80F000EC201E0000
(1486049865.932919) vcan0 165#10CD460000000000
(1486049865.932943) vcan0 167#72801C10001A2A00
(1486049865.934000) vcan0 200#00007FF080210000
(1486049865.934041) vcan0 202#04F57800608519DF
(1486049865.934070) vcan0 204#C0007D036E000000
(1486049865.934093) vcan0 230#500600009A000000
(1486049865.935001) vcan0 42F#7D04002E661C036E
(1486049865.937629) vcan0 3A6#0E401A045F700000
(1486049865.938543) vcan0 186#140401FA008505FA
(1486049865.938577) vcan0 187#E01408C800300300
(1486049865.939779) vcan0 078#0168800000000000
(1486049865.940777) vcan0 085#7C4C800065207C54
(1486049865.940814) vcan0 091#7E957F16D57CF000
(1486049865.940841) vcan0 092#6FC66FB77376567C
(1486049865.940865) vcan0 3CA#827FF87200000000
(1486049865.941899) vcan0 3A8#0100270900000000
(1486049865.941983) vcan0 167#72801C10001A2A00
(1486049865.942874) vcan0 076#3E78C0800FFF0000
(1486049865.942915) vcan0 077#19DA07FF7FF81601
(1486049865.942943) vcan0 07D#0000FB40001FF7E6
(1486049865.942970) vcan0 202#04030000608519E0
(1486049865.942994) vcan0 204#C0007D036E000000
(1486049865.943768) vcan0 213#FFFF000400020140
(1486049865.943817) vcan0 214#000000000000FB40
(1486049865.943861) vcan0 216#C45A9B9F00000000
(1486049865.943903) vcan0 217#1620163016181618
(1486049865.944759) vcan0 415#19E1E0FA07FE07FE
(1486049865.944804) vcan0 416#5800F60001000000
(1486049865.944838) vcan0 41D#8000600000000000
(1486049865.944867) vcan0 4B0#01008000400000FB
(1486049865.949271) vcan0 05D#83578F5F3B000000
(1486049865.950350) vcan0 091#7E857F16E47DF000
(1486049865.950406) vcan0 082#6608140089804000
(1486049865.950448) vcan0 085#7C4C800064307C54
(1486049865.951342) vcan0 092#6FC96FB6737A4F7D
(1486049865.951402) vcan0 3CC#3000000000000000
(1486049865.952341) vcan0 217#16201634161C1618
(1486049865.952401) vcan0 047#2000000000000000
(1486049865.952448) vcan0 165#10CD460000000000
(1486049865.953345) vcan0 167#72801C10001A2A00
(1486049865.953383) vcan0 178#000002000E79CA79
(1486049865.953429) vcan0 200#00007FF080200000
(1486049865.954344) vcan0 202#04020800608519E0
(1486049865.954404) vcan0 204#C0007D036F000000
(1486049865.954461) vcan0 230#500600009A000000
(1486049865.955338) vcan0 261#0000000000000000
(1486049865.957234) vcan0 42C#8C20000008C00000
(1486049865.958221) vcan0 186#140C01FA008505FA
(1486049865.958286) vcan0 187#DF1408C800400300
(1486049865.959715) vcan0 085#7C4C800063407C54
(1486049865.960717) vcan0 078#0469000000000000
(1486049865.960778) vcan0 091#7E7B7F16ED7EF000
(1486049865.960835) vcan0 092#6FCE6FB57382427E
(1486049865.961715) vcan0 3A8#0100270900000000
(1486049865.961799) vcan0 167#72801C10001A2A00
(1486049865.962721) vcan0 076#3E78C0800FFF0000
(1486049865.962762) vcan0 077#19D907FF7FF819FF
(1486049865.962832) vcan0 07D#0000FA50001FE7DC
(1486049865.962890) vcan0 202#04011000608519E0
(1486049865.962939) vcan0 204#C0007D036F000000
(1486049865.963848) vcan0 213#FFFF000400020040
(1486049865.963899) vcan0 214#000000000000FA50
(1486049865.963950) vcan0 216#DB71B1B600000000
(1486049865.963991) vcan0 217#162416301620161C
(1486049865.964847) vcan0 415#19E4E4F607FD07FD
(1486049865.964890) vcan0 41D#8000600000000000
(1486049865.964920) vcan0 42F#7D04002E661C036E
(1486049865.964950) vcan0 4B0#01008000500000FA
(1486049865.967219) vcan0 242#05B32001CE000001
(1486049865.969727) vcan0 082#6708140089804000
(1486049865.970769) vcan0 085#7C4C800062507C54
(1486049865.970815) vcan0 091#7E7B7F14EE7FF000
(1486049865.970850) vcan0 092#6FD06FB373883B7F
(1486049865.970884) vcan0 3CA#827FF87200000000
(1486049865.971877) vcan0 047#2000000000000000
(1486049865.971934) vcan0 217#162816341620161C
(1486049865.972893) vcan0 165#10CD460000000000
(1486049865.972920) vcan0 167#72801C10001A2A00
(1486049865.972943) vcan0 200#00007FF080200000
(1486049865.972962) vcan0 202#04001800608519E0
(1486049865.973904) vcan0 204#C0007D036E000000
(1486049865.973945) vcan0 230#500600009A000000
(1486049865.975344) vcan0 33B#0000000000000000
(1486049865.977289) vcan0 186#140C01FA008505FA
(1486049865.977496) vcan0 187#DF1408C800400300
(1486049865.979780) vcan0 085#7C4C800061607C54
(1486049865.980785) vcan0 078#0168800000000000
(1486049865.980831) vcan0 091#7E7D7F13EC80F000
(1486049865.980867) vcan0 092#6FCE6FB0738B3C80
(1486049865.980900) vcan0 3CC#3000000000000000
(1486049865.981761) vcan0 3A8#0100270900000000
(1486049865.981852) vcan0 076#3E78C0800FFF0000
(1486049865.982791) vcan0 077#19D907FF7FF821FF
(1486049865.982843) vcan0 07D#0000F960002037D9
(1486049865.982898) vcan0 167#72801C10001A2A00
(1486049865.982944) vcan0 202#04FE2000608519E1
(1486049865.983893) vcan0 213#FFFF000400020040
(1486049865.983926) vcan0 214#000000000000F960
(1486049865.983954) vcan0 204#C0007D036E000000
(1486049865.983978) vcan0 216#F287C7CD00000000
(1486049865.984917) vcan0 217#1628163416201620
(1486049865.984953) vcan0 415#19EAE8EF07FC07FC
(1486049865.984981) vcan0 41D#8000600000000000
(1486049865.985005) vcan0 4B0#01008000600000F9
(1486049865.987763) vcan0 350#0000000000000000
(1486049865.988764) vcan0 3E0#0000000080000000
(1486049865.989898) vcan0 091#7E857F11E581F000
(1486049865.990877) vcan0 082#6708140089804000
(1486049865.990914) vcan0 085#7C4C800060707C54
(1486049865.990942) vcan0 092#6FC96FB173894181
(1486049865.991880) vcan0 217#1628163016181624
(1486049865.991922) vcan0 047#2000000000000000
(1486049865.992870) vcan0 165#10CD460000000000
(1486049865.992912) vcan0 167#72801C10001A2A00
(1486049865.992935) vcan0 200#00007FF080200000
(1486049865.993913) vcan0 202#04FC2800608519E2
(1486049865.993955) vcan0 204#C0007D036E000000
(1486049865.993981) vcan0 230#500600009A000000
(1486049865.994996) vcan0 42F#7D04002E661C036E
(1486049865.997246) vcan0 186#141001FA008505FA
(1486049865.998246) vcan0 187#DF1408C800400300
(1486049865.999745) vcan0 078#0168800000000000
(1486049866.000876) vcan0 085#7C4C80005F807C54
(1486049866.000917) vcan0 091#7E957F0FD682F000
(1486049866.000942) vcan0 092#6FC66FB673864182
(1486049866.000969) vcan0 3CA#827FF87200000000
(1486049866.001895) vcan0 3A8#0100270900000000
(1486049866.001971) vcan0 167#72801C10001A2A00
(1486049866.002790) vcan0 076#3E78C0800FFF0000
(1486049866.002821) vcan0 077#19D907FF7FF819FF
(1486049866.002849) vcan0 07D#0000F870002037DC
(1486049866.002874) vcan0 202#04FA3000608519E3
(1486049866.003784) vcan0 204#C0007D036E000000
(1486049866.003816) vcan0 213#FFFF000400020040
(1486049866.003841) vcan0 214#000000000000F870
(1486049866.003865) vcan0 216#099EDEE400000000
(1486049866.004768) vcan0 05A#00000045EE610000
(1486049866.004804) vcan0 217#162C163016141624
(1486049866.004830) vcan0 261#0000000000000000
(1486049866.004853) vcan0 415#19E7ECF107FB07FB
(1486049866.004877) vcan0 41D#8000600000000000
(1486049866.005764) vcan0 4B0#01008000700000F8
(1486049866.007410) vcan0 242#05B32001CE000001
(1486049866.008412) vcan0 40A#C000000740C19A00
(1486049866.008447) vcan0 42C#8C20000008C00000
(1486049866.009788) vcan0 04A#0200000000000000
(1486049866.010785) vcan0 04B#00C0D8D8D8D8C000
(1486049866.010817) vcan0 04C#105FFFC000000000
(1486049866.010844) vcan0 082#6608140089804000
(1486049866.010869) vcan0 085#7C4C80005E907C54
(1486049866.011785) vcan0 091#7EAB7F0CC283F000
(1486049866.011820) vcan0 092#6FC76FB973853D83
(1486049866.011846) vcan0 3CC#3000000000000000
(1486049866.011870) vcan0 217#1628162C16101628
(1486049866.012763) vcan0 047#2000000000000000
(1486049866.012796) vcan0 165#10CD460000000000
(1486049866.012821) vcan0 167#72801C10001A2A00
(1486049866.012844) vcan0 200#00007FF080200000
(1486049866.013893) vcan0 202#04F93800608519E3
(1486049866.013929) vcan0 204#C0007D036E000000
(1486049866.013954) vcan0 455#A000000000000000
(1486049866.013977) vcan0 230#500600009A000000
(1486049866.015263) vcan0 083#4020000008000000
(1486049866.016287) vcan0 2A1#FFFFFFFF00000000
(1486049866.017286) vcan0 186#141201FA008505FA
(1486049866.017321) vcan0 187#DF1408C800400300
(1486049866.018282) vcan0 18A#00201A0114000000
(1486049866.019787) vcan0 078#0068000000000000
(1486049866.020784) vcan0 085#7C4C80005DA07C54
(1486049866.020817) vcan0 091#7EC07F08B084F000
(1486049866.020843) vcan0 092#6FC96FBA73853984
(1486049866.020867) vcan0 422#000000933802FE02
(1486049866.021766) vcan0 423#9360000000000000
(1486049866.021799) vcan0 430#37000CF3C88D7700
(1486049866.021842) vcan0 3A8#0100270900000000
(1486049866.021897) vcan0 167#72801C10001A2A00
(1486049866.022767) vcan0 076#3E78C0800FFF0000
(1486049866.022800) vcan0 077#19DA07FD7FF819FF
(1486049866.022827) vcan0 07D#0000F780002027E9
(1486049866.022852) vcan0 202#04F74000608519E4
(1486049866.023789) vcan0 204#C0007D036E000000
(1486049866.023822) vcan0 213#FFFF000400020040
(1486049866.023847) vcan0 214#000000000000F780
(1486049866.023873) vcan0 216#20B5F5FB00000000
(1486049866.024768) vcan0 217#1628162C16181624
(1486049866.024804) vcan0 415#19E7F0F007FA07FA
(1486049866.024832) vcan0 41D#8000600000000000
(1486049866.024856) vcan0 42F#7D04002E661B036E
(1486049866.024880) vcan0 4B0#01008000800000F7
(1486049866.029764) vcan0 082#6508140089804000
(1486049866.030793) vcan0 085#7C4C80005CB07C54
(1486049866.030829) vcan0 091#7ED07F05A285F000
(1486049866.030856) vcan0 092#6FC86FB873823E85
(1486049866.030881) vcan0 3CA#827FF87200000000
(1486049866.031783) vcan0 047#2000000000000000
(1486049866.032787) vcan0 217#1628163016181620
(1486049866.032822) vcan0 05C#809000F2201E0000
(1486049866.032848) vcan0 165#10CD460000000000
(1486049866.032871) vcan0 167#72801B10001A2A00
(1486049866.032896) vcan0 200#00007FF080200000
(1486049866.033910) vcan0 202#04F64800608519E4
(1486049866.033944) vcan0 204#C0007D036E000000
(1486049866.033969) vcan0 230#500600009A000000
(1486049866.035260) vcan0 33B#0000000000000000
(1486049866.036779) vcan0 186#141201FA008505FA
(1486049866.037893) vcan0 187#DF1408C800400300
(1486049866.039754) vcan0 078#0168800000000000
(1486049866.040642) vcan0 085#7C4C80005BC07C54
(1486049866.040695) vcan0 3CC#3000000000000000
(1486049866.040725) vcan0 091#7EDB7F059686F000
(1486049866.040765) vcan0 092#6FC26FB373814986
(1486049866.041759) vcan0 3A8#0100270900000000
(1486049866.041855) vcan0 167#72801C10001A2A00
(1486049866.042740) vcan0 076#3E78C0800FFF0000
(1486049866.042765) vcan0 077#19DB07FB7FF81A00
(1486049866.042802) vcan0 07D#0000F690002017F4
(1486049866.042836) vcan0 202#04F55000608519E4
(1486049866.043749) vcan0 204#C0007D036E000000
(1486049866.043775) vcan0 213#FFFF000400020040
(1486049866.043798) vcan0 214#000000000000F690
(1486049866.043835) vcan0 216#36CC0C1000000000
(1486049866.043869) vcan0 217#162416301618161C
(1486049866.044759) vcan0 415#19E6F4F007FA07FA
(1486049866.044798) vcan0 416#5900F50001000000
(1486049866.044832) vcan0 41D#8000600000000000
(1486049866.044856) vcan0 4B0#01008000900000F6
(1486049866.047284) vcan0 242#05B32001CE000001
(1486049866.049372) vcan0 05D#8357B75F31000000
(1486049866.049893) vcan0 082#6508140089804000
(1486049866.050877) vcan0 085#7C4C80005AD07C54
(1486049866.050933) vcan0 091#7EE17F088C87F000
(1486049866.050983) vcan0 092#6FBE6FB0738F4187
(1486049866.051765) vcan0 217#16241634161C1618
(1486049866.051813) vcan0 047#2000000000000000
(1486049866.052886) vcan0 165#10CD460000000000
(1486049866.052920) vcan0 167#72801C10001A2A00
(1486049866.053892) vcan0 178#000002000E79CA79
(1486049866.053925) vcan0 200#00007FF0801F0000
(1486049866.053968) vcan0 202#04F45800608519E4
(1486049866.054890) vcan0 204#C0007D036F000000
(1486049866.054937) vcan0 230#500600009A000000
(1486049866.054964) vcan0 261#0000000000000000
(1486049866.055904) vcan0 42F#7D04002E661B036E
(1486049866.056906) vcan0 186#141301FA008505FA
(1486049866.057998) vcan0 187#DE1408C800500300
(1486049866.058052) vcan0 42C#8C20000008C00000
(1486049866.059791) vcan0 085#7C4C800059E07C54
(1486049866.060771) vcan0 078#0569800000000000
(1486049866.060815) vcan0 091#7EE07F0D8788F000
(1486049866.060852) vcan0 092#6FBD6FB073A22E88
(1486049866.060887) vcan0 3CA#827FF87100000000
(1486049866.061758) vcan0 3A8#0100270900000000
(1486049866.061887) vcan0 167#72801B10001A2900
(1486049866.061960) vcan0 076#3E7AC0800FFF0000
(1486049866.062793) vcan0 077#19DA07FC7FF80DFF
(1486049866.062877) vcan0 07D#0000F5A0002047F9
(1486049866.062953) vcan0 202#04F36000608519E4
(1486049866.062998) vcan0 204#C0007D036F000000
(1486049866.063780) vcan0 213#FFFF000400020040
(1486049866.063811) vcan0 214#000000000000F5A0
(1486049866.063850) vcan0 216#4DE2232700000000
(1486049866.063884) vcan0 217#1624163416241618
(1486049866.064914) vcan0 415#19E6F8EF07F907F9
(1486049866.064961) vcan0 41D#8000600000000000
(1486049866.064989) vcan0 4B0#01008000A00000F5
(1486049866.069892) vcan0 091#7ED97F118989F000
(1486049866.070787) vcan0 082#6508140089804000
(1486049866.070820) vcan0 085#7C4C800058F07C54
(1486049866.070861) vcan0 092#6FBC6FB173A42B89
(1486049866.070898) vcan0 3CC#3000000000000000
(1486049866.071871) vcan0 217#162416341624161C
(1486049866.072879) vcan0 047#2000000000000000
(1486049866.072917) vcan0 165#10CD460000000000
(1486049866.072941) vcan0 167#72801B10001A2A00
(1486049866.072984) vcan0 200#00007FF0801F0000
(1486049866.073894) vcan0 202#04F26800608519E4
(1486049866.073949) vcan0 204#C0007D036E000000
(1486049866.073987) vcan0 230#500600009A000000
(1486049866.076621) vcan0 186#141401FA008505FA
(1486049866.077624) vcan0 187#DE1408C800500300
(1486049866.079747) vcan0 078#0068000000000000
(1486049866.080663) vcan0 085#7C4C800067007C54
(1486049866.080711) vcan0 091#7ED27F118F8AF000
(1486049866.080749) vcan0 092#6FBE6FB27395368A
(1486049866.081640) vcan0 3A8#0100270A00000000
(1486049866.081726) vcan0 167#72801B10001A2A00
(1486049866.082879) vcan0 076#3E7AC0800FFF0000
(1486049866.082917) vcan0 077#19DA07FF7FF80DFF
(1486049866.082960) vcan0 07D#0000F4B00020A7F7
(1486049866.082997) vcan0 202#04F17000608519E4
(1486049866.083878) vcan0 204#C0007D036E000000
(1486049866.083916) vcan0 213#FFFF000400020040
(1486049866.083940) vcan0 214#000000000000F4B0
(1486049866.083981) vcan0 216#64F9393E00000000
(1486049866.084883) vcan0 217#1624163016241620
(1486049866.084937) vcan0 415#19E5FCEF07F907F9
(1486049866.084977) vcan0 41D#8000600000000000
(1486049866.085002) vcan0 42F#7D04002E661B036F
(1486049866.085036) vcan0 4B0#01008000B00000F4
(1486049866.087751) vcan0 242#05B31FFFCE000001
(1486049866.089780) vcan0 082#6508140489804000
(1486049866.090784) vcan0 085#7C4C800066107C54
(1486049866.090830) vcan0 091#7ED07F0F928BF000
(1486049866.090869) vcan0 092#6FBF6FB17381498B
(1486049866.090904) vcan0 3CA#827FF87100000000
(1486049866.091786) vcan0 217#1628163016241624
(1486049866.092871) vcan0 047#2000000000000000
(1486049866.092913) vcan0 165#10CD460000000000
(1486049866.092936) vcan0 167#72801B10001A2A00
(1486049866.092960) vcan0 200#00007FF0801F0000
(1486049866.093897) vcan0 202#04F07800608519E4
(1486049866.093950) vcan0 204#C0007D036E000000
(1486049866.093979) vcan0 230#500600009A000000
(1486049866.095492) vcan0 33B#0000000000000000
(1486049866.096496) vcan0 186#141101FA008505FA
(1486049866.097394) vcan0 187#DE1408C800500300
(1486049866.099745) vcan0 078#0168800000000000
(1486049866.100662) vcan0 085#7C4C800065207C54
(1486049866.100709) vcan0 3CC#3000000000000000
(1486049866.100737) vcan0 091#7ECD7F0B988CF000
(1486049866.100773) vcan0 092#6FBD6FB17375568C
(1486049866.101655) vcan0 3A8#0100270A00000000
(1486049866.101726) vcan0 167#72801B10001A2900
(1486049866.102752) vcan0 076#3E7AC0800FFF0000
(1486049866.102789) vcan0 077#19DA07FE7FF811FF
(1486049866.102833) vcan0 07D#0000F3C0002007F4
(1486049866.102869) vcan0 202#04FF0000608519E4
(1486049866.103661) vcan0 204#C0007D036E000000
(1486049866.103694) vcan0 213#FFFF000400020040
(1486049866.103721) vcan0 214#000000000000F3C0
(1486049866.103760) vcan0 216#7B10505500000000
(1486049866.104637) vcan0 05A#00000045F4010000
(1486049866.104673) vcan0 217#1628162C16201624
(1486049866.104707) vcan0 261#0000000000000000
(1486049866.104730) vcan0 415#19E6C0FD07F907F9
(1486049866.105598) vcan0 41D#8000600000000000
(1486049866.105624) vcan0 4B0#01008000C00000F3
(1486049866.107385) vcan0 42C#8C20000008C00000
(1486049866.109922) vcan0 082#6608140089804000
(1486049866.110897) vcan0 085#7C4C800064307C54
(1486049866.110955) vcan0 04A#0200000000000000
(1486049866.110982) vcan0 04B#00C0D8D8D8D8C000
(1486049866.111005) vcan0 04C#105FFFC000000000
(1486049866.111906) vcan0 091#7ECE7F08998DF000
(1486049866.111961) vcan0 092#6FBC6FB4737A4E8D
(1486049866.111999) vcan0 3A7#0E423A045F700000
(1486049866.112025) vcan0 217#1628162C16181624
(1486049866.112784) vcan0 047#2000000000000000
(1486049866.112818) vcan0 165#10CD460000000000
(1486049866.112846) vcan0 167#72801B10001A2900
(1486049866.112869) vcan0 455#A000000000000000
(1486049866.113899) vcan0 200#00007FF0801F0000
(1486049866.113933) vcan0 202#04FE0800608519E4
(1486049866.113972) vcan0 204#C0007D036E000000
(1486049866.113997) vcan0 230#500600009A000000
(1486049866.114894) vcan0 42F#7D04002E661B036E
(1486049866.115889) vcan0 5B3#B300FFFFFFFFFFFF
(1486049866.115919) vcan0 081#0000000000000000
(1486049866.115943) vcan0 083#4020000008000000
(1486049866.116865) vcan0 2A1#FFFFFFFF00000000
(1486049866.116892) vcan0 3E6#0001040880000000
(1486049866.116914) vcan0 186#141001FA008505FA
(1486049866.116949) vcan0 187#DE1408C800500300
(1486049866.117874) vcan0 18A#00201A0114000000
(1486049866.119742) vcan0 078#0168800000000000
(1486049866.120678) vcan0 085#7C4C800063407C54
(1486049866.120726) vcan0 3CA#827FF87100000000
(1486049866.120754) vcan0 091#7ED07F06988EF000
(1486049866.120789) vcan0 092#6FC06FB57389398E
(1486049866.121656) vcan0 422#000000933802FE02
(1486049866.121689) vcan0 423#9360000000000000
(1486049866.121713) vcan0 3A8#0100270A00000000
(1486049866.121775) vcan0 430#37000CF3C88D7700
(1486049866.122772) vcan0 076#3E7AC0800FFF0000
(1486049866.122818) vcan0 077#19DA07FC7FF80DFF
(1486049866.122863) vcan0 07D#0000F2D0001FD7F3
(1486049866.122900) vcan0 167#72801B10001A2900
(1486049866.123797) vcan0 202#04FD1000608519E4
(1486049866.123842) vcan0 204#C0007D036E000000
(1486049866.123869) vcan0 213#FFFF000400020040
(1486049866.123890) vcan0 214#000000000000F2D0
(1486049866.123924) vcan0 216#9227676C00000000
(1486049866.124789) vcan0 217#1628162C16181624
(1486049866.124823) vcan0 415#19E4C4FE07F907F9
(1486049866.124862) vcan0 41D#8000600000000000
(1486049866.124887) vcan0 4B0#01008000D00000F2
(1486049866.127362) vcan0 242#05B31FFFCE000001
(1486049866.129785) vcan0 082#6608140089804000
(1486049866.130893) vcan0 085#7C4C800062507C54
(1486049866.130953) vcan0 091#7ED07F06978FF000
(1486049866.130988) vcan0 092#6FC66FB373902D8F
(1486049866.131025) vcan0 3CC#3000000000000000
(1486049866.131756) vcan0 047#2000000000000000
(1486049866.132758) vcan0 217#1624162C16141624
(1486049866.132794) vcan0 05C#803000F8201E0000
(1486049866.132827) vcan0 165#10CD460000000000
(1486049866.132851) vcan0 167#72801B10001A2900
(1486049866.132873) vcan0 200#00007FF0801F0000
(1486049866.133897) vcan0 202#04FC1800608519E4
(1486049866.133942) vcan0 204#C0007D036E000000
(1486049866.133969) vcan0 230#500600009A000000
(1486049866.135137) vcan0 456#8000000000000000
(1486049866.136159) vcan0 186#141001FA008505FA
(1486049866.137152) vcan0 187#DE1408C800500300
(1486049866.138246) vcan0 3A6#0E401A045F700000
(1486049866.139723) vcan0 078#0068000000000000
(1486049866.140670) vcan0 085#7C4C800061607C54
(1486049866.140716) vcan0 091#7ECE7F069890F000
(1486049866.140754) vcan0 092#6FC96FB073893390
(1486049866.141750) vcan0 3A8#0100270A00000000
(1486049866.141856) vcan0 167#72801B10001A2900
(1486049866.142749) vcan0 076#3E7AC0800FFF0000
(1486049866.142786) vcan0 077#19DA07FB7FF819FF
(1486049866.142830) vcan0 07D#0000F1E0002057F4
(1486049866.142866) vcan0 202#04FC2000608519E3
(1486049866.143667) vcan0 204#C0007D036E000000
(1486049866.143699) vcan0 213#FFFF00040001FF40
(1486049866.143744) vcan0 214#000000000000F1E0
(1486049866.143779) vcan0 216#A93E7D8300000000
(1486049866.144607) vcan0 217#1624162816181620
(1486049866.144646) vcan0 415#19E2C8FF07F907F9
(1486049866.144680) vcan0 416#5A00F40001000000
(1486049866.144711) vcan0 41D#8000600000000000
(1486049866.145599) vcan0 42F#7D04002E661B036E
(1486049866.145625) vcan0 4B0#01008000E00000F1
(1486049866.149239) vcan0 05D#83579F5F37000000
(1486049866.150391) vcan0 082#6608140089804000
(1486049866.150435) vcan0 085#7C4C800060707C54
(1486049866.150477) vcan0 091#7ED57F088E91F000
(1486049866.151514) vcan0 092#6FC76FAF737D4191
(1486049866.151575) vcan0 3CA#827FF87100000000
(1486049866.152459) vcan0 217#1620162816181620
(1486049866.152512) vcan0 047#2000000000000000
(1486049866.153415) vcan0 165#10CD460000000000
(1486049866.153448) vcan0 167#72801B10001A2900
(1486049866.153471) vcan0 178#000002000E79CA79
(1486049866.154423) vcan0 200#00007FF0801F0000
(1486049866.154458) vcan0 202#04FB2800608519E3
(1486049866.154499) vcan0 204#C0007D036E000000
(1486049866.155495) vcan0 230#500600009A000000
(1486049866.155535) vcan0 261#0000000000000000
(1486049866.155558) vcan0 33B#0000000000000000
(1486049866.156516) vcan0 186#140F01FA008505FA
(1486049866.156575) vcan0 187#DD1408C800600300
(1486049866.157417) vcan0 42C#8C20000008C00000
(1486049866.159797) vcan0 085#7C4C80005F807C54
(1486049866.160928) vcan0 078#0569800000000000
(1486049866.161025) vcan0 091#7EE97F087992F000
(1486049866.161088) vcan0 092#6FC46FB073734C92
(1486049866.161147) vcan0 3CC#3000000000000000
(1486049866.161764) vcan0 3A8#0100270A00000000
(1486049866.161856) vcan0 167#72801B10001A2900
(1486049866.162903) vcan0 076#3E7AC0800FFF0000
(1486049866.162948) vcan0 077#19DA07FC7FF819FE
(1486049866.162991) vcan0 07D#0000F0F0001FF7F5
(1486049866.163027) vcan0 202#04FB3000608519E2
(1486049866.163063) vcan0 204#C0007D036E000000
(1486049866.163768) vcan0 213#FFFF00040001FF40
(1486049866.163794) vcan0 214#000000000000F0F0
(1486049866.163828) vcan0 216#BE54949A00000000
(1486049866.163862) vcan0 217#1620162C161C1618
(1486049866.164881) vcan0 415#19DECC0207F907F9
(1486049866.164918) vcan0 41D#8000600000000000
(1486049866.164942) vcan0 4B0#01008000F00000F0
(1486049866.167484) vcan0 242#05B31FFFCE000001
(1486049866.169793) vcan0 091#7F037F085D93F000
(1486049866.170789) vcan0 082#6708140089804000
(1486049866.170834) vcan0 085#7C4C80005E907C54
(1486049866.170870) vcan0 092#6FBF6FB4736C5393
(1486049866.171735) vcan0 047#2000000000000000
(1486049866.172733) vcan0 217#161C162C1624161C
(1486049866.172767) vcan0 165#10CD460000000000
(1486049866.172789) vcan0 167#72801B10001A2900
(1486049866.172810) vcan0 200#00007FF0801F0000
(1486049866.173748) vcan0 202#04FB3800608519E1
(1486049866.173795) vcan0 204#C0007D036E000000
(1486049866.173848) vcan0 230#500600009A000000
(1486049866.173882) vcan0 42F#7D04002E661B036E
(1486049866.175668) vcan0 186#140E01FA008505FA
(1486049866.176638) vcan0 187#DD1408C800600300
(1486049866.179660) vcan0 078#0168800000000000
(1486049866.180674) vcan0 085#7C4C80005DA07C54
(1486049866.180711) vcan0 3CA#827FE87100000000
(1486049866.180737) vcan0 091#7F157F094994F000
(1486049866.180762) vcan0 092#6FB86FB873685994
(1486049866.181651) vcan0 3A8#0100270A00000000
(1486049866.182671) vcan0 076#3E7AC0800FFF0000
(1486049866.182704) vcan0 077#19D907FC7FF811FF
(1486049866.182734) vcan0 07D#0000FF00001FA803
(1486049866.182759) vcan0 167#72801B10001A2900
(1486049866.183770) vcan0 202#04FB4000608519E0
(1486049866.183817) vcan0 204#C0007D036E000000
(1486049866.183841) vcan0 213#FFFF00040001FF40
(1486049866.183864) vcan0 214#000000000000FF00
(1486049866.183888) vcan0 216#D56BABAF00000000
(1486049866.184677) vcan0 217#1620162C1624161C
(1486049866.184714) vcan0 415#19DFD00007F907F9
(1486049866.184743) vcan0 41D#8000600000000000
(1486049866.184767) vcan0 4B0#01008000000000FF
(1486049866.189744) vcan0 091#7F177F0A4595F000
(1486049866.190782) vcan0 082#6708140089804000
(1486049866.190815) vcan0 085#7C4C80005CB07C54
(1486049866.190843) vcan0 092#6FB06FB973695E95
(1486049866.190867) vcan0 3CC#3000000000000000
(1486049866.191786) vcan0 217#1620162C1624161C
(1486049866.191832) vcan0 047#2000000000000000
(1486049866.192855) vcan0 165#10CD460000000000
(1486049866.192903) vcan0 167#72801B10001A2900
(1486049866.192933) vcan0 200#00007FF0801F0000
(1486049866.192961) vcan0 202#04FA4800608519E0
(1486049866.193749) vcan0 204#C0007D036E000000
(1486049866.193776) vcan0 230#500600009A000000
(1486049866.195520) vcan0 186#140E01FA008505FA
(1486049866.196511) vcan0 187#DD1408C800600300
(1486049866.199512) vcan0 078#0068000000000000
(1486049866.200532) vcan0 085#7C4C80005BC07C54
(1486049866.200567) vcan0 091#7F0F7F0B4B96F000
(1486049866.200594) vcan0 092#6FAE6FB4736D6096
(1486049866.201661) vcan0 3A8#0100270A00000000
(1486049866.201731) vcan0 167#72801B10001A2900
(1486049866.202666) vcan0 076#3E7AC0800FFF0000
(1486049866.202699) vcan0 077#19DA07FC7FF7FE00
(1486049866.202726) vcan0 07D#0000FE10001FA809
(1486049866.202751) vcan0 202#04FA5000608519DF
(1486049866.203639) vcan0 204#C0007D036E000000
(1486049866.203672) vcan0 213#FFFF00040001FF40
(1486049866.203697) vcan0 214#000000000000FE10
(1486049866.203723) vcan0 216#EC81C2C600000000
(1486049866.204640) vcan0 05A#00000045EAA10000
(1486049866.204676) vcan0 168#0000000000000000
(1486049866.204701) vcan0 217#1620162C16241620
(1486049866.204726) vcan0 261#0000000000000000
(1486049866.205640) vcan0 415#19E1D4FD07F907F9
(1486049866.205675) vcan0 41D#8000600000000000
(1486049866.205700) vcan0 42F#7D04002E661B036E
(1486049866.205723) vcan0 4B0#01008000100000FE
(1486049866.207509) vcan0 242#05B31FFFCE000001
(1486049866.208886) vcan0 3EB#C604140000200000
(1486049866.210039) vcan0 40A#C100334641365030
(1486049866.210073) vcan0 42C#8C20000008C00000
(1486049866.210097) vcan0 04A#0200000000000000
(1486049866.211041) vcan0 04B#00C0D8D8D8D8C000
(1486049866.211073) vcan0 04C#105FFFC000000000
(1486049866.211097) vcan0 082#6608140089804000
(1486049866.211121) vcan0 085#7C4C80005AD07C54
(1486049866.211146) vcan0 091#7EFF7F0C5A97F000
(1486049866.212015) vcan0 092#6FB16FAE73705F97
(1486049866.212051) vcan0 3CA#827FE87100000000
(1486049866.212076) vcan0 3E2#0000000080000000
(1486049866.212100) vcan0 047#2000000000000000
(1486049866.213014) vcan0 165#10CD460000000000
(1486049866.213046) vcan0 167#72801B10001A2900
(1486049866.213069) vcan0 200#00007FF0801F0000
(1486049866.213092) vcan0 202#04F95800608519DF
(1486049866.214124) vcan0 204#C0007D036E000000
(1486049866.214161) vcan0 217#1620162C16181620
(1486049866.214188) vcan0 230#500600009A000000
(1486049866.214211) vcan0 455#A000000000000000
(1486049866.215502) vcan0 186#140D01FA008505FA
(1486049866.216415) vcan0 083#4020000008000000
(1486049866.216449) vcan0 187#DD1408C800600300
(1486049866.216477) vcan0 18A#00201A0114000000
(1486049866.216500) vcan0 2A1#FFFFFFFF00000000
(1486049866.217401) vcan0 33B#0000000000000000
(1486049866.219543) vcan0 078#0168800000000000
(1486049866.220533) vcan0 085#7C4C800059E07C54
(1486049866.220567) vcan0 3CC#3000000000000000
(1486049866.220592) vcan0 091#7EF27F0B6798F000
(1486049866.220616) vcan0 092#6FB96FAD73705798
(1486049866.221654) vcan0 422#000000933802FE02
(1486049866.221687) vcan0 423#9360000000000000
(1486049866.221712) vcan0 430#37000CF3C88D7700
(1486049866.221736) vcan0 3A8#0100270A00000000
(1486049866.222639) vcan0 167#72801B10001A2900
(1486049866.222672) vcan0 076#3E7AC0800FFF0000
(1486049866.222698) vcan0 077#19DA07FD7FF7FDFF
(1486049866.222724) vcan0 07D#0000FD20001FB801
(1486049866.223663) vcan0 202#04F86000608519DF
(1486049866.223698) vcan0 204#C0007D036E000000
(1486049866.223721) vcan0 213#FFFF00040001FF40
(1486049866.223743) vcan0 214#000000000000FD20
(1486049866.224665) vcan0 216#0398D8DD00000000
(1486049866.224699) vcan0 217#1620162816181624
(1486049866.224727) vcan0 415#19DFD8FE07FA07FA
(1486049866.224751) vcan0 41D#8000600000000000
(1486049866.224772) vcan0 4B0#01008000200000FD
(1486049866.229975) vcan0 082#6608140489804000
(1486049866.230872) vcan0 085#7C4C800058F07C54
(1486049866.230950) vcan0 091#7EEE7F0B6A99F000
(1486049866.231009) vcan0 092#6FC26FB273675199
(1486049866.231989) vcan0 217#1624162816141624
(1486049866.232066) vcan0 047#2000000000000000
(1486049866.232993) vcan0 05C#80D000EE201E0000
(1486049866.233104) vcan0 165#10CD460000000000
(1486049866.233185) vcan0 167#72801B10001A2900
(1486049866.233259) vcan0 200#00007FF0801F0000
(1486049866.233995) vcan0 202#04F76800608519DF
(1486049866.234101) vcan0 204#C0007D036E000000
(1486049866.234181) vcan0 230#500600009A000000
(1486049866.235100) vcan0 42F#7D04002E661B036E
(1486049866.236107) vcan0 186#140D01FA008505FA
(1486049866.236271) vcan0 187#DD1408C800600300
(1486049866.239726) vcan0 078#0168800000000000
(1486049866.240750) vcan0 085#7C4C800067007C54
(1486049866.240867) vcan0 3CA#827FE87100000000
(1486049866.240949) vcan0 091#7EF47F0B639AF000
(1486049866.241025) vcan0 092#6FC76FB67359559A
(1486049866.241612) vcan0 3A8#0100270A00000000
(1486049866.242631) vcan0 167#72801B10001A2900
(1486049866.242731) vcan0 076#3E7AC0800FFF0000
(1486049866.242813) vcan0 077#19DA07FD7FF811FF
(1486049866.242892) vcan0 07D#0000FC30001F97FD
(1486049866.243538) vcan0 202#04F67000608519DF
(1486049866.243622) vcan0 204#C0007D036D000000
(1486049866.243697) vcan0 213#FFFF000400020040
(1486049866.243769) vcan0 214#000000000000FC30
(1486049866.243840) vcan0 216#1AAFEFF400000000
(1486049866.244522) vcan0 217#1624162416141624
(1486049866.244600) vcan0 415#19DFDCFD07FA07FA
(1486049866.244670) vcan0 416#5B00F30001000000
(1486049866.244738) vcan0 41D#8000600000000000
(1486049866.245514) vcan0 4B0#01008000300000FC
(1486049866.247393) vcan0 242#05B32000CE000001
(1486049866.249389) vcan0 05D#8357875F3D000000
(1486049866.249910) vcan0 091#7EFF7F0C569BF000
(1486049866.250870) vcan0 082#6508140089804000
(1486049866.250966) vcan0 085#7C4C800066107C54
(1486049866.251055) vcan0 092#6FC46FB77356599B
(1486049866.251200) vcan0 3CC#3000000000000000
(1486049866.251778) vcan0 217#1620162816141620
(1486049866.251838) vcan0 047#2000000000000000
(1486049866.252884) vcan0 165#10CD460000000000
(1486049866.252934) vcan0 167#72801B10001A2900
(1486049866.252979) vcan0 178#000001FF0E79CA79
(1486049866.253881) vcan0 200#00007FF080200000
(1486049866.253934) vcan0 202#04F67800608519DE
(1486049866.253982) vcan0 204#C0007D036D000000
(1486049866.254875) vcan0 230#500600009A000000
(1486049866.254922) vcan0 261#0000000000000000
(1486049866.256108) vcan0 186#140A01FA008505FA
(1486049866.256187) vcan0 187#DC1408C800700300
(1486049866.257106) vcan0 42C#8C20000008C00000
(1486049866.259867) vcan0 078#0469000000000000
(1486049866.260861) vcan0 085#7C4C800065207C54
(1486049866.260927) vcan0 091#7F047F0D4E9CF000
(1486049866.260982) vcan0 092#6FBE6FB4735E599C
(1486049866.261930) vcan0 3A8#0100270A00000000
(1486049866.262122) vcan0 167#72801B10001A2900
(1486049866.262815) vcan0 076#3E7AC0800FFF0000
(1486049866.262897) vcan0 077#19DB07FD7FF81600
(1486049866.262973) vcan0 07D#0000FB40001F4801
(1486049866.263046) vcan0 202#04050000608519DE
(1486049866.263807) vcan0 204#C0007D036E000000
(1486049866.263886) vcan0 213#FFFF00040001FF40
(1486049866.263962) vcan0 214#000000000000FB40
(1486049866.264034) vcan0 216#31C6060B00000000
(1486049866.264785) vcan0 217#161C16281618161C
(1486049866.264841) vcan0 415#19DCE0FF07FA07FA
(1486049866.264881) vcan0 41D#8000600000000000
(1486049866.264921) vcan0 42F#7D04002E661B036E
(1486049866.264962) vcan0 4B0#01008000400000FB
(1486049866.269763) vcan0 091#7F047F0E4C9DF000
(1486049866.270845) vcan0 082#6508140089804000
(1486049866.270903) vcan0 085#7C4C800064307C54
(1486049866.270950) vcan0 092#6FBB6FB1736E4E9D
(1486049866.270995) vcan0 3CA#827FC87100000000
(1486049866.271837) vcan0 217#1620162C161C1618
(1486049866.272840) vcan0 047#2000000000000000
(1486049866.272899) vcan0 165#10CD460000000000
(1486049866.272944) vcan0 167#72801B10001A2900
(1486049866.272984) vcan0 200#00007FF080200000
(1486049866.273971) vcan0 202#04050800608519DD
(1486049866.274032) vcan0 204#C0007D036D000000
(1486049866.274080) vcan0 230#500600009A000000
(1486049866.275085) vcan0 186#140801FA008505FA
(1486049866.276072) vcan0 187#DC1408C800700300
(1486049866.276145) vcan0 33B#0000000000000000
(1486049866.279712) vcan0 078#0168800000000000
(1486049866.280604) vcan0 085#7C4C800063407C54
(1486049866.280664) vcan0 3CC#3000000000000000
(1486049866.280709) vcan0 091#7EFE7F0E529EF000
(1486049866.280752) vcan0 092#6FBC6FB27379409E
(1486049866.281590) vcan0 3A8#0100270A00000000
(1486049866.282612) vcan0 167#72801B10001A2800
(1486049866.282675) vcan0 076#3E7AC0800FFF0000
(1486049866.282720) vcan0 077#19DA07FE7FF809FF
(1486049866.282764) vcan0 07D#0000FA50001FB803
(1486049866.282808) vcan0 202#04041000608519DD
(1486049866.283582) vcan0 204#C0007D036D000000
(1486049866.283641) vcan0 213#FFFF00040001FF40
(1486049866.283685) vcan0 214#000000000000FA50
(1486049866.283730) vcan0 216#48DD1C2200000000
(1486049866.284720) vcan0 217#161C163016201618
(1486049866.284782) vcan0 415#19DEE4FC07FA07FA
(1486049866.284830) vcan0 41D#8000600000000000
(1486049866.284868) vcan0 4B0#01008000500000FA
(1486049866.287341) vcan0 242#05B32003CE000001
(1486049866.289886) vcan0 082#6408140089804000
(1486049866.290834) vcan0 085#7C4C800062507C54
(1486049866.290889) vcan0 091#7EF67F0E599FF000
(1486049866.290932) vcan0 092#6FBE6FB673763C9F
(1486049866.291828) vcan0 217#1620162C1624161C
(1486049866.291882) vcan0 047#2000000000000000
(1486049866.292950) vcan0 165#10CD460000000000
(1486049866.293004) vcan0 167#72801B10001A2800
(1486049866.293044) vcan0 200#00007FF080200000
(1486049866.293958) vcan0 202#04031800608519DD
(1486049866.294013) vcan0 204#C0007D036D000000
(1486049866.294052) vcan0 230#500600009A000000
(1486049866.294954) vcan0 42F#7D04002E661B036E
(1486049866.295008) vcan0 186#140601FA008505FA
(1486049866.295949) vcan0 187#DC1408C800700300
(1486049866.299585) vcan0 078#0368800000000000
(1486049866.300704) vcan0 085#7C4B800062607C54
(1486049866.300767) vcan0 3CA#827FC87100000000
(1486049866.300805) vcan0 091#7EF47F0F59A0F000
(1486049866.300845) vcan0 092#6FBF6FB9736746A0
(1486049866.301577) vcan0 3A8#0100270A00000000
(1486049866.302594) vcan0 167#72801B10001A2900
(1486049866.302649) vcan0 076#3E7AC0800FFF0000
(1486049866.302689) vcan0 077#19DA07FE7FF80DFF
(1486049866.302726) vcan0 07D#0000F960001FD7FF
(1486049866.303591) vcan0 202#04022000608519DD
(1486049866.303649) vcan0 204#C0007D036D000000
(1486049866.303704) vcan0 213#FFFF00040001FF40
(1486049866.303740) vcan0 214#000000000000F960
(1486049866.303777) vcan0 216#5FF4333900000000
(1486049866.304700) vcan0 05A#00000045F0410000
(1486049866.304766) vcan0 217#1624163016241620
(1486049866.304808) vcan0 261#0000000000000000
(1486049866.304847) vcan0 415#19E0E8F907FA07FA
(1486049866.305582) vcan0 41D#8000600000000000
(1486049866.305635) vcan0 4B0#01008000600000F9
(1486049866.307567) vcan0 3B3#4048020F10050002
(1486049866.308573) vcan0 3C3#7EC0000000000000
(1486049866.308633) vcan0 42C#8C20000008C00000
(1486049866.309877) vcan0 04A#0200000000000000
(1486049866.310820) vcan0 04B#00C0D8D8D8D8C000
(1486049866.310868) vcan0 04C#105FFFC000000000
(1486049866.310904) vcan0 082#6208140089804000
(1486049866.310942) vcan0 085#7C4B800061707C54
(1486049866.311822) vcan0 091#7EF67F1055A1F000
(1486049866.311872) vcan0 092#6FBD6FB9735A54A1
(1486049866.311910) vcan0 3A7#0E423A045F700000
(1486049866.311945) vcan0 217#1624162C16241624
(1486049866.312817) vcan0 047#2000000000000000
(1486049866.312867) vcan0 165#10CD460000000000
(1486049866.312904) vcan0 167#72801B10001A2900
(1486049866.312938) vcan0 200#00007FF080200000
(1486049866.313802) vcan0 202#04012800608519DD
(1486049866.313884) vcan0 204#C0007D036D000000
(1486049866.313922) vcan0 3CC#3000000000000000
(1486049866.313957) vcan0 230#500600009A000000
(1486049866.314819) vcan0 455#A000000000000000
(1486049866.314868) vcan0 186#140501FA008505FA
(1486049866.315923) vcan0 187#DC1408C800700300
(1486049866.315983) vcan0 18A#00201A0114000000
(1486049866.316027) vcan0 083#4020000008000000
(1486049866.316061) vcan0 2A1#FFFFFFFF00000000
(1486049866.319558) vcan0 078#0068000000000000
(1486049866.320555) vcan0 422#000000933802FE02
(1486049866.320612) vcan0 085#7C4B800060807C54
(1486049866.320653) vcan0 423#9360000000000000
(1486049866.320689) vcan0 091#7EF97F1051A2F000
(1486049866.321449) vcan0 092#6FB86FB773585CA2
(1486049866.321501) vcan0 430#3F000CF3E88D7700
(1486049866.321540) vcan0 3A8#0100270A00000000
(1486049866.322450) vcan0 167#72801B10001A2900
(1486049866.322499) vcan0 076#3E79C0800FFF0000
(1486049866.322539) vcan0 077#19DA07FE7FF81200
(1486049866.322576) vcan0 07D#0000F870001F97FF
(1486049866.323572) vcan0 202#04003000608519DD
(1486049866.323625) vcan0 204#C0007D036D000000
(1486049866.323662) vcan0 213#FFFF00040001FF40
(1486049866.323697) vcan0 214#000000000000F870
(1486049866.324572) vcan0 216#76094A4E00000000
(1486049866.324625) vcan0 217#1624162C16201624
(1486049866.324665) vcan0 415#19E4ECF407FA07FA
(1486049866.324702) vcan0 41D#8000600000000000
(1486049866.325569) vcan0 42F#7D04002E661B036D
(1486049866.325621) vcan0 4B0#01008000700000F8
(1486049866.327316) vcan0 242#05B32002CE000001
(1486049866.329864) vcan0 082#6208140089804000
(1486049866.330810) vcan0 085#7C4B80005F907C54
(1486049866.330857) vcan0 091#7EFA7F0F50A3F000
(1486049866.330895) vcan0 092#6FB96FB8735D54A3
(1486049866.330928) vcan0 3CA#827FC87100000000
(1486049866.331806) vcan0 217#1624162816181628
(1486049866.332810) vcan0 047#2000000000000000
(1486049866.332855) vcan0 05C#807000F4201E0000
(1486049866.332892) vcan0 165#10CD460000000000
(1486049866.332924) vcan0 167#72801B10001A2800
(1486049866.333940) vcan0 200#00007FF080200000
(1486049866.333985) vcan0 202#04FE3800608519DE
(1486049866.334023) vcan0 204#C0007D036D000000
(1486049866.334052) vcan0 230#500600009A000000
(1486049866.334931) vcan0 186#140501FA008505FA
(1486049866.334977) vcan0 187#DC1408C800700300
(1486049866.335930) vcan0 33B#0000000000000000
(1486049866.339182) vcan0 3A6#0E401A045F700000
(1486049866.340184) vcan0 078#0168800000000000
(1486049866.340232) vcan0 085#7C4B80005EA07C54
(1486049866.340268) vcan0 3CC#3000000000000000
(1486049866.341296) vcan0 091#7EFE7F0F4BA4F000
(1486049866.341351) vcan0 092#6FBF6FB9735851A4
(1486049866.342195) vcan0 3A8#0100270A00000000
(1486049866.342291) vcan0 167#72801A10001A2800
(1486049866.342330) vcan0 076#3E79C0800FFF0000
(1486049866.342362) vcan0 077#19DB07FE7FF80A00
(1486049866.343190) vcan0 07D#0000F780001F6800
(1486049866.343237) vcan0 202#04FC4000608519DF
(1486049866.343272) vcan0 204#C0007D036E000000
(1486049866.343305) vcan0 213#FFFF000400020040
(1486049866.344170) vcan0 214#000000000000F780
(1486049866.344218) vcan0 216#8D20606500000000
(1486049866.344256) vcan0 217#1628162816181624
(1486049866.344289) vcan0 415#19E0F0F707FA07FA
(1486049866.345167) vcan0 416#5C00F20001000000
(1486049866.345215) vcan0 41D#8000600000000000
(1486049866.345249) vcan0 4B0#01008000800000F7
(1486049866.349441) vcan0 05D#8357AF5E34000000
(1486049866.350549) vcan0 082#6208140089804000
(1486049866.350600) vcan0 085#7C4B80005DB07C54
(1486049866.350637) vcan0 091#7F0A7F0F3DA5F000
(1486049866.351445) vcan0 092#6FC76FB8734D54A5
(1486049866.351492) vcan0 169#0081C00000000000
(1486049866.352441) vcan0 217#1624162C16181624
(1486049866.352487) vcan0 047#2000000000000000
(1486049866.352522) vcan0 165#10CD460000000000
(1486049866.353440) vcan0 167#72801A10001A2800
(1486049866.353486) vcan0 178#000002000E79CA79
(1486049866.354436) vcan0 200#00007FF080200000
(1486049866.354481) vcan0 202#04FB4800608519DF
(1486049866.354517) vcan0 204#C0007D036E000000
(1486049866.355443) vcan0 186#140801FA008505FA
(1486049866.355490) vcan0 187#DB1408C800800300
(1486049866.355528) vcan0 230#500600009A000000
(1486049866.355559) vcan0 261#0000000000000000
(1486049866.356436) vcan0 42F#7D04002E661B036D
(1486049866.357430) vcan0 42C#8C20000008C00000
(1486049866.359683) vcan0 078#0569800000000000
(1486049866.360812) vcan0 085#7C4B80005CC07C54
(1486049866.360898) vcan0 3CA#827FC87100000000
(1486049866.360939) vcan0 091#7F207F0F26A6F000
(1486049866.360973) vcan0 092#6FC86FB573485AA6
(1486049866.361858) vcan0 3A8#0100270A00000000
(1486049866.362013) vcan0 167#72801A10001A2900
(1486049866.362868) vcan0 076#3E79C0800FFF0000
(1486049866.362940) vcan0 077#19DC07FE7FF81A00
(1486049866.362999) vcan0 07D#0000F690001F1805
(1486049866.363054) vcan0 202#04FB5000608519DE
(1486049866.363863) vcan0 204#C0007D036E000000
(1486049866.363938) vcan0 213#FFFF00040001FF40
(1486049866.363999) vcan0 214#000000000000F690
(1486049866.364054) vcan0 216#A237777C00000000
(1486049866.364863) vcan0 217#1624162816141620
(1486049866.364942) vcan0 415#19E3F4F307FA07FA
(1486049866.365004) vcan0 41D#8000600000000000
(1486049866.365057) vcan0 4B0#01008000900000F6
(1486049866.367485) vcan0 242#05B32001CE000001
(1486049866.369883) vcan0 082#6308140089804000
(1486049866.370869) vcan0 085#7C4B80005BD07C54
(1486049866.370945) vcan0 091#7F357F100FA7F000
(1486049866.371005) vcan0 092#6FC36FB5734F57A7
(1486049866.371059) vcan0 3CC#3000000000000000
(1486049866.371870) vcan0 047#2000000000000000
(1486049866.372843) vcan0 217#1624162C161C1620
(1486049866.372954) vcan0 165#10CD460000000000
(1486049866.373061) vcan0 167#72801B10001A2800
(1486049866.373160) vcan0 200#00007FF080200000
(1486049866.373250) vcan0 202#04F95800608519DF
(1486049866.373956) vcan0 204#C0007D036E000000
(1486049866.374051) vcan0 230#500600009A000000
(1486049866.375413) vcan0 186#140A01FA008505FA
(1486049866.375627) vcan0 187#DB1408C800800300
(1486049866.379541) vcan0 078#0068000000000000
(1486049866.380479) vcan0 085#7C4B80005AE07C54
(1486049866.380551) vcan0 091#7F407F1102A8F000
(1486049866.380606) vcan0 092#6FBF6FB7735651A8
(1486049866.381594) vcan0 3A8#0100270A00000000
(1486049866.382617) vcan0 167#72801B10001A2800
(1486049866.382690) vcan0 076#3E79C0800FFF0000
(1486049866.382746) vcan0 077#19DC07FE7FF815FF
(1486049866.382800) vcan0 07D#0000F5A0001F2812
(1486049866.383747) vcan0 202#04F86000608519DF
(1486049866.383830) vcan0 204#C0007D036E000000
(1486049866.383889) vcan0 213#FFFF00040001FF40
(1486049866.383940) vcan0 214#000000000000F5A0
(1486049866.384621) vcan0 216#B94E8E9300000000
(1486049866.384698) vcan0 217#1620162C16201620
(1486049866.384756) vcan0 415#19DFF8F607FA07FA
(1486049866.384810) vcan0 41D#8000600000000000
(1486049866.384860) vcan0 42F#7D04002E661B036E
(1486049866.385604) vcan0 4B0#01008000A00000F5
(1486049866.389880) vcan0 082#6308140089804000
(1486049866.390837) vcan0 085#7C4B800059F07C54
(1486049866.390905) vcan0 091#7F427F1000A9F000
(1486049866.390956) vcan0 092#6FBD6FB8735255A9
(1486049866.391003) vcan0 3CA#827FB86E00000000
(1486049866.391848) vcan0 217#162416341620161C
(1486049866.391918) vcan0 047#2000000000000000
(1486049866.392845) vcan0 165#10CD460000000000
(1486049866.392932) vcan0 167#72801B10001A2900
(1486049866.393006) vcan0 200#00007FF080200000
(1486049866.393071) vcan0 202#04F76800608519DF
(1486049866.393981) vcan0 204#C0007D036E000000
(1486049866.394046) vcan0 230#500600009A000000
(1486049866.394969) vcan0 186#140801FA008505FA
(1486049866.395065) vcan0 187#DB1408C800800300
(1486049866.395963) vcan0 33B#0000000000000000
(1486049866.399444) vcan0 078#0168800000000000
(1486049866.400445) vcan0 085#7C4A80006A007C53
(1486049866.400526) vcan0 091#7F437F0FFFAAF000
(1486049866.400591) vcan0 092#6FBC6FB7734B5DAA
(1486049866.401439) vcan0 3CC#3000000000000000
(1486049866.401496) vcan0 3A8#0100270A00000000
(1486049866.402594) vcan0 167#72801B10001A2800
(1486049866.402691) vcan0 076#3E79C0800FFF0000
(1486049866.402740) vcan0 077#19DC07FE7FF80E00
(1486049866.402804) vcan0 07D#0000F4B0001F3816
(1486049866.403473) vcan0 202#04F67000608519DF
(1486049866.403558) vcan0 204#C0007D036E000000
(1486049866.403606) vcan0 213#FFFF00040001FF40
(1486049866.403643) vcan0 214#000000000000F4B0
(1486049866.404470) vcan0 216#D065A5AA00000000
(1486049866.404571) vcan0 05A#00000045E6E10000
(1486049866.404645) vcan0 217#1624163416241620
(1486049866.404706) vcan0 261#0000000000000000
(1486049866.405469) vcan0 415#19E5FCEF07FA07FA
(1486049866.405556) vcan0 41D#8000600000000000
(1486049866.405620) vcan0 4B0#01008000B00000F4
(1486049866.407475) vcan0 242#05B32003CE000001
(1486049866.408591) vcan0 40A#C1014B3931485232
(1486049866.408685) vcan0 42C#8C20000008C00000
(1486049866.409982) vcan0 04A#0200000000000000
(1486049866.410943) vcan0 04B#00C0D8D8D8D8C000
(1486049866.411026) vcan0 04C#105FFFC000000000
(1486049866.411085) vcan0 082#6308140089804000
(1486049866.411140) vcan0 085#7C4A800069107C53
(1486049866.411947) vcan0 091#7F447F0C00ABF000
(1486049866.412034) vcan0 092#6FB96FB5734F5DAB
(1486049866.412093) vcan0 217#162816341628161C
(1486049866.412149) vcan0 455#A000000000000000
(1486049866.412755) vcan0 047#2000000000000000
(1486049866.412812) vcan0 165#10CD460000000000
(1486049866.412861) vcan0 167#72801B10001A2800
(1486049866.412910) vcan0 200#00007FF080200000
(1486049866.413755) vcan0 202#04F57800608519DF
(1486049866.413840) vcan0 204#C0007D036E000000
(1486049866.413893) vcan0 230#500600009A000000
(1486049866.414866) vcan0 42F#7D04002E661B036E
(1486049866.414919) vcan0 186#140601FA008505FA
(1486049866.414969) vcan0 187#DB1408C800800300
(1486049866.415017) vcan0 18A#00201A0114000000
(1486049866.415875) vcan0 083#4020000008000000
(1486049866.415927) vcan0 2A1#FFFFFFFF00000000
(1486049866.419377) vcan0 078#0168800000000000
(1486049866.420379) vcan0 422#000000933802FE02
(1486049866.420434) vcan0 085#7C4A800068207C53
(1486049866.420488) vcan0 091#7F3F7F0A06ACF000
(1486049866.420540) vcan0 092#6FB96FB3735D50AC
(1486049866.421393) vcan0 3CA#827FB86E00000000
(1486049866.421450) vcan0 423#9360000000000000
(1486049866.421500) vcan0 430#37000CF3C88D7700
(1486049866.421551) vcan0 3A8#0100270A00000000
(1486049866.422389) vcan0 167#72801B10001A2800
(1486049866.422443) vcan0 076#3E78C0800FFF0000
(1486049866.422494) vcan0 077#19DC07FD7FF80E00
(1486049866.422545) vcan0 07D#0000F3C0001F1817
(1486049866.423503) vcan0 202#04030000608519E0
(1486049866.423559) vcan0 204#C0007D036E000000
(1486049866.423607) vcan0 213#FFFF000400020040
(1486049866.423656) vcan0 214#000000000000F3C0
(1486049866.424505) vcan0 216#E77CBCC100000000
(1486049866.424559) vcan0 217#1628163016241620
(1486049866.424610) vcan0 415#19E8C0FB07FA07FA
(1486049866.424660) vcan0 41D#8000600000000000
(1486049866.424707) vcan0 4B0#01008000C00000F3
(1486049866.429753) vcan0 091#7F317F0A13ADF000
(1486049866.430753) vcan0 082#6208140089804000
(1486049866.430808) vcan0 085#7C4A800067307C53
(1486049866.430857) vcan0 092#6FBB6FB1736745AD
(1486049866.430907) vcan0 3CC#3000000000000000
(1486049866.431751) vcan0 217#1628162C16201620
(1486049866.431806) vcan0 047#2000000000000000
(1486049866.432753) vcan0 05C#801000FA201E0000
(1486049866.432807) vcan0 165#10CD460000000000
(1486049866.432854) vcan0 167#72801B10001A2800
(1486049866.432901) vcan0 200#00007FF080200000
(1486049866.433760) vcan0 202#04010800608519E1
(1486049866.433850) vcan0 204#C0007D036E000000
(1486049866.433899) vcan0 596#9600FFFFFFFFFFFF
(1486049866.433942) vcan0 230#500600009A000000
(1486049866.434746) vcan0 186#140601FA008505FA
(1486049866.434792) vcan0 187#DB1408C800800300
(1486049866.439247) vcan0 078#0068000000000000
(1486049866.440245) vcan0 085#7C4A800066407C53
(1486049866.440297) vcan0 091#7F1F7F0B23AEF000
(1486049866.441323) vcan0 092#6FBD6FB2736A3EAE
(1486049866.441393) vcan0 3A8#0100270900000000
(1486049866.442320) vcan0 167#72801B10001A2800
(1486049866.442387) vcan0 076#3E78C0800FFF0000
(1486049866.442440) vcan0 077#19DC07FC7FF809FF
(1486049866.442491) vcan0 07D#0000F2D0001F9811
(1486049866.443383) vcan0 202#04FF1000608519E2
(1486049866.443437) vcan0 204#C0007D036E000000
(1486049866.443484) vcan0 213#FFFF00040001FF40
(1486049866.443532) vcan0 214#000000000000F2D0
(1486049866.444378) vcan0 216#FE93D2D800000000
(1486049866.444428) vcan0 217#1628163016181624
(1486049866.444473) vcan0 415#19E4C4FE07FA07FA
(1486049866.444518) vcan0 416#5D00F10001000000
(1486049866.445373) vcan0 41D#8000600000000000
(1486049866.445420) vcan0 41E#0000000000000000
(1486049866.445464) vcan0 42F#7D04002E661B036E
(1486049866.445507) vcan0 4B0#01008000D00000F2
(1486049866.447496) vcan0 242#05B32003CE000001
(1486049866.449370) vcan0 05D#8357975F39000000
(1486049866.450376) vcan0 082#6008140089804000
(1486049866.450429) vcan0 085#7C4A800065507C53
(1486049866.450590) vcan0 091#7F107F0C30AFF000
(1486049866.451371) vcan0 092#6FC26FB273683AAF
(1486049866.451427) vcan0 3CA#827FB86E00000000
(1486049866.452360) vcan0 217#1628162C16181628
(1486049866.452413) vcan0 047#2000000000000000
(1486049866.452458) vcan0 165#10CD460000000000
(1486049866.453360) vcan0 167#72801A10001A2800
(1486049866.453412) vcan0 178#000002000E79CA79
(1486049866.453456) vcan0 200#00007FF080200000
(1486049866.454364) vcan0 202#04FE1800608519E2
(1486049866.454416) vcan0 186#140801FA008505FA
(1486049866.454462) vcan0 187#DA1408C800900300
(1486049866.454507) vcan0 204#C0007D036F000000
(1486049866.455357) vcan0 230#500600009A000000
(1486049866.455403) vcan0 261#0000000000000000
(1486049866.456355) vcan0 33B#0000000000000000
(1486049866.457480) vcan0 42C#8C20000008C00000
(1486049866.459623) vcan0 078#0569800000000000
(1486049866.460627) vcan0 085#7C4A800064607C53
(1486049866.460680) vcan0 3CC#3000000000000000
(1486049866.460726) vcan0 091#7F057F0B3BB0F000
(1486049866.460774) vcan0 092#6FC76FB3736932B0
(1486049866.461655) vcan0 3A8#0100270900000000
(1486049866.461797) vcan0 167#72801A10001A2800
(1486049866.462664) vcan0 076#3E78C0800FFF0000
(1486049866.462729) vcan0 077#19DC07FD7FF811FF
(1486049866.462788) vcan0 07D#0000F1E0001F9807
(1486049866.462845) vcan0 202#04FD2000608519E2
(1486049866.463653) vcan0 204#C0007D036F000000
(1486049866.463716) vcan0 213#FFFF00040001FF40
(1486049866.463770) vcan0 214#000000000000F1E0
(1486049866.463826) vcan0 216#15AAE8EE00000000
(1486049866.464646) vcan0 217#162C163016141624
(1486049866.464699) vcan0 415#19E7C8FA07FA07FA
(1486049866.464736) vcan0 41D#8000600000000000
(1486049866.464769) vcan0 4B0#01008000E00000F1
(1486049866.469936) vcan0 082#5E08140089804000
(1486049866.470813) vcan0 085#7C4A800063707C53
(1486049866.470859) vcan0 091#7EFC7F0847B1F000
(1486049866.470898) vcan0 092#6FC96FB4737126B1
(1486049866.471806) vcan0 217#1628163416181624
(1486049866.471854) vcan0 047#2000000000000000
(1486049866.472805) vcan0 165#10CD460000000000
(1486049866.472851) vcan0 167#72801A10001A2800
(1486049866.472885) vcan0 200#00007FF080200000
(1486049866.473937) vcan0 202#04FC2800608519E2
(1486049866.473983) vcan0 204#C0007D036F000000
(1486049866.474018) vcan0 230#500600009A000000
(1486049866.474050) vcan0 186#140A01FA008505FA
(1486049866.474934) vcan0 187#DA1408C800900300
(1486049866.474979) vcan0 42F#7D04002E661B036F
(1486049866.479298) vcan0 078#0168800000000000
(1486049866.480272) vcan0 085#7C4A800062807C53
(1486049866.480313) vcan0 3CA#827FB86E00000000
(1486049866.480348) vcan0 091#7EFA7F064AB2F000
(1486049866.481260) vcan0 092#6FC46FB4737C1FB2
(1486049866.482264) vcan0 3A8#0100270900000000
(1486049866.482349) vcan0 167#72801A10001A2800
(1486049866.482381) vcan0 076#3E7DC0800FFF0000
(1486049866.482414) vcan0 077#19DC07FC7FF819FF
(1486049866.483442) vcan0 07D#0000F0F0001FC800
(1486049866.483489) vcan0 202#04FA3000608519E3
(1486049866.483524) vcan0 204#C0007D036F000000
(1486049866.483555) vcan0 213#FFFF00040001FF40
(1486049866.483585) vcan0 214#000000000000F0F0
(1486049866.484436) vcan0 216#2CC1FF0400000000
(1486049866.484484) vcan0 217#1628163016181624
(1486049866.484521) vcan0 415#19EACCF607FA07FA
(1486049866.484556) vcan0 41D#8000600000000000
(1486049866.485413) vcan0 4B0#01008000F00000F0
(1486049866.487316) vcan0 242#05B32001CE000001
(1486049866.489836) vcan0 082#6008140089804000
(1486049866.490801) vcan0 085#7C4A800061907C53
(1486049866.490845) vcan0 091#7F037F0243B3F000
(1486049866.490880) vcan0 092#6FC06FB7738318B3
(1486049866.490910) vcan0 3CC#3000000000000000
(1486049866.491796) vcan0 217#1628163416201624
(1486049866.492925) vcan0 047#2000000000000000
(1486049866.492967) vcan0 165#10CD460000000000
(1486049866.493000) vcan0 167#72801A10001A2800
(1486049866.493029) vcan0 200#00007FF080200000
(1486049866.493057) vcan0 202#04F83800608519E4
(1486049866.493926) vcan0 204#C0007D036F000000
(1486049866.493967) vcan0 230#500600009A000000
(1486049866.493999) vcan0 186#140801FA008505FA
(1486049866.494920) vcan0 187#DA1408C800900300
(1486049866.499174) vcan0 078#0068000000000000
(1486049866.500306) vcan0 085#7C4A80005FA07C54
(1486049866.500350) vcan0 091#7F167F0130B4F000
(1486049866.501305) vcan0 092#6FC36FBA737B19B4
(1486049866.502310) vcan0 3A8#0100270D00000000
(1486049866.502393) vcan0 076#3E7DC0800FFF0000
(1486049866.502426) vcan0 077#19DC07FA7FF81200
(1486049866.502456) vcan0 07D#0000FF0000201803
(1486049866.503308) vcan0 167#72801A10001A2800
(1486049866.503350) vcan0 202#04F74000608519E4
(1486049866.503384) vcan0 213#FFFF00040001FF40
(1486049866.503413) vcan0 214#000000000000FF00
(1486049866.504308) vcan0 204#C0007D036F000000
(1486049866.504350) vcan0 05A#00000045EC810000
(1486049866.504385) vcan0 216#42D6161B00000000
(1486049866.504416) vcan0 217#1624163016241624
(1486049866.505283) vcan0 261#0000000000000000
(1486049866.505327) vcan0 415#19E6D0F907FA07FA
(1486049866.505363) vcan0 41D#8000600000000000
(1486049866.505393) vcan0 42F#7D04002E661B036F
(1486049866.506301) vcan0 4B0#01008000000000FF
(1486049866.508026) vcan0 42C#8C20000008C00000
(1486049866.509801) vcan0 04A#0200000000000000
(1486049866.510793) vcan0 082#6008140089804000
(1486049866.510831) vcan0 04B#00C0D8D8D8D8C000
(1486049866.510863) vcan0 04C#105FFFC000000000
(1486049866.510890) vcan0 085#7C49800060B07C53
(1486049866.511896) vcan0 091#7F267F011FB5F000
(1486049866.511944) vcan0 092#6FC26FBC736B27B5
(1486049866.511976) vcan0 3A7#0E423A045F700000
(1486049866.512004) vcan0 3CA#827F986E00000000
(1486049866.512919) vcan0 047#2000000000000000
(1486049866.512960) vcan0 165#10CD460000000000
(1486049866.512990) vcan0 167#72801A10001A2800
(1486049866.513017) vcan0 200#00007FF080200000
(1486049866.513926) vcan0 202#04F64800608519E4
(1486049866.513967) vcan0 204#C0007D036E000000
(1486049866.513998) vcan0 217#1628163C16281620
(1486049866.514027) vcan0 186#140601FA008505FA
(1486049866.514057) vcan0 187#DA1408C800900300
(1486049866.514898) vcan0 18A#00201A0114000000
(1486049866.514938) vcan0 230#500600009A000000
(1486049866.514968) vcan0 455#A000000000000000
(1486049866.515897) vcan0 083#4020000008000000
(1486049866.515937) vcan0 2A1#FFFFFFFF00000000
(1486049866.516913) vcan0 33B#0000000000000000
(1486049866.518800) vcan0 59E#9E00FFFFFFFFFFFF
(1486049866.519894) vcan0 078#0168800000000000
(1486049866.519942) vcan0 422#000000933802FE02
(1486049866.519970) vcan0 423#9360000000000000
(1486049866.520896) vcan0 085#7C4980005EC07C54
(1486049866.520944) vcan0 091#7F2D7F0117B6F000
(1486049866.520975) vcan0 092#6FBA6FBA736A31B6
(1486049866.521004) vcan0 3CC#3000000000000000
(1486049866.521797) vcan0 430#37000CF3C88D7700
(1486049866.521872) vcan0 43A#0000020000000000
(1486049866.521902) vcan0 3A8#0100270D00000000
(1486049866.521970) vcan0 167#72801A10001A2800
(1486049866.522772) vcan0 076#3E7DC0800FFF0000
(1486049866.522809) vcan0 077#19DD07FA7FF81601
(1486049866.522838) vcan0 07D#0000FE10001FF80E
(1486049866.522867) vcan0 202#04F55000608519E4
(1486049866.523773) vcan0 204#C0007D036E000000
(1486049866.523810) vcan0 213#FFFF000400020040
(1486049866.523841) vcan0 214#000000000000FE10
(1486049866.523869) vcan0 216#59ED2D3200000000
(1486049866.523897) vcan0 217#162C163C162C1620
(1486049866.524896) vcan0 415#19ECD4F207FA07FA
(1486049866.524935) vcan0 41D#8000600000000000
(1486049866.524964) vcan0 4B0#01008000100000FE
(1486049866.527266) vcan0 242#05B32001CE000001
(1486049866.529788) vcan0 082#6208140089804000
(1486049866.530792) vcan0 085#7C4880005ED07C54
(1486049866.530831) vcan0 091#7F247F021EB7F000
(1486049866.530863) vcan0 092#6FB06FB7738126B7
(1486049866.530889) vcan0 188#4000000000000000
(1486049866.531782) vcan0 047#2000000000000000
(1486049866.532786) vcan0 217#162C163C16281624
(1486049866.532825) vcan0 05C#80B000F0201E0000
(1486049866.532856) vcan0 165#10CD460000000000
(1486049866.532882) vcan0 167#72801A10001A2800
(1486049866.533789) vcan0 200#00007FF080200000
(1486049866.533851) vcan0 202#04F35800608519E5
(1486049866.533881) vcan0 186#140601FA008505FA
(1486049866.533905) vcan0 187#DA1408C800900300
(1486049866.533927) vcan0 204#C0007D036E000000
(1486049866.534886) vcan0 230#500600009A000000
(1486049866.534922) vcan0 42F#7D04002E661B036F
(1486049866.538120) vcan0 3A6#0E401A045F700000
(1486049866.539244) vcan0 078#0168800000000000
(1486049866.540254) vcan0 085#7C4880005DE07C54
(1486049866.540296) vcan0 3CA#827F986E00000000
(1486049866.541286) vcan0 091#7F0F7F052FB8F000
(1486049866.541322) vcan0 092#6FB16FB573990EB8
(1486049866.541349) vcan0 454#3646200372204242
(1486049866.542278) vcan0 3A8#0100270D00000000
(1486049866.542349) vcan0 167#72801A10001A2800
(1486049866.542375) vcan0 076#3E7CC0800FFF0000
(1486049866.542399) vcan0 077#19DE07FA7FF7FE00
(1486049866.543286) vcan0 07D#0000FD200020080D
(1486049866.543321) vcan0 202#04F16000608519E6
(1486049866.543347) vcan0 204#C0007D036E000000
(1486049866.543370) vcan0 213#FFFF000400020040
(1486049866.544263) vcan0 214#000000000000FD20
(1486049866.544298) vcan0 216#7004444900000000
(1486049866.544325) vcan0 217#162C163816241628
(1486049866.544350) vcan0 415#19F3D8EA07FA07FA
(1486049866.544374) vcan0 416#5E00F00001000000
(1486049866.545258) vcan0 41D#8000600000000000
(1486049866.545292) vcan0 4B0#01008000200000FD
(1486049866.549409) vcan0 05D#8357BF5C32000000
(1486049866.550500) vcan0 082#6008140089804000
(1486049866.550539) vcan0 085#7C4880005CF07C54
(1486049866.550567) vcan0 091#7EF07F074CB9F000
(1486049866.551492) vcan0 092#6FBE6FB6739503B9
(1486049866.551532) vcan0 3CC#3000000000000000
(1486049866.552499) vcan0 217#162C163016201628
(1486049866.552539) vcan0 047#2000000000000000
(1486049866.552563) vcan0 165#10CD460000000000
(1486049866.553408) vcan0 167#72801A10001A2800
(1486049866.553441) vcan0 186#140501FA008505FA
(1486049866.553468) vcan0 178#000001FF0E79CA79
(1486049866.553492) vcan0 187#D91408C800A00300
(1486049866.554406) vcan0 200#00007FF0801F0000
(1486049866.554440) vcan0 202#04EE6800608519E8
(1486049866.554465) vcan0 204#C0007D036E000000
(1486049866.555381) vcan0 230#500600009A000000
(1486049866.555412) vcan0 261#0000000000000000
(1486049866.556781) vcan0 42C#8C20000008C00000
(1486049866.559534) vcan0 078#0469000000000000
(1486049866.560630) vcan0 085#7C4880006B007C54
(1486049866.560695) vcan0 091#7ED77F0962BAF000
(1486049866.560729) vcan0 092#6FCA6FB6737813BA
(1486049866.561613) vcan0 3A8#0100270D00000000
(1486049866.562623) vcan0 076#3E7BC0800FFF0000
(1486049866.562663) vcan0 077#19DF07FB7FF80DFF
(1486049866.562690) vcan0 07D#0000FC30002067FE
(1486049866.562715) vcan0 167#72801A10001A2800
(1486049866.563541) vcan0 213#FFFF000400020040
(1486049866.563573) vcan0 214#000000000000FC30
(1486049866.563600) vcan0 216#871B5B6000000000
(1486049866.563627) vcan0 202#04EC7000608519E9
(1486049866.564529) vcan0 204#C0007D036E000000
(1486049866.564561) vcan0 217#162C1634161C162C
(1486049866.564588) vcan0 415#19E8DCF407FA07FA
(1486049866.564610) vcan0 41D#8000600000000000
(1486049866.565527) vcan0 42F#7D04002E661B036E
(1486049866.565561) vcan0 4B0#01008000300000FC
(1486049866.567410) vcan0 242#05B31FFECE000001
(1486049866.569888) vcan0 082#6108140089804000
(1486049866.570870) vcan0 085#7C4880006A107C54
(1486049866.570910) vcan0 091#7EDD7F0B59BBF000
(1486049866.570937) vcan0 092#6FCC6FB7735D2ABB
(1486049866.570961) vcan0 3CA#827F986E00000000
(1486049866.571800) vcan0 047#2000000000000000
(1486049866.572751) vcan0 217#162C163416181628
(1486049866.572823) vcan0 165#10CD460000000000
(1486049866.572883) vcan0 167#72801A10001A2800
(1486049866.572940) vcan0 200#00007FF0801F0000
(1486049866.572996) vcan0 202#04EB7800608519E9
(1486049866.573886) vcan0 186#140501FA008505FA
(1486049866.573911) vcan0 187#D91408C800A00300
(1486049866.573930) vcan0 204#C0007D036E000000
(1486049866.573947) vcan0 230#500600009A000000
(1486049866.575535) vcan0 33B#0000000000000000
(1486049866.579164) vcan0 078#0168800000000000
(1486049866.580158) vcan0 085#7C48800069207C54
(1486049866.580192) vcan0 3CC#3000000000000000
(1486049866.581158) vcan0 091#7EF97F0B3CBCF000
(1486049866.581192) vcan0 092#6FC46FB9735E2EBC
(1486049866.581219) vcan0 3A8#0100270C00000000
(1486049866.582285) vcan0 167#72801A10001A2800
(1486049866.582317) vcan0 076#3E7BC0800FFF0000
(1486049866.582340) vcan0 077#19E007FD7FF81E00
(1486049866.583285) vcan0 07D#0000FB40001F67F8
(1486049866.583319) vcan0 202#04FB0000608519E8
(1486049866.583347) vcan0 204#C0007D036E000000
(1486049866.583370) vcan0 213#FFFF000400020040
(1486049866.584278) vcan0 214#000000000000FB40
(1486049866.584312) vcan0 216#9E32727700000000
(1486049866.584338) vcan0 217#162C1630161C1628
(1486049866.584362) vcan0 415#19EDE0EE07FB07FB
(1486049866.585283) vcan0 41D#8000600000000000
(1486049866.585315) vcan0 4B0#01008000400000FB
(1486049866.589780) vcan0 091#7F0F7F0827BDF000
(1486049866.590782) vcan0 082#6108140089804000
(1486049866.590815) vcan0 085#7C48800068307C54
(1486049866.590842) vcan0 092#6FBD6FBA73731EBD
(1486049866.591760) vcan0 217#162C1630161C1624
(1486049866.591796) vcan0 047#2000000000000000
(1486049866.592763) vcan0 165#10CD460000000000
(1486049866.592801) vcan0 167#72801A10001A2800
(1486049866.592830) vcan0 200#00007FF0801F0000
(1486049866.593776) vcan0 186#140401FA008505FA
(1486049866.593842) vcan0 187#D91408C800A00300
(1486049866.593870) vcan0 202#04F90800608519E9
(1486049866.593895) vcan0 204#C0007D036E000000
(1486049866.594770) vcan0 230#500600009A000000
(1486049866.594804) vcan0 42F#7D04002E661B036E
(1486049866.599151) vcan0 078#0168800000000000
(1486049866.600151) vcan0 091#7F187F0223BEF000
(1486049866.600185) vcan0 085#7C48800067407C54
(1486049866.601153) vcan0 092#6FBC6FBB73830DBE
(1486049866.601186) vcan0 3CA#827F287300000000
(1486049866.601214) vcan0 3A8#0100270C00000000
(1486049866.602152) vcan0 167#72801A10001A2800
(1486049866.602186) vcan0 076#3E7BC0800FFF0000
(1486049866.602210) vcan0 077#19E007FC7FF80E01
(1486049866.603154) vcan0 07D#0000FA50001FC807
(1486049866.603187) vcan0 202#04F81000608519E9
(1486049866.603213) vcan0 204#C0007D036E000000
(1486049866.603236) vcan0 213#FFFF000400020040
(1486049866.604262) vcan0 214#000000000000FA50
(1486049866.604297) vcan0 216#B549898D00000000
(1486049866.604324) vcan0 05A#00000045F2210000
(1486049866.604349) vcan0 217#1628163416241620
(1486049866.605260) vcan0 261#0000000000000000
(1486049866.605292) vcan0 265#2001010410000000
(1486049866.605317) vcan0 415#19EAE4F007FB07FB
(1486049866.605344) vcan0 41D#8000600000000000
(1486049866.606258) vcan0 453#3257364570646166
(1486049866.606292) vcan0 4B0#01008000500000FA
(1486049866.607403) vcan0 242#05B31FFECE000001
(1486049866.608406) vcan0 40A#C1023130373639FF
(1486049866.608441) vcan0 42C#8C20000008C00000
(1486049866.609779) vcan0 04A#0200000000000000
(1486049866.610779) vcan0 04B#00C0D8D8D8D8C000
(1486049866.610811) vcan0 04C#105FFFC000000000
(1486049866.610836) vcan0 082#6108140089804000
(1486049866.610859) vcan0 085#7C48800066507C54
(1486049866.611779) vcan0 091#7F1F7F001DBFF000
(1486049866.611813) vcan0 092#6FBD6FB873840DBF
(1486049866.611839) vcan0 3CC#3000000000000000
(1486049866.611863) vcan0 217#162C163816281620
(1486049866.612756) vcan0 047#2000000000000000
(1486049866.612790) vcan0 165#10CD460000000000
(1486049866.612816) vcan0 167#72801A10001A2800
(1486049866.612839) vcan0 200#00007FF0801F0000
(1486049866.613761) vcan0 186#140701FA008505FA
(1486049866.613796) vcan0 187#D91408C800A00300
(1486049866.613839) vcan0 18A#00201A0114000000
(1486049866.613863) vcan0 202#04F71800608519E9
(1486049866.614779) vcan0 204#C0007D036E000000
(1486049866.614811) vcan0 230#500600009A000000
(1486049866.614835) vcan0 455#A000000000000000
(1486049866.615756) vcan0 083#4020000008000000
(1486049866.615789) vcan0 2A1#FFFFFFFF00000000
(1486049866.619131) vcan0 078#0068000000000000
(1486049866.620152) vcan0 422#000000933802FE02
(1486049866.620184) vcan0 423#9360000000000000
(1486049866.620209) vcan0 085#7C47800067607C53
(1486049866.620233) vcan0 091#7F327EFF0BC0F000
(1486049866.621151) vcan0 092#6FBC6FB3738115C0
(1486049866.621185) vcan0 430#37000CF3C88D7700
(1486049866.621210) vcan0 431#057B00C609800002
(1486049866.622134) vcan0 3A8#0100270C00000000
(1486049866.622198) vcan0 076#3E7BC0800FFF0000
(1486049866.622223) vcan0 077#19E007F97FF80E01
(1486049866.623158) vcan0 07D#0000F9600020180C
(1486049866.623192) vcan0 167#72801A10001A2800
(1486049866.623219) vcan0 202#04F62000608519E9
(1486049866.623243) vcan0 213#FFFF000400020040
(1486049866.623265) vcan0 214#000000000000F960
(1486049866.624283) vcan0 204#C0007D036E000000
(1486049866.624316) vcan0 216#CA609EA400000000
(1486049866.624342) vcan0 217#162C163816281620
(1486049866.624366) vcan0 415#19ECE8ED07FB07FB
(1486049866.625282) vcan0 41D#8000600000000000
(1486049866.625315) vcan0 42F#7D04002E661B036E
(1486049866.625340) vcan0 4B0#01008000600000F9
(1486049866.629756) vcan0 091#7F497EFEF4C1F000
(1486049866.630870) vcan0 082#6008140089804000
(1486049866.630910) vcan0 085#7C47800066707C53
(1486049866.630938) vcan0 092#6FBB6FAE738F0CC1
(1486049866.630962) vcan0 3CA#827F287300000000
(1486049866.631774) vcan0 047#2000000000000000
(1486049866.632777) vcan0 217#162C16381628161C
(1486049866.632811) vcan0 05C#805000F6201E0000
(1486049866.632839) vcan0 165#10CD460000000000
(1486049866.632862) vcan0 167#72801B10001A2800
(1486049866.633887) vcan0 186#140701FA008505FA
(1486049866.633920) vcan0 187#D91408C800A00300
(1486049866.633946) vcan0 200#00007FF0801F0000
(1486049866.633969) vcan0 202#04F52800608519E9
(1486049866.633992) vcan0 204#C0007D036F000000
(1486049866.634903) vcan0 230#500600009A000000
(1486049866.635900) vcan0 33B#0000000000000000
(1486049866.639239) vcan0 078#0168800000000000
(1486049866.640154) vcan0 085#7C47800065807C53
(1486049866.640188) vcan0 3CC#3000000000000000
(1486049866.641242) vcan0 091#7F547EFEE8C2F000
(1486049866.641284) vcan0 092#6FB86FAC739F00C2
(1486049866.642245) vcan0 3A8#0100270C00000000
(1486049866.642320) vcan0 167#72801A10001A2800
(1486049866.642349) vcan0 076#3E7AC0800FFF0000
(1486049866.642372) vcan0 077#19E107F97FF809FE
(1486049866.643247) vcan0 07D#0000F87000204819
(1486049866.643288) vcan0 202#04F43000608519E9
(1486049866.643316) vcan0 204#C0007D036F000000
(1486049866.643339) vcan0 213#FFFF000400020040
(1486049866.644245) vcan0 214#000000000000F870
(1486049866.644284) vcan0 216#E177B5BA00000000
(1486049866.644312) vcan0 217#1630163816281620
(1486049866.644337) vcan0 415#19EEECEA07FB07FB
(1486049866.645154) vcan0 416#5F00EF0001000000
(1486049866.645188) vcan0 41D#8000600000000000
(1486049866.645212) vcan0 4B0#01008000700000F8
(1486049866.647406) vcan0 084#1100002124300A00
(1486049866.648405) vcan0 242#05B32001CE000001
(1486049866.649406) vcan0 05D#8357A75F35000000
(1486049866.650402) vcan0 082#5F08140089804000
(1486049866.650436) vcan0 085#7C47800064907C53
(1486049866.650460) vcan0 091#7F537EFDE9C3F000
(1486049866.651348) vcan0 092#6FAD6FAD73990FC3
(1486049866.652338) vcan0 217#162C163416241620
(1486049866.652367) vcan0 047#2000000000000000
(1486049866.652390) vcan0 186#140901FA008505FA
(1486049866.652415) vcan0 165#10CD460000000000
(1486049866.653336) vcan0 187#D81408C800B00300
(1486049866.653362) vcan0 167#72801A10001A2800
(1486049866.653384) vcan0 178#000002000E79CA79
(1486049866.654402) vcan0 200#00007FF0801F0000
(1486049866.654434) vcan0 202#04F23800608519EA
(1486049866.654461) vcan0 204#C0007D036E000000
(1486049866.655505) vcan0 230#500600009A000000
(1486049866.655537) vcan0 261#0000000000000000
(1486049866.656512) vcan0 42F#7D04002E661B036E
(1486049866.657504) vcan0 42C#8C20000008C00000
(1486049866.659507) vcan0 078#0569800000000000
(1486049866.660619) vcan0 085#7C47800063A07C53
(1486049866.660659) vcan0 3CA#827F287300000000
(1486049866.660683) vcan0 091#7F467EFDF5C4F000
(1486049866.660707) vcan0 092#6FAA6FAD738C1EC4
(1486049866.661520) vcan0 3CD#0000000000000000
(1486049866.661571) vcan0 3D8#0000000080C4A830
(1486049866.661615) vcan0 3A8#0100270A00000000
(1486049866.662515) vcan0 167#72801A10001A2800
(1486049866.662541) vcan0 076#3E7AC0800FFF0000
(1486049866.662562) vcan0 077#19E007F87FF7FDFE
(1486049866.662582) vcan0 07D#0000F7800020781C
(1486049866.663537) vcan0 202#04F14000608519EA
(1486049866.663571) vcan0 204#C0007D036E000000
(1486049866.663596) vcan0 213#FFFF00040001FF40
(1486049866.663620) vcan0 214#000000000000F780
(1486049866.664512) vcan0 216#F88DCCD100000000
(1486049866.664547) vcan0 217#162C163416201628
(1486049866.664574) vcan0 415#19EDF0EA07FB07FB
(1486049866.664599) vcan0 41D#8000600000000000
(1486049866.664622) vcan0 4B0#01008000800000F7
(1486049866.669756) vcan0 091#7F2E7EFD0CC5F000
(1486049866.670761) vcan0 082#5E08140089804000
(1486049866.670796) vcan0 085#7C47800062B07C53
(1486049866.670823) vcan0 092#6FB66FAC738717C5
(1486049866.670848) vcan0 3CC#3000000000000000
(1486049866.671756) vcan0 217#162C163016181620
(1486049866.672775) vcan0 047#2000000000000000
(1486049866.672808) vcan0 165#10CD460000000000
(1486049866.672835) vcan0 167#72801A10001A2800
(1486049866.672858) vcan0 186#140A01FA008505FA
(1486049866.673777) vcan0 187#D81408C800B00300
(1486049866.673830) vcan0 200#00007FF0801E0000
(1486049866.673859) vcan0 202#04F04800608519EA
(1486049866.673884) vcan0 204#C0007D036E000000
(1486049866.674771) vcan0 230#500600009A000000
(1486049866.679151) vcan0 078#0068000000000000
(1486049866.680239) vcan0 085#7C47800061C07C53
(1486049866.681241) vcan0 091#7F0F7EFD2AC6F000
(1486049866.681281) vcan0 092#6FC06FAC738A09C6
(1486049866.682242) vcan0 3A8#0100270A00000000
(1486049866.682318) vcan0 076#3E7AC0800FFF0000
(1486049866.682343) vcan0 077#19DF07F87FF805FE
(1486049866.683242) vcan0 07D#0000F69000202810
(1486049866.683282) vcan0 167#72801A10001A2800
(1486049866.683306) vcan0 213#FFFF00040001FF40
(1486049866.683329) vcan0 214#000000000000F690
(1486049866.684156) vcan0 216#0FA4E3E800000000
(1486049866.684191) vcan0 202#04EF5000608519EA
(1486049866.684220) vcan0 204#C0007D036E000000
(1486049866.684243) vcan0 217#1628162C161C1620
(1486049866.684265) vcan0 415#19E9F4ED07FB07FB
(1486049866.685150) vcan0 41D#8000600000000000
(1486049866.685182) vcan0 42F#7D04002E661B036E
(1486049866.685207) vcan0 4B0#01008000900000F6
(1486049866.687403) vcan0 242#05B32001CE000001
(1486049866.689781) vcan0 082#5D08140089804000
(1486049866.690869) vcan0 085#7C47800060D07C53
(1486049866.690909) vcan0 091#7EF47EFD45C7F000
(1486049866.690937) vcan0 092#6FC26FAF7390FDC7
(1486049866.690961) vcan0 3CA#827F287300000000
(1486049866.691862) vcan0 047#2000000000000000
(1486049866.692871) vcan0 217#16281638161C1624
(1486049866.692910) vcan0 165#10CD460000000000
(1486049866.692934) vcan0 167#72801A10001A2800
(1486049866.692958) vcan0 186#140B01FA008505FA
(1486049866.692981) vcan0 187#D81408C800B00300
(1486049866.693779) vcan0 200#00007FF0801E0000
(1486049866.693837) vcan0 202#04EE5800608519EA
(1486049866.693866) vcan0 204#C0007D036E000000
(1486049866.693887) vcan0 230#500600009A000000
(1486049866.695646) vcan0 33B#0000000000000000
(1486049866.699024) vcan0 078#0168800000000000
(1486049866.700121) vcan0 085#7C4780005FE07C53
(1486049866.700162) vcan0 3CC#3000000000000000
(1486049866.701115) vcan0 091#7EED7EFD4BC8F000
(1486049866.701154) vcan0 092#6FC36FB27394F4C8
(1486049866.702247) vcan0 3A8#0100270A00000000
(1486049866.702327) vcan0 167#72801A10001A2800
(1486049866.702353) vcan0 076#3E7AC0800FFF0000
(1486049866.703246) vcan0 077#19DE07F87FF811FE
(1486049866.703286) vcan0 07D#0000F5A0002057FF
(1486049866.703314) vcan0 202#04EE6000608519E9
(1486049866.703339) vcan0 204#C0007D036D000000
(1486049866.703364) vcan0 213#FFFF00040001FF40
(1486049866.704155) vcan0 214#000000000000F5A0
(1486049866.704188) vcan0 216#26BAFAFF00000000
(1486049866.704216) vcan0 05A#00000045E8C10000
(1486049866.704241) vcan0 217#1624163016201624
(1486049866.705133) vcan0 261#0000000000000000
(1486049866.705167) vcan0 415#19EAF8EB07FB07FB
(1486049866.705195) vcan0 41D#8000600000000000
(1486049866.705218) vcan0 4B0#01008000A00000F5
(1486049866.708129) vcan0 42C#8C20000008C00000
(1486049866.709777) vcan0 04A#0200000000000000
(1486049866.710777) vcan0 04B#00C0D8D8D8D8C000
(1486049866.710809) vcan0 04C#105FFFC000000000
(1486049866.710832) vcan0 082#5D08140089804000
(1486049866.710855) vcan0 085#7C4780005EF07C53
(1486049866.711867) vcan0 091#7EEC7EFA4EC9F000
(1486049866.711908) vcan0 092#6FC26FB37395F2C9
(1486049866.711934) vcan0 3A7#0E423A045F700000
(1486049866.711957) vcan0 217#1624163416201628
(1486049866.712776) vcan0 455#A000000000000000
(1486049866.712809) vcan0 047#2000000000000000
(1486049866.712837) vcan0 165#10CD460000000000
(1486049866.712860) vcan0 167#72801A10001A2800
(1486049866.713777) vcan0 186#140C01FA008505FA
(1486049866.713834) vcan0 187#D81408C800B00300
(1486049866.713861) vcan0 18A#00201A0114000000
(1486049866.713883) vcan0 200#00007FF0801E0000
(1486049866.713906) vcan0 202#04ED6800608519E9
(1486049866.714880) vcan0 204#C0007D036D000000
(1486049866.714913) vcan0 230#500600009A000000
(1486049866.714938) vcan0 42F#7D04002E661B036E
(1486049866.715879) vcan0 083#4020000008000000
(1486049866.715913) vcan0 2A1#FFFFFFFF00000000
(1486049866.719129) vcan0 078#0168800000000000
(1486049866.720246) vcan0 422#000000933802FE02
(1486049866.720283) vcan0 423#9360000000000000
(1486049866.720307) vcan0 085#7C4780006D007C53
(1486049866.720333) vcan0 3CA#827E987000000000
(1486049866.721154) vcan0 091#7EDD7EF561CAF000
(1486049866.721188) vcan0 092#6FC26FB97388F8CA
(1486049866.721216) vcan0 430#37000CF3C88D7700
(1486049866.722153) vcan0 3A8#0100270A00000000
(1486049866.722224) vcan0 167#72801A10001A2800
(1486049866.722250) vcan0 076#3E7AC0800FFF0000
(1486049866.722271) vcan0 077#19DE07F77FF815FF
(1486049866.723154) vcan0 07D#0000F4B0002067FD
(1486049866.723188) vcan0 202#04EC7000608519E9
(1486049866.723215) vcan0 204#C0007D036B000000
(1486049866.723239) vcan0 213#FFFF00040001FF40
(1486049866.724160) vcan0 214#000000000000F4B0
(1486049866.724195) vcan0 216#3DD1111500000000
(1486049866.724221) vcan0 217#1624163416241624
(1486049866.724244) vcan0 415#19E3FCF107FB07FB
(1486049866.725131) vcan0 41D#8000600000000000
(1486049866.725163) vcan0 4B0#01008000B00000F4
(1486049866.727254) vcan0 242#05B32001CE000001
(1486049866.729888) vcan0 082#5D08140089804000
(1486049866.730870) vcan0 085#7C4680006D107C53
(1486049866.730910) vcan0 091#7EC57EF37ACBF000
(1486049866.730938) vcan0 092#6FBF6FBC735F20CB
(1486049866.730962) vcan0 3CC#3000000000000000
(1486049866.731774) vcan0 186#140C01FA008505FA
(1486049866.731807) vcan0 187#D81408C800B00300
(1486049866.732776) vcan0 047#2000000000000000
(1486049866.732809) vcan0 05C#80F000EC201E0000
(1486049866.732836) vcan0 165#10CD460000000000
(1486049866.732858) vcan0 167#72801A10001A2800
(1486049866.732879) vcan0 217#1624163016281624
(1486049866.733993) vcan0 200#00007FF0801E0000
(1486049866.734031) vcan0 202#04EC7800608519E8
(1486049866.734057) vcan0 204#C0007D036B000000
(1486049866.734080) vcan0 230#500600009A000000
(1486049866.735239) vcan0 3A7#0E401A045F700000
(1486049866.738115) vcan0 3A6#0E401A045F700000
(1486049866.739119) vcan0 078#0068000000000000
(1486049866.740115) vcan0 085#7C4580006E207C52
(1486049866.741119) vcan0 091#7EBD7EF381CCF000
(1486049866.741159) vcan0 092#6FBA6FB973374FCC
(1486049866.742240) vcan0 3A8#0100270A00000000
(1486049866.742317) vcan0 167#72801A10001A2800
(1486049866.742343) vcan0 076#3E7AC0800FFF0000
(1486049866.743257) vcan0 077#19DE07F67FF81201
(1486049866.743297) vcan0 07D#0000F3C0001F77F1
(1486049866.743322) vcan0 202#04FC0000608519E7
(1486049866.743348) vcan0 204#C0007D036D000000
(1486049866.743372) vcan0 213#FFFF00040001FF40
(1486049866.744155) vcan0 214#000000000000F3C0
(1486049866.744189) vcan0 216#54E8282C00000000
(1486049866.744213) vcan0 217#16281630162C1624
(1486049866.744237) vcan0 415#19E6C0FD07FA07FA
(1486049866.745158) vcan0 416#5000FE0001000000
(1486049866.745193) vcan0 41D#8000600000000000
(1486049866.745218) vcan0 42F#7D04002E661B036B
(1486049866.745243) vcan0 4B0#01008000C00000F3
(1486049866.749380) vcan0 05D#83578F603A000000
(1486049866.750407) vcan0 082#5E08140089804000
(1486049866.750441) vcan0 085#7C4580006C307C53
(1486049866.750468) vcan0 091#7EC97EF473CDF000
(1486049866.751406) vcan0 092#6FB76FB1733858CD
(1486049866.751440) vcan0 3CA#827E987000000000
(1486049866.751463) vcan0 186#140C01FA008505FA
(1486049866.752402) vcan0 187#D71408C800C00300
(1486049866.752436) vcan0 047#2000000000000000
(1486049866.752459) vcan0 217#1628163016281628
(1486049866.752482) vcan0 165#10CD460000000000
(1486049866.753400) vcan0 167#72801A10001A2800
(1486049866.753432) vcan0 178#000001FF0E79CA79
(1486049866.754402) vcan0 200#00007FF0801F0000
(1486049866.754436) vcan0 202#04FC0800608519E6
(1486049866.754464) vcan0 204#C0007D036C000000
(1486049866.755396) vcan0 230#500600009A000000
(1486049866.755428) vcan0 261#0000000000000000
(1486049866.756395) vcan0 33B#0000000000000000
(1486049866.757491) vcan0 42C#8C20000008C00000
(1486049866.759406) vcan0 078#0569800000000000
(1486049866.760408) vcan0 085#7C4480006D407C52
(1486049866.760486) vcan0 3CC#3000000000000000
(1486049866.760555) vcan0 091#7EDC7EF45FCEF000
(1486049866.761348) vcan0 092#6FBB6FA9735D36CE
(1486049866.761379) vcan0 3A8#0100270A00000000
(1486049866.762340) vcan0 167#72801A10001A2800
(1486049866.762367) vcan0 076#3E78C0800FFF0000
(1486049866.762391) vcan0 077#19DF07F67FF805FF
(1486049866.762412) vcan0 07D#0000F2D0001EC7F2
(1486049866.763333) vcan0 202#04FB1000608519E6
(1486049866.763361) vcan0 204#C0007D036C000000
(1486049866.763383) vcan0 213#FFFF00040001FF40
(1486049866.763405) vcan0 214#000000000000F2D0
(1486049866.764498) vcan0 216#6BFF3F4300000000
(1486049866.764526) vcan0 217#1628162C16281624
(1486049866.764550) vcan0 415#19E8C4FA07FA07FA
(1486049866.764573) vcan0 41D#8000600000000000
(1486049866.765471) vcan0 4B0#01008000D00000F2
(1486049866.767507) vcan0 242#05B32002CE000001
(1486049866.769780) vcan0 091#7EE67EF454CFF000
(1486049866.770872) vcan0 082#5D08140089804000
(1486049866.770913) vcan0 085#7C4480006C507C52
(1486049866.770942) vcan0 092#6FBF6FA6737F12CF
(1486049866.771743) vcan0 186#140C01FA008505FA
(1486049866.771791) vcan0 187#D71408C800C00300
(1486049866.771833) vcan0 047#2000000000000000
(1486049866.772747) vcan0 165#10CD460000000000
(1486049866.772799) vcan0 167#72801A10001A2800
(1486049866.772841) vcan0 217#1624162C161C1624
(1486049866.773891) vcan0 200#00007FF0801F0000
(1486049866.773916) vcan0 202#04FA1800608519E6
(1486049866.773947) vcan0 204#C0007D036C000000
(1486049866.773967) vcan0 230#500600009A000000
(1486049866.774885) vcan0 42F#7D04002E661B036D
(1486049866.779005) vcan0 078#0168800000000000
(1486049866.780031) vcan0 085#7C4480006A607C53
(1486049866.780078) vcan0 3CA#827E987000000000
(1486049866.781032) vcan0 091#7EE77EF452D0F000
(1486049866.781079) vcan0 092#6FBD6FA8738A06D0
(1486049866.782034) vcan0 3A8#0100270900000000
(1486049866.782119) vcan0 167#72801A10001A2800
(1486049866.782146) vcan0 076#3E77C0800FFF0000
(1486049866.782981) vcan0 077#19DF07F67FF811FC
(1486049866.783019) vcan0 07D#0000F1E0002007FB
(1486049866.783053) vcan0 202#04F92000608519E6
(1486049866.783087) vcan0 204#C0007D036C000000
(1486049866.784046) vcan0 213#FFFF00040001FF40
(1486049866.784072) vcan0 214#000000000000F1E0
(1486049866.784107) vcan0 216#8215545A00000000
(1486049866.784141) vcan0 217#1628162C16181628
(1486049866.785094) vcan0 415#19E3C8FE07FA07FA
(1486049866.785130) vcan0 41D#8000600000000000
(1486049866.785153) vcan0 4B0#01008000E00000F1
(1486049866.789792) vcan0 091#7EEE7EF648D1F000
(1486049866.790834) vcan0 082#5C08140089804000
(1486049866.790888) vcan0 085#7C44800069707C53
(1486049866.790926) vcan0 092#6FBD6FAE738108D1
(1486049866.790962) vcan0 3CC#3000000000000000
(1486049866.791772) vcan0 186#140901FA008505FA
(1486049866.791829) vcan0 187#D71408C800C00300
(1486049866.791860) vcan0 217#162C162C16141628
(1486049866.792721) vcan0 047#2000000000000000
(1486049866.792749) vcan0 165#10CD460000000000
(1486049866.792773) vcan0 167#72801A10001A2800
(1486049866.792796) vcan0 200#00007FF0801F0000
(1486049866.793712) vcan0 202#04F92800608519E5
(1486049866.793750) vcan0 204#C0007D036C000000
(1486049866.793775) vcan0 230#500600009A000000
(1486049866.798880) vcan0 078#0068000000000000
(1486049866.799902) vcan0 091#7EF87EF53ED2F000
(1486049866.800899) vcan0 085#7C44800068807C53
(1486049866.800945) vcan0 092#6FBF6FB6737905D2
(1486049866.802032) vcan0 3A8#0100270700000000
(1486049866.802118) vcan0 167#72801A10001A2800
(1486049866.802145) vcan0 076#3E77C0800FFF0000
(1486049866.803117) vcan0 077#19DE07F67FF80DFE
(1486049866.803170) vcan0 07D#0000F0F0002007FE
(1486049866.803208) vcan0 202#04F93000608519E4
(1486049866.803243) vcan0 204#C0007D036D000000
(1486049866.804037) vcan0 213#FFFF00040001FF40
(1486049866.804069) vcan0 214#000000000000F0F0
(1486049866.804113) vcan0 216#992C6B7000000000
(1486049866.804149) vcan0 05A#00000045EE610000
(1486049866.804996) vcan0 217#1624162C16181620
(1486049866.805032) vcan0 261#0000000000000000
(1486049866.805056) vcan0 415#19E9CCF707FA07FA
(1486049866.805089) vcan0 41D#8000600000000000
(1486049866.805979) vcan0 42F#7D04002E661B036C
(1486049866.806015) vcan0 4B0#01008000F00000F0
(1486049866.807460) vcan0 242#05B32003CE000001
(1486049866.808529) vcan0 3B3#4048020F10050002
(1486049866.808562) vcan0 40A#C104014107F670C1
(1486049866.808603) vcan0 42C#8C20000008C00000
(1486049866.809774) vcan0 04A#0200000000000000
(1486049866.810748) vcan0 04B#00C0D8D8D8D8C000
(1486049866.810775) vcan0 04C#105FFFC000000000
(1486049866.810798) vcan0 082#5A08140089804000
(1486049866.810836) vcan0 085#7C44800067907C53
(1486049866.811776) vcan0 091#7EFF7EF437D3F000
(1486049866.811821) vcan0 092#6FB66FBB737A07D3
(1486049866.811859) vcan0 186#140701FA008505FA
(1486049866.811893) vcan0 187#D71408C800C00300
(1486049866.812728) vcan0 047#2000000000000000
(1486049866.812752) vcan0 165#10CD460000000000
(1486049866.812774) vcan0 167#72801A10001A2800
(1486049866.812796) vcan0 18A#00201A0114000000
(1486049866.813761) vcan0 200#00007FF0801F0000
(1486049866.813795) vcan0 202#04F73800608519E5
(1486049866.813860) vcan0 204#C0007D036D000000
(1486049866.813886) vcan0 217#1624162C161C1624
(1486049866.814780) vcan0 230#500600009A000000
(1486049866.814814) vcan0 3CA#827E987000000000
(1486049866.814839) vcan0 3E5#0000000080000000
(1486049866.814862) vcan0 455#A000000000000000
(1486049866.815776) vcan0 083#4020000008000000
(1486049866.816901) vcan0 2A1#FFFFFFFF00000000
(1486049866.816934) vcan0 33B#0000000000000000
(1486049866.819112) vcan0 078#0168800000000000
(1486049866.820034) vcan0 422#000000933802FE02
(1486049866.820066) vcan0 423#9360000000000000
(1486049866.820094) vcan0 430#37000CF3C88DF700
(1486049866.820133) vcan0 085#7C44800066A07C53
(1486049866.820996) vcan0 091#7F087EF42CD4F000
(1486049866.821033) vcan0 092#6FAB6FC173760FD4
(1486049866.821066) vcan0 3CC#3000000000000000
(1486049866.822021) vcan0 3A8#0100270700000000
(1486049866.822091) vcan0 167#72801A10001A2800
(1486049866.822117) vcan0 076#3E77C0800FFF0000
(1486049866.823010) vcan0 077#19DE07F67FF811FF
(1486049866.823057) vcan0 07D#0000FF00001FE802
(1486049866.823096) vcan0 202#04F64000608519E5
(1486049866.823132) vcan0 204#C0007D036D000000
(1486049866.824010) vcan0 213#FFFF00040001FF40
(1486049866.824043) vcan0 214#000000000000FF00
(1486049866.824084) vcan0 216#B043828700000000
(1486049866.824120) vcan0 217#1620162C16201620
(1486049866.824155) vcan0 415#19E1D0FE07F907F9
(1486049866.824988) vcan0 41D#8000600000000000
(1486049866.825014) vcan0 4B0#01008000000000FF
(1486049866.829755) vcan0 082#5B08140089804000
(1486049866.830761) vcan0 085#7C44800065B07C53
(1486049866.830803) vcan0 091#7F127EF421D5F000
(1486049866.830839) vcan0 092#6FAC6FC273651DD5
(1486049866.830874) vcan0 186#140701FA008505FA
(1486049866.831862) vcan0 187#D71408C800C00300
(1486049866.831903) vcan0 047#2000000000000000
(1486049866.832865) vcan0 217#162016301628161C
(1486049866.832921) vcan0 05C#809000F2201E0000
(1486049866.832960) vcan0 165#10CD460000000000
(1486049866.832984) vcan0 167#72801A10001A2800
(1486049866.833905) vcan0 200#00007FF0801F0000
(1486049866.833938) vcan0 202#04F64800608519E4
(1486049866.833981) vcan0 204#C0007D036D000000
(1486049866.834007) vcan0 230#500600009A000000
(1486049866.834898) vcan0 42F#7D04002E661B036D
(1486049866.838900) vcan0 078#0168800000000000
(1486049866.839989) vcan0 085#7C44800064C07C53
(1486049866.841121) vcan0 3CA#8280485D00000000
(1486049866.841176) vcan0 091#7F0E7EF424D6F000
(1486049866.841215) vcan0 092#6FB46FBD73542AD6
(1486049866.842034) vcan0 3A8#0100270700000000
(1486049866.842105) vcan0 167#72801A10001A2800
(1486049866.842131) vcan0 076#3E77C0800FFF0000
(1486049866.843033) vcan0 077#19DE07F67FF7FE03
(1486049866.843079) vcan0 07D#0000FE10001F8808
(1486049866.843116) vcan0 202#04F65000608519E3
(1486049866.843151) vcan0 204#C0007D036D000000
(1486049866.844030) vcan0 213#FFFF00040001FF40
(1486049866.844062) vcan0 214#000000000000FE10
(1486049866.844102) vcan0 216#C65A999D00000000
(1486049866.844137) vcan0 217#16241630162C1624
(1486049866.844968) vcan0 415#19E1D4FD07F907F9
(1486049866.845005) vcan0 416#5100FD0001000000
(1486049866.845038) vcan0 41D#8000600000000000
(1486049866.845061) vcan0 4B0#01008000100000FE
(1486049866.847379) vcan0 242#05B32005CE000001
(1486049866.849376) vcan0 05D#8357B75F31000000
(1486049866.850393) vcan0 082#5C08140089804000
(1486049866.850447) vcan0 085#7C43800065D07C52
(1486049866.850494) vcan0 091#7EFB7EF437D7F000
(1486049866.851349) vcan0 092#6FBB6FB373512FD7
(1486049866.851386) vcan0 186#140601FA008505FA
(1486049866.851421) vcan0 187#D61408C800D00300
(1486049866.851454) vcan0 3CC#3000000000000000
(1486049866.852328) vcan0 047#2000000000000000
(1486049866.852352) vcan0 217#1624163016281618
(1486049866.852385) vcan0 165#10CD460000000000
(1486049866.853328) vcan0 167#72801A10001A2700
(1486049866.853361) vcan0 178#000002000E79CA79
(1486049866.853394) vcan0 200#00007FF0801F0000
(1486049866.854349) vcan0 202#04F55800608519E3
(1486049866.854385) vcan0 204#C0007D036D000000
(1486049866.854408) vcan0 230#500600009A000000
(1486049866.855525) vcan0 261#0000000000000000
(1486049866.856774) vcan0 42C#8C20000008C00000
(1486049866.859363) vcan0 078#0469000000000000
(1486049866.860285) vcan0 085#7C43800064E07C52
(1486049866.860331) vcan0 091#7EEA7EF447D8F000
(1486049866.861257) vcan0 092#6FBA6FAB736127D8
(1486049866.862238) vcan0 3A8#0100270700000000
(1486049866.862301) vcan0 167#72801A10001A2700
(1486049866.862325) vcan0 076#3E77C0800FFF0000
(1486049866.862344) vcan0 077#19E007F67FF809FF
(1486049866.863277) vcan0 07D#0000FD20001F3800
(1486049866.863324) vcan0 202#04F56000608519E2
(1486049866.863361) vcan0 204#C0007D036D000000
(1486049866.863386) vcan0 213#FFFF00040001FF40
(1486049866.863407) vcan0 214#000000000000FD20
(1486049866.864406) vcan0 216#DC71B0B400000000
(1486049866.864453) vcan0 217#16241630162C161C
(1486049866.864492) vcan0 415#19E6D8F707F907F9
(1486049866.864527) vcan0 41D#8000600000000000
(1486049866.865367) vcan0 42F#7D04002E661B036D
(1486049866.865393) vcan0 4B0#01008000200000FD
(1486049866.869778) vcan0 082#5B08140089804000
(1486049866.870782) vcan0 085#7C43800063F07C52
(1486049866.870829) vcan0 091#7EE47EF44CD9F000
(1486049866.870868) vcan0 092#6FB16FA9736F23D9
(1486049866.870902) vcan0 186#140501FA008505FA
(1486049866.871754) vcan0 187#D61408C800D00300
(1486049866.871787) vcan0 3CA#8280485D00000000
(1486049866.871812) vcan0 047#2000000000000000
(1486049866.872883) vcan0 217#1628163016241628
(1486049866.872930) vcan0 165#10CD460000000000
(1486049866.872957) vcan0 167#72801A10001A2800
(1486049866.872993) vcan0 200#00007FF0801F0000
(1486049866.873017) vcan0 202#04F46800608519E2
(1486049866.873878) vcan0 204#C0007D036D000000
(1486049866.873910) vcan0 230#500600009A000000
(1486049866.875625) vcan0 33B#0000000000000000
(1486049866.879114) vcan0 078#0168800000000000
(1486049866.880111) vcan0 085#7C43800072007C52
(1486049866.881035) vcan0 3CC#3000000000000000
(1486049866.881067) vcan0 091#7EE57EF44ADAF000
(1486049866.881108) vcan0 092#6FB16FAD736528DA
(1486049866.882025) vcan0 3A8#0100270700000000
(1486049866.882096) vcan0 167#72801A10001A2800
(1486049866.882121) vcan0 076#3E7AC0800FFF0000
(1486049866.883116) vcan0 077#19E007F67FF7FDFD
(1486049866.883171) vcan0 07D#0000FC30001FB7FA
(1486049866.883209) vcan0 202#04F27000608519E3
(1486049866.883245) vcan0 204#C0007D036D000000
(1486049866.884036) vcan0 213#FFFF00040001FF40
(1486049866.884068) vcan0 214#000000000000FC30
(1486049866.884110) vcan0 216#F387C7CB00000000
(1486049866.884146) vcan0 217#1628162816241628
(1486049866.885007) vcan0 415#19E5DCF707F907F9
(1486049866.885054) vcan0 41D#8000600000000000
(1486049866.885082) vcan0 4B0#01008000300000FC
(1486049866.887246) vcan0 242#05B32005CE000001
(1486049866.889777) vcan0 091#7EE77EF447DBF000
(1486049866.890866) vcan0 082#5C08140089804000
(1486049866.890921) vcan0 085#7C43800071107C52
(1486049866.890959) vcan0 092#6FBD6FB6735126DB
(1486049866.890994) vcan0 186#140501FA008505FA
(1486049866.891773) vcan0 187#D61408C800D00300
(1486049866.891805) vcan0 047#2000000000000000
(1486049866.892781) vcan0 217#162C162C161C1628
(1486049866.892828) vcan0 165#10CD460000000000
(1486049866.892856) vcan0 167#72801A10001A2800
(1486049866.892880) vcan0 200#00007FF0801F0000
(1486049866.893756) vcan0 202#04F17800608519E3
