(1486050127.670565) vcan0 083#4020000008000000
(1486050127.670602) vcan0 213#FFFF000400020640
(1486050127.670647) vcan0 214#000000000000FD20
(1486050127.671544) vcan0 216#C71A864900000000
(1486050127.671601) vcan0 217#2258225422382234
(1486050127.671639) vcan0 3A8#0100270700000000
(1486050127.671711) vcan0 415#281DD8B107FD07FD
(1486050127.672668) vcan0 186#144C012C00850400
(1486050127.672725) vcan0 187#D61408C800D00300
(1486050127.672764) vcan0 41D#8000600000000000
(1486050127.672789) vcan0 091#7F5E7EF7EDBAF000
(1486050127.673529) vcan0 078#0569800000000000
(1486050127.673553) vcan0 092#6FBE6FDE736E01BA
(1486050127.673588) vcan0 4B0#01008000200000FD
(1486050127.674522) vcan0 085#7C4A80007E007C3F
(1486050127.678440) vcan0 217#225C2258223C2238
(1486050127.679548) vcan0 047#2000000000000000
(1486050127.679590) vcan0 165#50C3460000000000
(1486050127.679614) vcan0 167#72806A10001AB100
(1486050127.679657) vcan0 200#00007FEF80750000
(1486050127.680546) vcan0 202#04B3680060852814
(1486050127.680603) vcan0 204#C11B7D04E2000000
(1486050127.680642) vcan0 230#600600009C000000
(1486050127.682171) vcan0 091#7F537EFDF1BBF000
(1486050127.683296) vcan0 092#6FB86FE073670BBB
(1486050127.684296) vcan0 082#730814E08B804000
(1486050127.684355) vcan0 085#7C5880006F107C3F
(1486050127.688447) vcan0 167#72806A10001AB100
(1486050127.689421) vcan0 076#3E7FC0800FFF0000
(1486050127.689480) vcan0 077#27F207FF7FF8020C
(1486050127.689519) vcan0 07D#0000FC30001FC820
(1486050127.689553) vcan0 202#04B1700060852815
(1486050127.690391) vcan0 204#C11B7D04E2000000
(1486050127.690431) vcan0 213#FFFF000400020740
(1486050127.690474) vcan0 214#000000000000FC30
(1486050127.690511) vcan0 216#EA3EA96D00000000
(1486050127.691327) vcan0 217#2258226022382234
(1486050127.691364) vcan0 242#05B31FE4D0000001
(1486050127.691389) vcan0 33B#0000000000000000
(1486050127.691411) vcan0 3A8#0100271D00000000
(1486050127.692327) vcan0 186#144C012C00850400
(1486050127.692362) vcan0 187#D61408C800D00300
(1486050127.692388) vcan0 18A#0020180214000000
(1486050127.692412) vcan0 3C3#62C0000000000000
(1486050127.693452) vcan0 091#7F567EFDEDBCF000
(1486050127.693490) vcan0 078#0168800000000000
(1486050127.693518) vcan0 092#6FAF6FE1736514BC
(1486050127.693543) vcan0 3CA#6E82998400000000
(1486050127.693568) vcan0 3E5#0000000080000000
(1486050127.694430) vcan0 415#2820DCAD07FE07FE
(1486050127.694468) vcan0 085#7C5F800069207C3D
(1486050127.694495) vcan0 3CC#3000000000000000
(1486050127.694520) vcan0 41D#8000600000000000
(1486050127.695431) vcan0 422#000000953802FE02
(1486050127.695469) vcan0 423#92E0000000000000
(1486050127.695494) vcan0 42F#7D04002E664504E1
(1486050127.695520) vcan0 430#37000CF7C88C7700
(1486050127.696427) vcan0 4B0#01008000300000FC
(1486050127.698199) vcan0 047#2000000000000000
(1486050127.699321) vcan0 165#50C3460000000000
(1486050127.699355) vcan0 05A#00000045F4010000
(1486050127.699385) vcan0 167#72806A10001AB100
(1486050127.699408) vcan0 200#00007FEF80750000
(1486050127.700340) vcan0 202#04AF780060852816
(1486050127.700378) vcan0 217#2250226422302234
(1486050127.700405) vcan0 204#C11B7D04E2000000
(1486050127.700428) vcan0 230#600600009C000000
(1486050127.701846) vcan0 04A#0200000000000000
(1486050127.702821) vcan0 04B#00C0D8D8D8D8C000
(1486050127.702856) vcan0 04C#105FFFC000000000
(1486050127.702881) vcan0 091#7F5B7EFCE8BDF000
(1486050127.702906) vcan0 092#6FB96FE073650ABD
(1486050127.703826) vcan0 082#A60814F48B804000
(1486050127.704827) vcan0 085#7C57800073307C3A
(1486050127.708552) vcan0 076#3E8DC0800FFF0000
(1486050127.709578) vcan0 077#27F508017FF7F20D
(1486050127.709615) vcan0 07D#0000FB40001FA81E
(1486050127.709642) vcan0 167#72806A10001AB100
(1486050127.709665) vcan0 202#04BD000060852817
(1486050127.710570) vcan0 204#C11B7D04E1000000
(1486050127.710606) vcan0 213#FFFF000400020740
(1486050127.710633) vcan0 214#000000000000FB40
(1486050127.710657) vcan0 216#0D60CD8F00000000
(1486050127.711578) vcan0 217#22542260222C2234
(1486050127.711614) vcan0 261#0000000000000000
(1486050127.711638) vcan0 186#144C012C00850400
(1486050127.711661) vcan0 187#D61408C800D00300
(1486050127.712558) vcan0 3A8#0100271000000000
(1486050127.712652) vcan0 415#2821E0AB07FF07FF
(1486050127.712691) vcan0 41D#8000600000000000
(1486050127.712725) vcan0 091#7F547F04E5BEF000
(1486050127.713552) vcan0 078#0068000000000000
(1486050127.713600) vcan0 092#6FD06FE1736FE7BE
(1486050127.713636) vcan0 42C#8C20000008C00000
(1486050127.713667) vcan0 4B0#01008000400000FB
(1486050127.714528) vcan0 455#A000000000000000
(1486050127.714561) vcan0 085#7C4C80007C407C3B
(1486050127.717897) vcan0 3C3#7EC0000000000000
(1486050127.718882) vcan0 047#2000000000000000
(1486050127.718915) vcan0 217#225C2260222C2238
(1486050127.718947) vcan0 165#50C3460000000000
(1486050127.718978) vcan0 167#72806A10001AB100
(1486050127.719883) vcan0 200#00007FEF80740000
(1486050127.719918) vcan0 202#04BA080060852819
(1486050127.719949) vcan0 204#C11B7D04E1000000
(1486050127.720886) vcan0 230#600600009C000000
(1486050127.720921) vcan0 42F#7D04002E664404E2
(1486050127.720955) vcan0 3CA#6E82C98C00000000
(1486050127.722023) vcan0 091#7F437F12E7BFF000
(1486050127.723163) vcan0 092#6FD86FE47383C7BF
(1486050127.724164) vcan0 082#8308141C8A804000
(1486050127.724221) vcan0 085#7C52800071507C3F
(1486050127.725071) vcan0 3CC#3000000000000000
(1486050127.728425) vcan0 167#72806A10001AB100
(1486050127.729428) vcan0 076#3E8BC0800FFF0000
(1486050127.729465) vcan0 077#27F608037FF8160D
(1486050127.729498) vcan0 07D#0000FA50001FD81D
(1486050127.729533) vcan0 202#04B9100060852819
(1486050127.730385) vcan0 204#C11B7D04DB000000
(1486050127.730420) vcan0 213#FFFF000400020640
(1486050127.730451) vcan0 083#4020000008000000
(1486050127.730480) vcan0 214#000000000000FA50
(1486050127.731385) vcan0 216#3184F0B300000000
(1486050127.731420) vcan0 217#226022602234223C
(1486050127.731450) vcan0 186#1448012C00850400
(1486050127.731480) vcan0 187#D61408C800D00300
(1486050127.732385) vcan0 242#05B31FE6D0000001
(1486050127.732419) vcan0 2A1#FFFFFFFF00000000
(1486050127.732448) vcan0 3A8#0100271C00000000
(1486050127.732516) vcan0 091#7F2C7F1AF5C0F000
(1486050127.733383) vcan0 092#6FC16FE57395CAC0
(1486050127.733416) vcan0 078#0168800000000000
(1486050127.733447) vcan0 415#2824E4A708000800
(1486050127.733476) vcan0 41D#8000600000000000
(1486050127.734383) vcan0 4B0#01008000500000FA
(1486050127.734417) vcan0 085#7C5F800063607C3F
(1486050127.738381) vcan0 217#225822682240223C
(1486050127.738629) vcan0 047#2000000000000000
(1486050127.739664) vcan0 05C#803000F8201E0000
(1486050127.739698) vcan0 165#50C3460000000000
(1486050127.739729) vcan0 167#72806A10001AB100
(1486050127.739759) vcan0 200#00007FEF80750000
(1486050127.740639) vcan0 202#04B618006085281B
(1486050127.740672) vcan0 204#C11B7D04DA000000
(1486050127.740703) vcan0 230#600600009C000000
(1486050127.742008) vcan0 091#7F0F7F1813C1F000
(1486050127.743019) vcan0 092#6FA66FE17399E4C1
(1486050127.744165) vcan0 082#8B0814148A804000
(1486050127.744222) vcan0 085#7C61800064707C3B
(1486050127.748207) vcan0 167#72806A10001AB100
(1486050127.749182) vcan0 076#3E86C0800FFF0000
(1486050127.749220) vcan0 077#27F9080A7FF8020E
(1486050127.749254) vcan0 07D#0000F96000208810
(1486050127.750175) vcan0 213#FFFF000400020740
(1486050127.750211) vcan0 214#000000000000F960
(1486050127.750243) vcan0 216#54A813D700000000
(1486050127.750274) vcan0 217#2254226C22442240
(1486050127.750304) vcan0 202#04B420006085281C
(1486050127.751136) vcan0 204#C11B7D04DA000000
(1486050127.751170) vcan0 33B#0000000000000000
(1486050127.751200) vcan0 3CA#6E82C98C00000000
(1486050127.751229) vcan0 186#1448012C00850400
(1486050127.752134) vcan0 187#D61408C800D00300
(1486050127.752168) vcan0 3A8#0100271A00000000
(1486050127.752236) vcan0 415#282BE89F08020802
(1486050127.752268) vcan0 416#5200FC0001000000
(1486050127.753273) vcan0 091#7EF07F1535C2F000
(1486050127.753307) vcan0 078#0168800000000000
(1486050127.753336) vcan0 092#6FB06FDB7396E2C2
(1486050127.753366) vcan0 41D#8000600000000000
(1486050127.754259) vcan0 42F#7D04002E664404E1
(1486050127.754293) vcan0 4B0#01008000600000F9
(1486050127.754324) vcan0 085#7C55800071807C39
(1486050127.754353) vcan0 3CC#3000000000000000
(1486050127.757754) vcan0 42C#8C20000008C00000
(1486050127.758775) vcan0 047#2000000000000000
(1486050127.758810) vcan0 217#225C226822402238
(1486050127.758841) vcan0 165#50C3460000000000
(1486050127.759757) vcan0 167#72806A10001AB200
(1486050127.759791) vcan0 178#000001FC0E78CE78
(1486050127.760765) vcan0 200#00007FEF80740000
(1486050127.760803) vcan0 202#04B128006085281E
(1486050127.760836) vcan0 204#C11B7D04DC000000
(1486050127.761757) vcan0 230#600600009C000000
(1486050127.761789) vcan0 261#0000000000000000
(1486050127.762757) vcan0 091#7ED97F1749C3F000
(1486050127.762791) vcan0 092#6FD66FD5738BCCC3
(1486050127.762821) vcan0 05D#83579F5E38000000
(1486050127.763755) vcan0 082#9F0814908A804000
(1486050127.764769) vcan0 085#7C4D800075907C3C
(1486050127.767544) vcan0 350#0000000000000000
(1486050127.768537) vcan0 3E0#0000000080000000
(1486050127.768570) vcan0 076#3E95C0800FFF0000
(1486050127.769539) vcan0 077#27FD08087FF7F60B
(1486050127.769574) vcan0 07D#0000F870002087FF
(1486050127.769606) vcan0 167#72806A10001AB200
(1486050127.769635) vcan0 202#04AE300060852820
(1486050127.770647) vcan0 204#C11B7D04DE000000
(1486050127.770679) vcan0 213#FFFF000400020740
(1486050127.770708) vcan0 214#000000000000F870
(1486050127.770738) vcan0 216#77CA37F900000000
(1486050127.771634) vcan0 186#1448012C00850400
(1486050127.771667) vcan0 187#D51408C800E00300
(1486050127.771699) vcan0 217#2264225C22382238
(1486050127.771729) vcan0 242#05B31FE8CF000001
(1486050127.772645) vcan0 3A8#0100271600000000
(1486050127.772711) vcan0 091#7ED67F2042C4F000
(1486050127.772742) vcan0 092#6FEB6FD37380C3C4
(1486050127.772771) vcan0 415#2829ECA008040804
(1486050127.772799) vcan0 41D#8000600000000000
(1486050127.773638) vcan0 4B0#01008000700000F8
(1486050127.773671) vcan0 078#0469000000000000
(1486050127.774647) vcan0 085#7C56800067A07C40
(1486050127.778255) vcan0 047#2000000000000000
(1486050127.779284) vcan0 217#2260226C22342238
(1486050127.779318) vcan0 165#50C3460000000000
(1486050127.779349) vcan0 167#72806A10001AB200
(1486050127.779379) vcan0 200#00007FEF80740000
(1486050127.780270) vcan0 202#04AC380060852821
(1486050127.780304) vcan0 204#C11B7D04D8000000
(1486050127.780334) vcan0 230#600600009C000000
(1486050127.781259) vcan0 42F#7D04002E664404DC
(1486050127.781294) vcan0 3CA#6E82C98C00000000
(1486050127.782321) vcan0 091#7EEA7F2627C5F000
(1486050127.782368) vcan0 092#6FDD6FD77380CCC5
(1486050127.783826) vcan0 082#740815108A804000
(1486050127.784827) vcan0 085#7C6280005BB07C3F
(1486050127.784873) vcan0 3CC#3000000000000000
(1486050127.787804) vcan0 3A7#0E401A045F700000
(1486050127.788774) vcan0 167#72806A10001AB200
(1486050127.788809) vcan0 202#04AA400060852822
(1486050127.788844) vcan0 076#3E81C0800FFF0000
(1486050127.789784) vcan0 077#27FD080C7FF83609
(1486050127.789846) vcan0 07D#0000F780002017F7
(1486050127.789881) vcan0 204#C11B7D04D9000000
(1486050127.789912) vcan0 213#FFFF000400020640
(1486050127.790769) vcan0 214#000000000000F780
(1486050127.790806) vcan0 216#9BEE591D00000000
(1486050127.790837) vcan0 186#1448012C00850400
(1486050127.790867) vcan0 187#D51408C800E00300
(1486050127.791822) vcan0 18A#0020180214000000
(1486050127.791869) vcan0 217#2258226822302240
(1486050127.791908) vcan0 3A8#0100272500000000
(1486050127.791991) vcan0 415#282EF09A08050805
(1486050127.792775) vcan0 41D#8000600000000000
(1486050127.792807) vcan0 4B0#01008000800000F7
(1486050127.792837) vcan0 078#0168800000000000
(1486050127.792867) vcan0 091#7F037F280AC6F000
(1486050127.792897) vcan0 092#6FC76FDE738CCEC6
(1486050127.793771) vcan0 422#000000953802FE02
(1486050127.793802) vcan0 423#92E0000000000000
(1486050127.793926) vcan0 430#37000CF7C88CF700
(1486050127.793998) vcan0 085#7C60800060C07C3B
(1486050127.798432) vcan0 217#2258227422382244
(1486050127.799430) vcan0 047#2000000000000000
(1486050127.799505) vcan0 05A#00000045EAA10000
(1486050127.799573) vcan0 165#50C3460000000000
(1486050127.799639) vcan0 167#72806A10001AB200
(1486050127.800432) vcan0 200#00007FEF80740000
(1486050127.800505) vcan0 202#04A8480060852823
(1486050127.800574) vcan0 204#C11B7D04D8000000
(1486050127.801573) vcan0 230#600600009C000000
(1486050127.802554) vcan0 04A#0200000000000000
(1486050127.802631) vcan0 04B#00C0D8D8D8D8C000
(1486050127.803575) vcan0 04C#105FFFC000000000
(1486050127.803650) vcan0 091#7F007F2A0AC7F000
(1486050127.803745) vcan0 092#6FC76FE47399BAC7
(1486050127.804582) vcan0 082#AC08154C8A804000
(1486050127.804664) vcan0 085#7C5280006ED07C3A
(1486050127.808328) vcan0 167#72806A10001AB200
(1486050127.809326) vcan0 076#3E96C0800FFF0000
(1486050127.809405) vcan0 077#27FF080E7FF80A0C
(1486050127.809478) vcan0 07D#0000F69000205804
(1486050127.809550) vcan0 202#04A5500060852825
(1486050127.810310) vcan0 204#C11B7D04D8000000
(1486050127.810384) vcan0 213#FFFF000400020640
(1486050127.810449) vcan0 214#000000000000F690
(1486050127.810516) vcan0 216#BE127D3F00000000
(1486050127.811316) vcan0 186#1449012C00850400
(1486050127.811397) vcan0 187#D51408C800E00300
(1486050127.811465) vcan0 217#225C227422402244
(1486050127.811533) vcan0 242#05B31FEACF000001
(1486050127.812311) vcan0 261#0000000000000000
(1486050127.812385) vcan0 33B#0000000000000000
(1486050127.812454) vcan0 3CA#6E82C98800000000
(1486050127.812523) vcan0 3A8#0100271000000000
(1486050127.813314) vcan0 091#7ECD7F2F38C8F000
(1486050127.813392) vcan0 092#6FD16FE173A0ABC8
(1486050127.813463) vcan0 3B3#4048020F10050002
(1486050127.813529) vcan0 40A#C100334641365030
(1486050127.813597) vcan0 078#0168800000000000
(1486050127.814310) vcan0 415#282AF49D08080808
(1486050127.814385) vcan0 41D#8000600000000000
(1486050127.814450) vcan0 085#7C4D80006EE07C3E
(1486050127.814517) vcan0 3CC#3000000000000000
(1486050127.815306) vcan0 42C#8C20000008C00000
(1486050127.815377) vcan0 42F#7D04002E664404D8
(1486050127.815445) vcan0 455#A000000000000000
(1486050127.815510) vcan0 4B0#01008000900000F6
(1486050127.818198) vcan0 047#2000000000000000
(1486050127.819331) vcan0 165#50C3460000000000
(1486050127.819384) vcan0 217#2268226C22442244
(1486050127.819423) vcan0 167#72806A10001AB200
(1486050127.819468) vcan0 200#00007FEF80740000
(1486050127.820307) vcan0 202#04A4580060852825
(1486050127.820347) vcan0 204#C11B7D04DC000000
(1486050127.820384) vcan0 3A6#0E401A045F700000
(1486050127.820416) vcan0 230#600600009C000000
(1486050127.822107) vcan0 091#7E7B7F3682C9F000
(1486050127.823106) vcan0 092#6FCA6FDA73ADABC9
(1486050127.824109) vcan0 082#710814B48B804000
(1486050127.824159) vcan0 085#7C58800061F07C3F
(1486050127.828488) vcan0 167#72806A10001AB200
(1486050127.829495) vcan0 076#3E86C0800FFF0000
(1486050127.829545) vcan0 077#280108117FF8160D
(1486050127.829587) vcan0 07D#0000F5A00020B7F4
(1486050127.829622) vcan0 202#04A3600060852825
(1486050127.830443) vcan0 204#C11B7D04DD000000
(1486050127.830480) vcan0 213#FFFF000400020740
(1486050127.830516) vcan0 083#4020000008000000
(1486050127.830549) vcan0 186#144A012C00850400
(1486050127.831433) vcan0 187#D51408C800E00300
(1486050127.831468) vcan0 214#000000000000F5A0
(1486050127.831503) vcan0 216#E1349F6300000000
(1486050127.831538) vcan0 217#2264227422442240
(1486050127.832487) vcan0 2A1#FFFFFFFF00000000
(1486050127.832535) vcan0 3A8#0100272500000000
(1486050127.832623) vcan0 415#2833F89308090809
(1486050127.832661) vcan0 078#0068000000000000
(1486050127.833468) vcan0 091#7E297F37D2CAF000
(1486050127.833520) vcan0 092#6FBB6FD573C3A8CA
(1486050127.833557) vcan0 41D#8000600000000000
(1486050127.833591) vcan0 4B0#01008000A00000F5
(1486050127.834483) vcan0 085#7C6080006A007C3D
(1486050127.838353) vcan0 047#2000000000000000
(1486050127.839471) vcan0 217#225C2270223C223C
(1486050127.839531) vcan0 05C#80D000EE201E0000
(1486050127.839570) vcan0 165#50C3460000000000
(1486050127.839605) vcan0 167#72806A10001AB200
(1486050127.840312) vcan0 200#00007FEF80740000
(1486050127.840348) vcan0 202#04A0680060852827
(1486050127.840383) vcan0 204#C11B7D04E0000000
(1486050127.841368) vcan0 230#600600009C000000
(1486050127.841417) vcan0 3CA#6E82C98800000000
(1486050127.841454) vcan0 42F#7D04002E664404DC
(1486050127.842340) vcan0 091#7DEA7F3117CBF000
(1486050127.842393) vcan0 092#6FC06FD073D199CB
(1486050127.843967) vcan0 082#970814408B804000
(1486050127.844967) vcan0 085#7C5A800072107C3A
(1486050127.845025) vcan0 3CC#3000000000000000
(1486050127.848332) vcan0 167#72806A10001AB200
(1486050127.849251) vcan0 202#049D700060852829
(1486050127.849304) vcan0 076#3E8DC0800FFF0000
(1486050127.849371) vcan0 077#280308137FF7FE09
(1486050127.849433) vcan0 07D#0000F4B0002157C1
(1486050127.850368) vcan0 204#C11B7D04DF000000
(1486050127.850419) vcan0 213#FFFF000400020640
(1486050127.850459) vcan0 214#000000000000F4B0
(1486050127.850496) vcan0 216#0558C38600000000
(1486050127.851344) vcan0 186#144A012C00850400
(1486050127.851392) vcan0 187#D51408C800E00300
(1486050127.851429) vcan0 217#2260227422382248
(1486050127.851491) vcan0 242#05B31FECCF000001
(1486050127.852345) vcan0 3A8#0100271600000000
(1486050127.852470) vcan0 415#2833FC92080A080A
(1486050127.852526) vcan0 416#5300FB0001000000
(1486050127.852579) vcan0 41D#8000600000000000
(1486050127.853472) vcan0 078#0168800000000000
(1486050127.853553) vcan0 091#7DBD7F3143CCF000
(1486050127.853609) vcan0 092#6FE06FD573CE76CC
(1486050127.853660) vcan0 4B0#01008000B00000F4
(1486050127.854363) vcan0 085#7C4C80007F207C3A
(1486050127.857943) vcan0 42C#8C20000008C00000
(1486050127.858902) vcan0 217#2264227822382248
(1486050127.859007) vcan0 047#2000000000000000
(1486050127.860033) vcan0 165#50C3460000000000
(1486050127.860145) vcan0 167#72806A10001AB200
(1486050127.860226) vcan0 178#000002010E78CE78
(1486050127.860912) vcan0 200#00007FEF80740000
(1486050127.861013) vcan0 202#049B78006085282A
(1486050127.861098) vcan0 204#C11B7D04DE000000
(1486050127.861930) vcan0 230#600600009C000000
(1486050127.862029) vcan0 261#0000000000000000
(1486050127.863038) vcan0 091#7D977F3960CDF000
(1486050127.863156) vcan0 092#6FF66FDD73BB6ACD
(1486050127.863239) vcan0 05D#8357875F3D000000
(1486050127.863985) vcan0 082#890814148A804000
(1486050127.864945) vcan0 085#7C4B80007B307C3E
(1486050127.868580) vcan0 167#72806A10001AB200
(1486050127.869663) vcan0 076#3E8EC0800FFF0000
(1486050127.869749) vcan0 077#280408117FF82609
(1486050127.869865) vcan0 07D#0000F3C00021879F
(1486050127.869918) vcan0 202#04A900006085282B
(1486050127.870530) vcan0 204#C11B7D04DE000000
(1486050127.870594) vcan0 186#1448012C00850400
(1486050127.870648) vcan0 187#D41408C800F00300
(1486050127.870698) vcan0 213#FFFF000400020640
(1486050127.871530) vcan0 214#000000000000F3C0
(1486050127.871599) vcan0 216#297CE7A900000000
(1486050127.871656) vcan0 217#22682274223C224C
(1486050127.871706) vcan0 33B#0000000000000000
(1486050127.872509) vcan0 3A8#0100271C00000000
(1486050127.872649) vcan0 3CA#6E82C98800000000
(1486050127.872700) vcan0 415#2838C09C080B080B
(1486050127.872749) vcan0 078#0569800000000000
(1486050127.873529) vcan0 091#7D7A7F3F76CEF000
(1486050127.873598) vcan0 092#6FE66FE6739B90CE
(1486050127.873652) vcan0 41D#8000600000000000
(1486050127.873700) vcan0 42F#7D04002E664404E0
(1486050127.873750) vcan0 4B0#01008000C00000F3
(1486050127.874647) vcan0 085#7C5780006D407C3F
(1486050127.874717) vcan0 3CC#3000000000000000
(1486050127.878388) vcan0 047#2000000000000000
(1486050127.879401) vcan0 217#2268227C22482258
(1486050127.879469) vcan0 165#50C3460000000000
(1486050127.879518) vcan0 167#72806A10001AB200
(1486050127.879563) vcan0 200#00007FEF80740000
(1486050127.880399) vcan0 202#04A608006085282D
(1486050127.880467) vcan0 204#C11B7D04DE000000
(1486050127.880515) vcan0 230#600600009C000000
(1486050127.881909) vcan0 091#7D797F377ECFF000
(1486050127.882825) vcan0 092#6FD26FE77372CBCF
(1486050127.883996) vcan0 082#830814348B804000
(1486050127.885004) vcan0 085#7C5D800068507C3D
(1486050127.888500) vcan0 242#05B31FEFCF000001
(1486050127.889392) vcan0 076#3E80C0800FFF0000
(1486050127.889452) vcan0 077#280708167FF82E0F
(1486050127.889499) vcan0 07D#0000F2D00020978A
(1486050127.889545) vcan0 167#72806A10001AB100
(1486050127.890386) vcan0 186#1448012C00850400
(1486050127.890444) vcan0 187#D41408C800F00300
(1486050127.890487) vcan0 18A#0020180214000000
(1486050127.890529) vcan0 202#04A410006085282E
(1486050127.891385) vcan0 204#C11B7D04E4000000
(1486050127.891448) vcan0 213#FFFF000400020740
(1486050127.891494) vcan0 214#000000000000F2D0
(1486050127.891538) vcan0 216#4B9E09CC00000000
(1486050127.892384) vcan0 217#225C227C22482248
(1486050127.892447) vcan0 3A8#0100271D00000000
(1486050127.892560) vcan0 415#283CC497080B080B
(1486050127.892605) vcan0 41D#8000600000000000
(1486050127.893384) vcan0 078#0068000000000000
(1486050127.893444) vcan0 091#7DA17F2369D0F000
(1486050127.893491) vcan0 092#6FD26FDA7357F2D0
(1486050127.893536) vcan0 422#000000953802FE02
(1486050127.893576) vcan0 423#92E0000000000000
(1486050127.894386) vcan0 430#37000CF7C88C7700
(1486050127.894448) vcan0 085#7C56800071607C3A
(1486050127.894493) vcan0 4B0#01008000D00000F2
(1486050127.898375) vcan0 047#2000000000000000
(1486050127.899381) vcan0 217#2264227822502250
(1486050127.899444) vcan0 05A#00000045F0410000
(1486050127.899490) vcan0 165#50C3460000000000
(1486050127.899532) vcan0 167#72806A10001AB100
(1486050127.900382) vcan0 200#00007FEF80740000
(1486050127.900441) vcan0 202#04A1180060852830
(1486050127.900489) vcan0 204#C11B7D04E5000000
(1486050127.901317) vcan0 230#600600009C000000
(1486050127.901360) vcan0 3CA#6E84A98300000000
(1486050127.901405) vcan0 42F#7D04002E664404DE
(1486050127.902373) vcan0 04A#0200000000000000
(1486050127.903504) vcan0 04B#00C0D8D8D8D8C000
(1486050127.903569) vcan0 04C#105FFFC000000000
(1486050127.903619) vcan0 091#7DE77F0F36D1F000
(1486050127.903664) vcan0 092#6FE06FCD7365E2D1
(1486050127.904502) vcan0 082#9C0813F08B804000
(1486050127.904572) vcan0 085#7C4C800079707C3B
(1486050127.904619) vcan0 3CC#3000000000000000
(1486050127.908366) vcan0 167#72806A10001AB100
(1486050127.909399) vcan0 202#049E200060852832
(1486050127.909462) vcan0 076#3E91C0800FFF0000
(1486050127.909511) vcan0 077#280B080D7FF81A0B
(1486050127.909555) vcan0 07D#0000F1E0001F6796
(1486050127.910386) vcan0 186#1446012C00850400
(1486050127.910447) vcan0 187#D41408C800F00300
(1486050127.910490) vcan0 204#C11B7D04E2000000
(1486050127.910534) vcan0 213#FFFF000400020740
(1486050127.911384) vcan0 214#000000000000F1E0
(1486050127.911447) vcan0 216#6FC22DF000000000
(1486050127.911493) vcan0 217#226C228022442230
(1486050127.911536) vcan0 261#0000000000000000
(1486050127.912391) vcan0 3A8#0100271000000000
(1486050127.912519) vcan0 415#2835C89D080C080C
(1486050127.912568) vcan0 41D#8000600000000000
(1486050127.912606) vcan0 42C#8C20000008C00000
(1486050127.913415) vcan0 091#7E397F08E9D2F000
(1486050127.913483) vcan0 078#0168800000000000
(1486050127.913536) vcan0 092#6FF76FCC73959BD2
(1486050127.913579) vcan0 455#A000000000000000
(1486050127.913620) vcan0 4B0#01008000E00000F1
(1486050127.914384) vcan0 085#7C4A800078807C3D
(1486050127.918514) vcan0 217#2270228022442240
(1486050127.919506) vcan0 047#2000000000000000
(1486050127.919564) vcan0 165#50C3460000000000
(1486050127.919609) vcan0 167#72806A10001AB100
(1486050127.919650) vcan0 200#00007FEF80740000
(1486050127.920508) vcan0 202#049D280060852832
(1486050127.920569) vcan0 204#C11B7D04DD000000
(1486050127.920615) vcan0 230#600600009C000000
(1486050127.922113) vcan0 091#7E837F0B9BD3F000
(1486050127.923252) vcan0 092#6FF36FD773CC5CD3
(1486050127.924247) vcan0 082#8F0814008B804000
(1486050127.924318) vcan0 085#7C4E800072907C3E
(1486050127.928557) vcan0 167#72806A10001AB100
(1486050127.929504) vcan0 076#3E80C0800FFF0000
(1486050127.929601) vcan0 077#280C08047FF84207
(1486050127.929669) vcan0 07D#0000F0F0002087C6
(1486050127.929732) vcan0 186#1445012C00850400
(1486050127.930389) vcan0 187#D41408C800F00300
(1486050127.930469) vcan0 202#049C300060852832
(1486050127.930536) vcan0 083#4020000008000000
(1486050127.930594) vcan0 204#C11B7D04DD000000
(1486050127.931331) vcan0 213#FFFF000400020640
(1486050127.931396) vcan0 214#000000000000F0F0
(1486050127.931453) vcan0 216#93E64F1300000000
(1486050127.931507) vcan0 217#226C2278223C223C
(1486050127.932430) vcan0 242#05B31FF3D0000001
(1486050127.932491) vcan0 2A1#FFFFFFFF00000000
(1486050127.932545) vcan0 33B#0000000000000000
(1486050127.932598) vcan0 091#7EB17F0F68D4F000
(1486050127.933441) vcan0 078#0168800000000000
(1486050127.933507) vcan0 092#6FE06FE873E445D4
(1486050127.933563) vcan0 3A8#0100272000000000
(1486050127.933702) vcan0 3CA#6E84A98300000000
(1486050127.933758) vcan0 415#2849CC88080B080B
(1486050127.934441) vcan0 41D#8000600000000000
(1486050127.934501) vcan0 085#7C5180006FA07C3D
(1486050127.934555) vcan0 3CC#3000000000000000
(1486050127.934607) vcan0 42F#7D04002E664404E5
(1486050127.935430) vcan0 4B0#01008000F00000F0
(1486050127.938176) vcan0 047#2000000000000000
(1486050127.939316) vcan0 05C#807000F4201E0000
(1486050127.939380) vcan0 217#2264226822402244
(1486050127.939440) vcan0 165#50C3460000000000
(1486050127.939496) vcan0 167#72806A10001AB200
(1486050127.940313) vcan0 200#00007FEF80740000
(1486050127.940372) vcan0 202#0498380060852835
(1486050127.940426) vcan0 204#C11B7D04E0000000
(1486050127.940480) vcan0 230#600600009C000000
(1486050127.941852) vcan0 091#7EC57F0959D5F000
(1486050127.942839) vcan0 092#6FD16FE673B782D5
(1486050127.943835) vcan0 082#950814008B804000
(1486050127.944855) vcan0 085#7C5080006FB07C3D
(1486050127.948638) vcan0 167#72806A10001AB200
(1486050127.949668) vcan0 076#3E83C0800FFF0000
(1486050127.949755) vcan0 077#280B08077FF8260F
(1486050127.949859) vcan0 07D#0000FF000021E7EB
(1486050127.949919) vcan0 186#1445012C00850400
(1486050127.950537) vcan0 187#D41408C800F00300
(1486050127.950610) vcan0 202#0494400060852838
(1486050127.950672) vcan0 204#C11B7D04E3000000
(1486050127.950727) vcan0 213#FFFF000400020540
(1486050127.951533) vcan0 214#000000000000FF00
(1486050127.951609) vcan0 216#B508733600000000
(1486050127.951667) vcan0 217#2268226422402244
(1486050127.951722) vcan0 3A8#0100271000000000
(1486050127.952528) vcan0 415#282AD0A6080A080A
(1486050127.952606) vcan0 416#5400FA0001000000
(1486050127.952666) vcan0 41D#8000600000000000
(1486050127.952717) vcan0 078#0068000000000000
(1486050127.953666) vcan0 091#7ED37EF75DD6F000
(1486050127.953756) vcan0 092#6FC56FD67367EDD6
(1486050127.953878) vcan0 4B0#01008000000000FF
(1486050127.954521) vcan0 085#7C4C800073C07C3C
(1486050127.958515) vcan0 047#2000000000000000
(1486050127.959522) vcan0 217#2264226C2250224C
(1486050127.959590) vcan0 165#50C3460000000000
(1486050127.959640) vcan0 167#72806A10001AB200
(1486050127.960654) vcan0 178#000002020E78CE78
(1486050127.960771) vcan0 200#00007FEF80740000
(1486050127.961569) vcan0 3CA#6E84A98300000000
(1486050127.961643) vcan0 202#0496480060852835
(1486050127.961709) vcan0 204#C11B7D04E6000000
(1486050127.961771) vcan0 230#600600009C000000
(1486050127.962550) vcan0 261#0000000000000000
(1486050127.962614) vcan0 091#7EEC7EE456D7F000
(1486050127.962674) vcan0 092#6FC56FC4733D28D7
(1486050127.963544) vcan0 05D#8357AF5E34000000
(1486050127.963609) vcan0 42C#8C20000008C00000
(1486050127.963667) vcan0 42F#7D04002E664504E0
(1486050127.964541) vcan0 082#950814048B804000
(1486050127.964607) vcan0 085#7C48800076D07C3C
(1486050127.964667) vcan0 3CC#3000000000000000
(1486050127.968435) vcan0 167#72806B10001AB200
(1486050127.969483) vcan0 076#3E84C0800FFF0000
(1486050127.969536) vcan0 077#280C07FF7FF80A0A
(1486050127.969585) vcan0 07D#0000FE10001FA7F6
(1486050127.969633) vcan0 186#1444012C00850400
(1486050127.970509) vcan0 187#E31408C800000300
(1486050127.970576) vcan0 202#0497500060852833
(1486050127.970630) vcan0 204#C11B7D04E1000000
(1486050127.970678) vcan0 213#FFFF000400020640
(1486050127.971508) vcan0 214#000000000000FE10
(1486050127.971605) vcan0 216#D92C955A00000000
(1486050127.971679) vcan0 217#2264226C22502254
(1486050127.971745) vcan0 242#05B31FF5CF000001
(1486050127.972507) vcan0 3A8#0100271300000000
(1486050127.972679) vcan0 415#2832D49D08090809
(1486050127.972752) vcan0 41D#8000600000000000
(1486050127.972816) vcan0 078#0569800000000000
(1486050127.973631) vcan0 091#7F087EDD3FD8F000
(1486050127.973721) vcan0 092#6FCB6FBC733B2BD8
(1486050127.973791) vcan0 4B0#01008000100000FE
(1486050127.974598) vcan0 085#7C47800076E07C3C
(1486050127.978479) vcan0 217#22682268224C227C
(1486050127.979613) vcan0 047#2000000000000000
(1486050127.979679) vcan0 165#50C3460000000000
(1486050127.979731) vcan0 167#72806B10001AB200
(1486050127.979778) vcan0 200#00007FEF80750000
(1486050127.980571) vcan0 202#0497580060852832
(1486050127.980623) vcan0 204#C11B7D04DE000000
(1486050127.980685) vcan0 230#600600009C000000
(1486050127.981789) vcan0 091#7F2A7EE811D9F000
(1486050127.982781) vcan0 092#6FCD6FC4733D1ED9
(1486050127.983965) vcan0 082#930814008B804000
(1486050127.984825) vcan0 085#7C48800073F07C3D
(1486050127.987953) vcan0 3A7#0E401A045F700000
(1486050127.988871) vcan0 167#72806B10001AB200
(1486050127.988937) vcan0 186#1447012C00850400
(1486050127.988993) vcan0 076#3E7DC0800FFF0000
(1486050127.989925) vcan0 077#281007F97FF80E02
(1486050127.989976) vcan0 07D#0000FD20001EE805
(1486050127.990023) vcan0 187#E31408C800000300
(1486050127.990066) vcan0 18A#0020180214000000
(1486050127.990916) vcan0 202#0496600060852832
(1486050127.990965) vcan0 204#C11B7D04DE000000
(1486050127.991006) vcan0 213#FFFF000400020740
(1486050127.991048) vcan0 214#000000000000FD20
(1486050127.991089) vcan0 216#FD50B97C00000000
(1486050127.991897) vcan0 217#22682260223C2274
(1486050127.991943) vcan0 33B#0000000000000000
(1486050127.991982) vcan0 3A8#0100271300000000
(1486050127.992071) vcan0 3CA#6E85D97F00000000
(1486050127.992896) vcan0 415#2831D89D08070807
(1486050127.992941) vcan0 078#0168800000000000
(1486050127.992982) vcan0 091#7F547EFAD4DAF000
(1486050127.993022) vcan0 092#6FCF6FCF732E1FDA
(1486050127.993899) vcan0 41D#8000600000000000
(1486050127.993945) vcan0 422#000000953802FE02
(1486050127.993986) vcan0 423#92E0000000000000
(1486050127.994028) vcan0 42F#7D04002E664504E6
(1486050127.994923) vcan0 085#7C49800082007C3C
(1486050127.994959) vcan0 3CC#3000000000000000
(1486050127.994991) vcan0 430#37000CF7C88C7700
(1486050127.995020) vcan0 4B0#01008000200000FD
(1486050127.998269) vcan0 047#2000000000000000
(1486050127.999464) vcan0 217#22642260223C226C
(1486050127.999520) vcan0 165#50C3460000000000
(1486050127.999554) vcan0 05A#00000045E6E10000
(1486050127.999589) vcan0 167#72806B10001AB200
(1486050128.000352) vcan0 200#00007FEF80750000
(1486050128.000397) vcan0 202#0496680060852831
(1486050128.000435) vcan0 204#C11B7D04DF000000
(1486050128.000485) vcan0 230#600600009C000000
(1486050128.002226) vcan0 04A#0200000000000000
(1486050128.003235) vcan0 04B#00C0D8D8D8D8C000
(1486050128.003280) vcan0 04C#105FFFC000000000
(1486050128.003315) vcan0 091#7F847F0795DBF000
(1486050128.003349) vcan0 092#6FCF6FDA731E23DB
(1486050128.004230) vcan0 082#910814008B804000
(1486050128.004276) vcan0 085#7C49800081107C3C
(1486050128.008221) vcan0 186#1448012C00850400
(1486050128.009334) vcan0 187#E31408C800000300
(1486050128.009387) vcan0 076#3E7DC0800FFF0000
(1486050128.009419) vcan0 077#281608007FF81608
(1486050128.009455) vcan0 07D#0000FC30001EA81D
(1486050128.010356) vcan0 167#72806B10001AB200
(1486050128.010402) vcan0 202#0495700060852831
(1486050128.010439) vcan0 204#C11B7D04E0000000
(1486050128.010474) vcan0 213#FFFF000400020740
(1486050128.011351) vcan0 214#000000000000FC30
(1486050128.011399) vcan0 216#1F72DDA000000000
(1486050128.011436) vcan0 217#2260226822382264
(1486050128.011470) vcan0 242#05B31FF3CF000001
(1486050128.012334) vcan0 261#0000000000000000
(1486050128.012379) vcan0 3A8#0100270D00000000
(1486050128.012469) vcan0 40A#C1014B3931485232
(1486050128.012506) vcan0 415#282ADCA308050805
(1486050128.012538) vcan0 078#0068000000000000
(1486050128.013352) vcan0 091#7FB37F0864DCF000
(1486050128.013399) vcan0 092#6FC96FEA731E18DC
(1486050128.013434) vcan0 41D#8000600000000000
(1486050128.013464) vcan0 42C#8C20000008C00000
(1486050128.014350) vcan0 455#A000000000000000
(1486050128.014395) vcan0 4B0#01008000300000FC
(1486050128.014434) vcan0 085#7C4980007F207C3D
(1486050128.018343) vcan0 047#2000000000000000
(1486050128.019348) vcan0 217#2260226822402260
(1486050128.019395) vcan0 165#50C3460000000000
(1486050128.019430) vcan0 167#72806B10001AB200
(1486050128.019461) vcan0 3A6#0E401A045F700000
(1486050128.020332) vcan0 200#00007FEF80740000
(1486050128.020382) vcan0 202#049678006085282F
(1486050128.020425) vcan0 204#C11B7D04E0000000
(1486050128.020458) vcan0 230#600600009C000000
(1486050128.021364) vcan0 42F#7D04002E664504DF
(1486050128.021436) vcan0 3CA#6E85D97F00000000
(1486050128.022378) vcan0 091#7FD67F0147DDF000
(1486050128.022442) vcan0 092#6FB36FF5732F11DD
(1486050128.023877) vcan0 082#900814008B804000
(1486050128.025004) vcan0 085#7C4980007E307C3D
(1486050128.025075) vcan0 3CC#3000000000000000
(1486050128.028248) vcan0 186#1443012C00850400
(1486050128.029247) vcan0 187#E31408C800000300
(1486050128.029312) vcan0 167#72806B10001AB200
(1486050128.029357) vcan0 076#3E7FC0800FFF0000
(1486050128.029404) vcan0 077#281808047FF80A10
(1486050128.030140) vcan0 07D#0000FB40001E583B
(1486050128.030202) vcan0 202#04A600006085282E
(1486050128.030249) vcan0 204#C11B7D04E3000000
(1486050128.030294) vcan0 083#4020000008000000
(1486050128.031116) vcan0 213#FFFF000400020840
(1486050128.031178) vcan0 214#000000000000FB40
(1486050128.031224) vcan0 216#439601C200000000
(1486050128.031268) vcan0 217#22642268224C2264
(1486050128.032115) vcan0 2A1#FFFFFFFF00000000
(1486050128.032174) vcan0 3A8#0100270D00000000
(1486050128.032283) vcan0 415#282DE09F08040804
(1486050128.032330) vcan0 41D#8000600000000000
(1486050128.033241) vcan0 078#0168800000000000
(1486050128.033303) vcan0 091#7FF97EFF26DEF000
(1486050128.033348) vcan0 092#6F8E6FF5733B29DE
(1486050128.033391) vcan0 4B0#01008000400000FB
(1486050128.034252) vcan0 085#7C4980007D407C3D
(1486050128.038379) vcan0 217#226C22742250225C
(1486050128.039383) vcan0 047#2000000000000000
(1486050128.039441) vcan0 05C#801000FA201E0000
(1486050128.039489) vcan0 165#50C3460000000000
(1486050128.039532) vcan0 167#72806B10001AB200
(1486050128.040382) vcan0 200#00007FEE80740000
(1486050128.040443) vcan0 202#04A608006085282D
(1486050128.040489) vcan0 204#C11B7D04E1000000
(1486050128.041356) vcan0 230#600600009C000000
(1486050128.042338) vcan0 091#802C7F01EEDFF000
(1486050128.042381) vcan0 092#6F8D6FEA732E41DF
(1486050128.043838) vcan0 082#9508140C8B804000
(1486050128.044845) vcan0 085#7C4980007C507C3D
(1486050128.047955) vcan0 186#1443012C00850400
(1486050128.048958) vcan0 187#E31408C800000300
(1486050128.048997) vcan0 167#72806B10001AB200
(1486050128.049028) vcan0 076#3E7FC0800FFF0000
(1486050128.049056) vcan0 077#281D08027FF7CE12
(1486050128.049934) vcan0 07D#0000FA50001EE851
(1486050128.049975) vcan0 202#04A510006085282D
(1486050128.050007) vcan0 213#FFFF000400020940
(1486050128.050036) vcan0 214#000000000000FA50
(1486050128.050963) vcan0 204#C11B7D04E1000000
(1486050128.051002) vcan0 216#67BA23E600000000
(1486050128.051036) vcan0 217#226C227022502258
(1486050128.051065) vcan0 242#05B31FF5CF000001
(1486050128.051941) vcan0 33B#0000000000000000
(1486050128.051981) vcan0 3CA#6E85D97F00000000
(1486050128.052012) vcan0 3A8#0100271000000000
(1486050128.052085) vcan0 415#2839E49208020802
(1486050128.052944) vcan0 416#5500F90001000000
(1486050128.052987) vcan0 091#805B7F04BBE0F000
(1486050128.053019) vcan0 078#0168800000000000
(1486050128.053047) vcan0 092#6FAF6FDA730953E0
(1486050128.053076) vcan0 41D#8000600000000000
(1486050128.053937) vcan0 42F#7D04002E664504E0
(1486050128.053975) vcan0 4B0#01008000500000FA
(1486050128.054007) vcan0 085#7C4A80007A607C3D
(1486050128.054947) vcan0 3CC#3000000000000000
(1486050128.057854) vcan0 42C#8C20000008C00000
(1486050128.058922) vcan0 047#2000000000000000
(1486050128.058964) vcan0 217#22702270224C2248
(1486050128.058995) vcan0 165#50C3460000000000
(1486050128.059831) vcan0 167#72806B10001AB300
(1486050128.059869) vcan0 178#000002010E78CE78
(1486050128.060837) vcan0 200#00007FEE80740000
(1486050128.060874) vcan0 202#04A318006085282E
(1486050128.060904) vcan0 204#C11B7D04E3000000
(1486050128.061837) vcan0 230#600600009C000000
(1486050128.061882) vcan0 261#0000000000000000
(1486050128.061913) vcan0 091#806A7F09A6E1F000
(1486050128.062829) vcan0 092#6FD06FCE72DE69E1
(1486050128.062869) vcan0 05D#8357975840000000
(1486050128.063824) vcan0 082#9A0814008B804000
(1486050128.064918) vcan0 085#7C4A80007A707C3C
(1486050128.068170) vcan0 186#1443012C00850400
(1486050128.069177) vcan0 187#E21408C800100300
(1486050128.069222) vcan0 167#72806B10001AB200
(1486050128.069254) vcan0 076#3E7FC0800FFF0000
(1486050128.069280) vcan0 077#281F08037FF7F20B
(1486050128.070084) vcan0 07D#0000F960001DF86F
(1486050128.070122) vcan0 202#04A0200060852830
(1486050128.070167) vcan0 204#C11B7D04E0000000
(1486050128.070216) vcan0 213#FFFF000400020840
(1486050128.071034) vcan0 214#000000000000F960
(1486050128.071066) vcan0 216#89DC470A00000000
(1486050128.071095) vcan0 217#226C2270224C224C
(1486050128.071122) vcan0 3A8#0100271000000000
(1486050128.072012) vcan0 415#2839E89108010801
(1486050128.072043) vcan0 41D#8000600000000000
(1486050128.072068) vcan0 4B0#01008000600000F9
(1486050128.072096) vcan0 078#0469000000000000
(1486050128.073019) vcan0 091#80697F149BE2F000
(1486050128.073050) vcan0 092#6FD36FD272CF70E2
(1486050128.074037) vcan0 085#7C4B800077807C3D
(1486050128.078287) vcan0 047#2000000000000000
(1486050128.079288) vcan0 217#226822742248224C
(1486050128.079317) vcan0 165#50C3460000000000
(1486050128.079342) vcan0 167#72806B10001AB200
(1486050128.079366) vcan0 200#00007FEF80740000
(1486050128.080287) vcan0 202#049E280060852831
(1486050128.080319) vcan0 204#C11B7D04E8000000
(1486050128.080346) vcan0 230#600600009C000000
(1486050128.081287) vcan0 42F#7D04002E664504E3
(1486050128.081317) vcan0 3CA#6E86297F00000000
(1486050128.082270) vcan0 091#80757F1E84E3F000
(1486050128.082298) vcan0 092#6FC36FE172ED52E3
(1486050128.083784) vcan0 082#9D0814048B804000
(1486050128.084786) vcan0 085#7C4B800076907C3D
(1486050128.084816) vcan0 3CC#3000000000000000
(1486050128.087545) vcan0 186#1446012C00850400
(1486050128.088538) vcan0 187#E21408C800100300
(1486050128.088565) vcan0 18A#0020180214000000
(1486050128.088590) vcan0 167#72806B10001AB200
(1486050128.088615) vcan0 076#3E80C0800FFF0000
(1486050128.089538) vcan0 077#281E08087FF81A09
(1486050128.089567) vcan0 07D#0000F870001CF874
(1486050128.089593) vcan0 202#049C300060852832
(1486050128.089620) vcan0 204#C11B7D04E6000000
(1486050128.090520) vcan0 213#FFFF000400020740
(1486050128.090550) vcan0 214#000000000000F870
(1486050128.090577) vcan0 216#AD00692C00000000
(1486050128.090603) vcan0 217#2268227822502254
(1486050128.091645) vcan0 242#05B31FF3D0000001
(1486050128.091675) vcan0 3A8#0100271000000000
(1486050128.091731) vcan0 415#2836EC9308000800
(1486050128.091759) vcan0 41D#8000600000000000
(1486050128.092645) vcan0 4B0#01008000700000F8
(1486050128.092675) vcan0 078#0168800000000000
(1486050128.092701) vcan0 091#807F7F2374E4F000
(1486050128.092728) vcan0 092#6FAA6FED731A30E4
(1486050128.093642) vcan0 422#000000953802FE02
(1486050128.093669) vcan0 423#92E0000000000000
(1486050128.093695) vcan0 430#37000CF7C88C7700
(1486050128.094643) vcan0 085#7C4C800074A07C3D
(1486050128.098290) vcan0 217#226C227822502250
(1486050128.099284) vcan0 047#2000000000000000
(1486050128.099310) vcan0 05A#00000045EC810000
(1486050128.099336) vcan0 165#50C3460000000000
(1486050128.099361) vcan0 167#72806B10001AB200
(1486050128.100290) vcan0 200#00007FEE80740000
(1486050128.100319) vcan0 202#049B380060852832
(1486050128.100346) vcan0 204#C11B7D04E7000000
(1486050128.101284) vcan0 230#600600009C000000
(1486050128.102298) vcan0 04A#0200000000000000
(1486050128.102338) vcan0 04B#00C0D8D8D8D8C000
(1486050128.103415) vcan0 04C#105FFFC000000000
(1486050128.103442) vcan0 091#80607F1F96E5F000
(1486050128.103469) vcan0 092#6F9C6FF3733021E5
(1486050128.104418) vcan0 082#9F0814188B804000
(1486050128.104447) vcan0 085#7C4D800072B07C3D
(1486050128.107414) vcan0 186#1448012C00850400
(1486050128.108542) vcan0 187#E21408C800100300
(1486050128.108587) vcan0 167#72806B10001AB200
(1486050128.109550) vcan0 076#3E80C0800FFF0000
(1486050128.109591) vcan0 077#281E080D7FF7EE10
(1486050128.109621) vcan0 07D#0000F780001E487A
(1486050128.109650) vcan0 202#049A400060852832
(1486050128.109676) vcan0 213#FFFF000400020640
(1486050128.110591) vcan0 214#000000000000F780
(1486050128.110631) vcan0 216#D1248D5000000000
(1486050128.110660) vcan0 204#C11B7D04E7000000
(1486050128.110686) vcan0 217#2274228022542250
(1486050128.111559) vcan0 33B#0000000000000000
(1486050128.111597) vcan0 3CA#6E86297F00000000
(1486050128.111625) vcan0 261#0000000000000000
(1486050128.111651) vcan0 415#283FF08908000800
(1486050128.112560) vcan0 41D#8000600000000000
(1486050128.112597) vcan0 3A8#0100271000000000
(1486050128.112668) vcan0 091#801E7F17DFE6F000
(1486050128.112698) vcan0 092#6FA46FEF733517E6
(1486050128.113547) vcan0 078#0168800000000000
(1486050128.113584) vcan0 42C#8C20000008C00000
(1486050128.113613) vcan0 42F#7D04002E664504E8
(1486050128.113642) vcan0 4B0#01008000800000F7
(1486050128.114582) vcan0 455#A000000000000000
(1486050128.114619) vcan0 085#7C5080006EC07C3D
(1486050128.114649) vcan0 3CC#3000000000000000
(1486050128.118324) vcan0 047#2000000000000000
(1486050128.119421) vcan0 217#22782280224C2248
(1486050128.119466) vcan0 165#50C3460000000000
(1486050128.119493) vcan0 167#72806B10001AB200
(1486050128.119519) vcan0 200#00007FEE80740000
(1486050128.120432) vcan0 202#0497480060852834
(1486050128.120476) vcan0 204#C11A7C04E5000000
(1486050128.120506) vcan0 230#600600009C000000
(1486050128.121859) vcan0 091#7FE17F1122E7F000
(1486050128.122832) vcan0 092#6FB56FE673340FE7
(1486050128.123833) vcan0 082#970814188B804000
(1486050128.124832) vcan0 085#7C54800068D07C3E
(1486050128.125842) vcan0 456#8000000000000000
(1486050128.127324) vcan0 186#144F012C00850400
(1486050128.128322) vcan0 187#E21408C800100300
(1486050128.129423) vcan0 167#72806B10001AB200
(1486050128.129464) vcan0 076#3E81C0800FFF0000
(1486050128.129496) vcan0 077#282008097FF7E611
(1486050128.129524) vcan0 07D#0000F690001EC85C
(1486050128.130334) vcan0 202#0495500060852835
(1486050128.130372) vcan0 204#C11A7C04E7000000
(1486050128.130405) vcan0 213#FFFF000400020640
(1486050128.130431) vcan0 083#4020000008000000
(1486050128.131332) vcan0 214#000000000000F690
(1486050128.131370) vcan0 216#F548B17200000000
(1486050128.131400) vcan0 217#227422802244224C
(1486050128.131428) vcan0 242#05B31FF2CF000001
(1486050128.132331) vcan0 2A1#FFFFFFFF00000000
(1486050128.132368) vcan0 3A8#0100271000000000
(1486050128.132439) vcan0 415#284CF47B07FF07FF
(1486050128.132469) vcan0 078#0068000000000000
(1486050128.133333) vcan0 091#7FB67F104DE8F000
(1486050128.133372) vcan0 092#6FC46FDF732F0BE8
(1486050128.133402) vcan0 41D#8000600000000000
(1486050128.133429) vcan0 4B0#01008000900000F6
(1486050128.134328) vcan0 085#7C54800069E07C3C
(1486050128.138325) vcan0 047#2000000000000000
(1486050128.139420) vcan0 217#227022802244224C
(1486050128.139465) vcan0 05C#80B000F0201E0000
(1486050128.139495) vcan0 165#50C3460000000000
(1486050128.139521) vcan0 167#72806B10001AB200
(1486050128.140330) vcan0 200#00007FEE80740000
(1486050128.140367) vcan0 202#0490580060852839
(1486050128.140399) vcan0 204#C11A7C04E5000000
(1486050128.141327) vcan0 230#600600009C000000
(1486050128.141364) vcan0 3CA#6E86297F00000000
(1486050128.141393) vcan0 42F#7D04002E664504E5
(1486050128.142331) vcan0 091#7F8F7F156EE9F000
(1486050128.142369) vcan0 092#6FCA6FDE732A0AE9
(1486050128.143806) vcan0 082#AC0814E48B804000
(1486050128.144808) vcan0 085#7C5180006BF07C3C
(1486050128.144846) vcan0 3CC#3000000000000000
(1486050128.147165) vcan0 186#144F012C00850400
(1486050128.148169) vcan0 187#E21408C800100300
(1486050128.149309) vcan0 167#72806B10001AB200
(1486050128.149354) vcan0 076#3E88C0800FFF0000
(1486050128.149384) vcan0 077#281F08077FF80A0C
(1486050128.149413) vcan0 07D#0000F5A0001EA83C
(1486050128.150215) vcan0 202#048D60006085283B
(1486050128.150253) vcan0 204#C11A7D04E7000000
(1486050128.150283) vcan0 213#FFFF000400020540
(1486050128.150312) vcan0 214#000000000000F5A0
(1486050128.151186) vcan0 216#176AD39600000000
(1486050128.151226) vcan0 217#22742280224C2254
(1486050128.151256) vcan0 3A8#0100271000000000
(1486050128.151325) vcan0 415#2842F88408000800
(1486050128.152207) vcan0 416#5600F80001000000
(1486050128.152246) vcan0 41D#8000600000000000
(1486050128.152274) vcan0 4B0#01008000A00000F5
(1486050128.152303) vcan0 078#0168800000000000
(1486050128.153205) vcan0 091#7F5B7F1B9BEAF000
(1486050128.153243) vcan0 092#6FCC6FDE73230EEA
(1486050128.154182) vcan0 085#7C51800079007C3D
(1486050128.157936) vcan0 42C#8C20000008C00000
(1486050128.158876) vcan0 217#227C227C2250225C
(1486050128.158919) vcan0 047#2000000000000000
(1486050128.159923) vcan0 165#50C3460000000000
(1486050128.159966) vcan0 167#72806B10001AB200
(1486050128.159992) vcan0 178#000001FF0E78CE78
(1486050128.160934) vcan0 200#00007FEE80740000
(1486050128.160981) vcan0 202#048B68006085283C
(1486050128.161011) vcan0 204#C11A7D04E4000000
(1486050128.161842) vcan0 230#600600009C000000
(1486050128.161879) vcan0 261#0000000000000000
(1486050128.162960) vcan0 091#7F207F1FD1EBF000
(1486050128.162999) vcan0 092#6FC96FE0731B16EB
(1486050128.163031) vcan0 05D#8357BF602E000000
(1486050128.163948) vcan0 082#8B0814348B804000
(1486050128.165046) vcan0 085#7C5A80006E107C3E
(1486050128.167204) vcan0 186#1451012C00850400
(1486050128.168295) vcan0 187#E11408C800200300
(1486050128.168339) vcan0 167#72806B10001AB200
(1486050128.169295) vcan0 076#3E85C0800FFF0000
(1486050128.169339) vcan0 077#2820080A7FF8120C
(1486050128.169369) vcan0 07D#0000F4B0001E781F
(1486050128.170210) vcan0 213#FFFF000400020540
(1486050128.170247) vcan0 214#000000000000F4B0
(1486050128.170278) vcan0 216#3B8EF7BA00000000
(1486050128.170307) vcan0 217#227C22802254225C
(1486050128.170333) vcan0 202#048970006085283D
(1486050128.171325) vcan0 204#C11A7D04E4000000
(1486050128.171361) vcan0 33B#0000000000000000
(1486050128.171389) vcan0 3CA#6E86297F00000000
(1486050128.171416) vcan0 415#284BFC7A08000800
(1486050128.172314) vcan0 41D#8000600000000000
(1486050128.172376) vcan0 242#05B31FF1CF000001
(1486050128.172416) vcan0 3A8#0100271700000000
(1486050128.172487) vcan0 4B0#01008000B00000F4
(1486050128.173309) vcan0 078#0569800000000000
(1486050128.173349) vcan0 091#7EF47F1EFEECF000
(1486050128.173378) vcan0 092#6FCA6FE273220BEC
(1486050128.173406) vcan0 42F#7D04002E664504E5
(1486050128.174308) vcan0 085#7C63800064207C3E
(1486050128.174347) vcan0 3CC#3000000000000000
(1486050128.178305) vcan0 047#2000000000000000
(1486050128.179309) vcan0 217#227C228C225C2258
(1486050128.179346) vcan0 165#50C3460000000000
(1486050128.179372) vcan0 167#72806B10001AB300
(1486050128.179399) vcan0 200#00007FEE80740000
(1486050128.180422) vcan0 202#048678006085283F
(1486050128.180466) vcan0 204#C11A7D04EA000000
(1486050128.180497) vcan0 230#600600009C000000
(1486050128.182086) vcan0 091#7EDF7F1917EDF000
(1486050128.183073) vcan0 092#6FD56FE17339E9ED
(1486050128.184075) vcan0 082#A70814708B804000
(1486050128.184114) vcan0 085#7C61800068307C3B
(1486050128.186832) vcan0 186#144F012C00850400
(1486050128.187914) vcan0 187#E11408C800200300
(1486050128.187959) vcan0 18A#0020180214000000
(1486050128.188920) vcan0 3A7#0E401A045F700000
(1486050128.188961) vcan0 167#72806B10001AB200
(1486050128.188992) vcan0 076#3E8EC0800FFF0000
(1486050128.189855) vcan0 077#2823080B7FF80E0D
(1486050128.189894) vcan0 07D#0000F3C0001E77FF
(1486050128.189927) vcan0 202#0494000060852840
(1486050128.189955) vcan0 204#C11A7D04E6000000
(1486050128.190829) vcan0 213#FFFF000400020640
(1486050128.190868) vcan0 214#000000000000F3C0
(1486050128.190898) vcan0 216#5FB219DC00000000
(1486050128.190926) vcan0 217#227C229022582250
(1486050128.190953) vcan0 3A8#0100271400000000
(1486050128.191809) vcan0 415#2854C08008010801
(1486050128.191849) vcan0 41D#8000600000000000
(1486050128.191877) vcan0 4B0#01008000C00000F3
(1486050128.192832) vcan0 078#0068000000000000
(1486050128.192871) vcan0 422#000000953802FE02
(1486050128.192899) vcan0 091#7EC97F192CEEF000
(1486050128.192928) vcan0 092#6FE66FE07353BEEE
(1486050128.193821) vcan0 423#92E0000000000000
(1486050128.193861) vcan0 430#37000CF7C88C7700
(1486050128.193890) vcan0 085#7C58800070407C3B
(1486050128.198324) vcan0 047#2000000000000000
(1486050128.199331) vcan0 217#2284228C22502254
(1486050128.199370) vcan0 05A#00000045F2210000
(1486050128.199402) vcan0 165#50C3460000000000
(1486050128.199428) vcan0 167#72806B10001AB200
(1486050128.200420) vcan0 168#0000000000000000
(1486050128.200461) vcan0 200#00007FEE80740000
(1486050128.200487) vcan0 202#0490080060852843
(1486050128.200516) vcan0 204#C11A7D04EA000000
(1486050128.201272) vcan0 3CA#6E86798400000000
(1486050128.201304) vcan0 230#600600009C000000
(1486050128.201331) vcan0 42F#7D04002E664504EA
(1486050128.202249) vcan0 04A#0200000000000000
(1486050128.202276) vcan0 04B#00C0D8D8D8D8C000
(1486050128.203248) vcan0 04C#105FFFC000000000
(1486050128.203274) vcan0 091#7EAE7F233CEFF000
(1486050128.203300) vcan0 092#6FEE6FE0736A9EEF
(1486050128.204326) vcan0 082#9C08143489804000
(1486050128.204364) vcan0 085#7C5980006A507C3F
(1486050128.204397) vcan0 3CC#3000000000000000
(1486050128.206668) vcan0 186#144E012C00850400
(1486050128.207789) vcan0 187#E11408C800200300
(1486050128.208794) vcan0 167#72806B10001AB200
(1486050128.208837) vcan0 076#3E95C0800FFF0000
(1486050128.209797) vcan0 077#2824080A7FF82E0D
(1486050128.209885) vcan0 07D#0000F2D0001F57F3
(1486050128.209913) vcan0 202#048D100060852845
(1486050128.209937) vcan0 204#C11A7D04E5000000
(1486050128.210785) vcan0 213#FFFF000400020540
(1486050128.210824) vcan0 214#000000000000F2D0
(1486050128.210852) vcan0 216#82D43D0000000000
(1486050128.210877) vcan0 217#2288228422482258
(1486050128.211702) vcan0 242#05B31FEECF000001
(1486050128.211735) vcan0 261#0000000000000000
(1486050128.211759) vcan0 415#2855C47E08030803
(1486050128.211784) vcan0 41D#8000600000000000
(1486050128.212701) vcan0 3A8#0100271D00000000
(1486050128.212774) vcan0 4B0#01008000D00000F2
(1486050128.212801) vcan0 078#0168800000000000
(1486050128.212827) vcan0 091#7E947F2F49F0F000
(1486050128.212850) vcan0 092#6FE96FE6737F87F0
(1486050128.213695) vcan0 3E2#0000000080000000
(1486050128.213728) vcan0 3EB#C604140000200000
(1486050128.213755) vcan0 40A#C1023130373639FF
(1486050128.214673) vcan0 085#7C6A800057607C40
(1486050128.214708) vcan0 42C#8C20000008C00000
(1486050128.215941) vcan0 455#A000000000000000
(1486050128.218302) vcan0 217#22882290224C2258
(1486050128.219316) vcan0 047#2000000000000000
(1486050128.219349) vcan0 165#50C3460000000000
(1486050128.219374) vcan0 167#72806B10001AB100
(1486050128.219399) vcan0 3A6#0E401A045F700000
(1486050128.220317) vcan0 200#00007FEE80740000
(1486050128.220349) vcan0 202#0489180060852848
(1486050128.220376) vcan0 204#C11A7D04E6000000
(1486050128.220398) vcan0 230#600600009C000000
(1486050128.222071) vcan0 091#7E787F2F64F1F000
(1486050128.223069) vcan0 092#6FDA6FEC73828CF1
(1486050128.224065) vcan0 082#8308148C8A804000
(1486050128.224099) vcan0 085#7C7780004B707C3E
(1486050128.226440) vcan0 186#144A012C00850400
(1486050128.227570) vcan0 187#E11408C800200300
(1486050128.228657) vcan0 167#72806B10001AB100
(1486050128.229663) vcan0 076#3E8DC0800FFF0000
(1486050128.229702) vcan0 077#282408117FF8320F
(1486050128.229731) vcan0 07D#0000F1E0002017E2
(1486050128.229755) vcan0 202#0487200060852849
(1486050128.230581) vcan0 204#C11A7D04E6000000
(1486050128.230614) vcan0 213#FFFF000400020540
(1486050128.230641) vcan0 214#000000000000F1E0
(1486050128.230665) vcan0 081#0000000000000000
(1486050128.230688) vcan0 083#4020000008000000
(1486050128.231573) vcan0 216#A6F8612200000000
(1486050128.231607) vcan0 217#228022942254225C
(1486050128.231634) vcan0 2A1#FFFFFFFF00000000
(1486050128.231657) vcan0 33B#0000000000000000
(1486050128.232550) vcan0 3A8#0100272500000000
(1486050128.232624) vcan0 3CA#6E86798400000000
(1486050128.232651) vcan0 078#0168800000000000
(1486050128.232675) vcan0 091#7E4F7F2596F2F000
(1486050128.233573) vcan0 092#6FD36FE97371A6F2
(1486050128.233608) vcan0 3E6#0001040880000000
(1486050128.233633) vcan0 415#2859C87908050805
(1486050128.233658) vcan0 41D#8000600000000000
(1486050128.234698) vcan0 42F#7D04002E664504EA
(1486050128.234731) vcan0 085#7C72800052807C3B
(1486050128.234758) vcan0 3CC#3000000000000000
(1486050128.234782) vcan0 4B0#01008000E00000F1
(1486050128.235669) vcan0 5B3#B300FFFFFFFFFFFF
(1486050128.238295) vcan0 047#2000000000000000
(1486050128.239407) vcan0 217#227C229422602258
(1486050128.239447) vcan0 05C#805000F6201E0000
(1486050128.239476) vcan0 165#50C3460000000000
(1486050128.239499) vcan0 167#72806A10001AB200
(1486050128.240319) vcan0 200#00007FEE80740000
(1486050128.240352) vcan0 202#048428006085284B
(1486050128.240381) vcan0 204#C11A7C04EB000000
(1486050128.240406) vcan0 230#600600009C000000
(1486050128.241689) vcan0 091#7E157F22D2F3F000
(1486050128.242795) vcan0 092#6FE66FE07354B8F3
(1486050128.243820) vcan0 082#B708169C89804000
(1486050128.244809) vcan0 085#7C6780005C907C3B
(1486050128.246313) vcan0 186#144A012C00850400
(1486050128.247407) vcan0 187#E11408C800200300
(1486050128.248404) vcan0 167#72806B10001AB200
(1486050128.249321) vcan0 076#3EABC0800FFF0000
(1486050128.249355) vcan0 077#2826080E7FF81A0F
(1486050128.249382) vcan0 07D#0000F0F0001FD7CD
(1486050128.249406) vcan0 202#048130006085284D
(1486050128.250419) vcan0 204#C11A7C04ED000000
(1486050128.250445) vcan0 213#FFFF000400020540
(1486050128.250467) vcan0 214#000000000000F0F0
(1486050128.250490) vcan0 216#C81B834600000000
(1486050128.251389) vcan0 217#228422902264225C
(1486050128.251415) vcan0 242#05B31FEACF000001
(1486050128.251438) vcan0 3A8#0100271C00000000
(1486050128.251501) vcan0 415#2855CC7C08090809
(1486050128.252424) vcan0 416#5700F70001000000
(1486050128.252460) vcan0 41D#8000600000000000
(1486050128.252484) vcan0 4B0#01008000F00000F0
(1486050128.252509) vcan0 078#0068000000000000
(1486050128.253422) vcan0 091#7DDA7F2D02F4F000
(1486050128.253458) vcan0 092#6FFF6FD87339C1F4
(1486050128.254445) vcan0 085#7C6C800051A07C40
(1486050128.258068) vcan0 42C#8C20000008C00000
(1486050128.259154) vcan0 047#2000000000000000
(1486050128.259192) vcan0 217#2290228C2260225C
(1486050128.259219) vcan0 165#50C3460000000000
(1486050128.260071) vcan0 167#72806B10001AB200
(1486050128.260103) vcan0 178#000002020E78CE78
(1486050128.261067) vcan0 200#00007FEE80740000
(1486050128.261100) vcan0 202#047F38006085284E
(1486050128.261129) vcan0 204#C11A7C04EB000000
(1486050128.261154) vcan0 3CA#6E86798400000000
(1486050128.262068) vcan0 230#600600009C000000
(1486050128.262100) vcan0 261#0000000000000000
(1486050128.262125) vcan0 091#7DB87F3E12F5F000
(1486050128.263072) vcan0 092#70076FD17342B5F5
(1486050128.263106) vcan0 42F#7D04002E664504EB
(1486050128.263133) vcan0 05D#8357A75F35000000
(1486050128.264048) vcan0 082#7F0814E08B804000
(1486050128.264082) vcan0 085#7C7E80003DB07C41
(1486050128.265168) vcan0 3CC#3000000000000000
(1486050128.266448) vcan0 186#1444012C00850400
(1486050128.267445) vcan0 187#E01408C800300300
(1486050128.268568) vcan0 167#72806B10001AB200
(1486050128.269574) vcan0 076#3E9CC0800FFF0000
(1486050128.269608) vcan0 077#282A08107FF84A0B
(1486050128.269635) vcan0 07D#0000FF00001ED7A8
(1486050128.269659) vcan0 202#047D40006085284F
(1486050128.270576) vcan0 204#C1187C04EC000000
(1486050128.270610) vcan0 213#FFFF000400020540
(1486050128.270633) vcan0 214#000000000000FF00
(1486050128.270657) vcan0 216#EC3FA76A00000000
(1486050128.271574) vcan0 217#2290229422542260
(1486050128.271608) vcan0 3A8#0100273A00000000
(1486050128.271672) vcan0 415#2860D070080D080D
(1486050128.271699) vcan0 41D#8000600000000000
(1486050128.272572) vcan0 4B0#01008000000000FF
(1486050128.272608) vcan0 078#0569800000000000
(1486050128.272634) vcan0 091#7DB87F4609F6F000
(1486050128.272659) vcan0 092#70086FD0737383F6
(1486050128.273795) vcan0 085#7C86800038C07C3D
(1486050128.278359) vcan0 047#2000000000000000
(1486050128.279481) vcan0 217#2280229C2250225C
(1486050128.279545) vcan0 165#50C3460000000000
(1486050128.279583) vcan0 167#72806B10001AB200
(1486050128.279621) vcan0 200#00007FEE80710000
(1486050128.280482) vcan0 202#047A480060852851
(1486050128.280548) vcan0 204#C1157C04EC000000
(1486050128.280590) vcan0 230#600600009C000000
(1486050128.282126) vcan0 091#7DCD7F47F2F7F000
(1486050128.283111) vcan0 092#70156FD773A43DF7
(1486050128.284114) vcan0 082#BA0816888B804000
(1486050128.284171) vcan0 085#7C7D800043D07C3A
(1486050128.285988) vcan0 186#1441012C00850400
(1486050128.286984) vcan0 187#E01408C800300300
(1486050128.287036) vcan0 18A#0020180214000000
(1486050128.288361) vcan0 167#72806B10001AB200
(1486050128.289482) vcan0 076#3EB2C0800FFF0000
(1486050128.289548) vcan0 077#282908187FF85608
(1486050128.289589) vcan0 07D#0000FE10001FE79E
(1486050128.289629) vcan0 202#0477500060852853
(1486050128.290376) vcan0 204#C1157C04EC000000
(1486050128.290430) vcan0 213#FFFF000400020440
(1486050128.290473) vcan0 214#000000000000FE10
(1486050128.290513) vcan0 216#1063CB8C00000000
(1486050128.291368) vcan0 217#2280229822502260
(1486050128.291424) vcan0 242#05B31FEECF000001
(1486050128.291466) vcan0 33B#0000000000000000
(1486050128.291504) vcan0 3A8#0100272B00000000
(1486050128.292351) vcan0 3CA#6E83F99C00000000
(1486050128.292408) vcan0 415#285FD47008130813
(1486050128.292450) vcan0 41D#8000600000000000
(1486050128.292488) vcan0 42F#7D04002E664504EB
(1486050128.293371) vcan0 078#0168800000000000
(1486050128.293426) vcan0 091#7DE47F4DD4F8F000
(1486050128.293471) vcan0 092#70286FE473AF11F8
(1486050128.293512) vcan0 422#000000953802FE02
(1486050128.293549) vcan0 423#92E0000000000000
(1486050128.294330) vcan0 430#37000CF7C88C7700
(1486050128.294366) vcan0 085#7C75800047E07C3D
(1486050128.294396) vcan0 3CC#3000000000000000
(1486050128.294421) vcan0 43A#0000020000000000
(1486050128.295306) vcan0 4B0#01008000100000FE
(1486050128.295346) vcan0 59E#9E00FFFFFFFFFFFF
(1486050128.298320) vcan0 047#2000000000000000
(1486050128.299327) vcan0 165#50C3460000000000
(1486050128.299363) vcan0 05A#00000045E8C10000
(1486050128.299393) vcan0 167#72806B10001AB100
(1486050128.299421) vcan0 200#00007FEE80700000
(1486050128.300308) vcan0 202#0474580060852855
(1486050128.300346) vcan0 217#228C228C22542264
(1486050128.300376) vcan0 204#C1147C04EA000000
(1486050128.300403) vcan0 230#600600009C000000
(1486050128.302176) vcan0 04A#0200000000000000
(1486050128.303183) vcan0 04B#00C0D8D8D8D8C000
(1486050128.303238) vcan0 04C#105FFFC000000000
(1486050128.303289) vcan0 091#7DFD7F57B0F9F000
(1486050128.303338) vcan0 092#70226FE8739928F9
(1486050128.304181) vcan0 082#870814008A804000
(1486050128.304219) vcan0 085#7C7F800039F07C40
(1486050128.305841) vcan0 186#1441012C00850400
(1486050128.306819) vcan0 187#E01408C800300300
(1486050128.308320) vcan0 167#72806B10001AB100
(1486050128.309326) vcan0 202#0472600060852856
(1486050128.309364) vcan0 076#3EB1C0800FFF0000
(1486050128.309396) vcan0 077#2829081A7FF87A0E
(1486050128.309424) vcan0 07D#0000FD200020F7AB
(1486050128.310330) vcan0 204#C1137C04E8000000
(1486050128.310368) vcan0 213#FFFF000400020440
(1486050128.310393) vcan0 214#000000000000FD20
(1486050128.310420) vcan0 216#3485EDB000000000
(1486050128.311328) vcan0 217#22902288225C2268
(1486050128.311366) vcan0 261#0000000000000000
(1486050128.311393) vcan0 3A8#0100274100000000
(1486050128.311455) vcan0 3B3#4048020F10050002
(1486050128.312307) vcan0 415#285AD87408180818
(1486050128.312346) vcan0 41D#8000600000000000
(1486050128.312374) vcan0 3C3#7EC0000000000000
(1486050128.312399) vcan0 078#0068000000000000
(1486050128.313308) vcan0 091#7E267F5B81FAF000
(1486050128.313347) vcan0 092#6FFE6FE2738B60FA
(1486050128.313394) vcan0 42C#8C20000008C00000
(1486050128.313442) vcan0 4B0#01008000200000FD
(1486050128.314331) vcan0 455#A000000000000000
(1486050128.314367) vcan0 085#7C90800038007C3F
(1486050128.318324) vcan0 217#228822982268226C
(1486050128.319414) vcan0 047#2000000000000000
(1486050128.319460) vcan0 165#50C3460000000000
(1486050128.319488) vcan0 167#72806B10001AB100
(1486050128.319514) vcan0 200#00007FEE80700000
(1486050128.320422) vcan0 202#0471680060852856
(1486050128.320466) vcan0 204#C1137C04EB000000
(1486050128.320496) vcan0 230#600600009C000000
(1486050128.321332) vcan0 3CA#6E83F99C00000000
(1486050128.321369) vcan0 42F#7D04002E664504EA
(1486050128.322326) vcan0 091#7E6A7F5740FBF000
(1486050128.322364) vcan0 092#6FEC6FD8739D69FB
(1486050128.323829) vcan0 082#950814148A804000
(1486050128.324824) vcan0 085#7C92800039107C3B
(1486050128.324861) vcan0 3CC#3000000000000000
(1486050128.325855) vcan0 186#143F012C00850400
(1486050128.326817) vcan0 187#E01408C800300300
(1486050128.328314) vcan0 167#72806A10001AB100
(1486050128.329383) vcan0 202#0470700060852856
(1486050128.329424) vcan0 076#3EB3C0800FFF0000
(1486050128.329451) vcan0 077#282C081E7FF84A0D
(1486050128.329475) vcan0 07D#0000FC30002057C0
(1486050128.330324) vcan0 204#C1137C04EA000000
(1486050128.330360) vcan0 213#FFFF000400020540
(1486050128.330386) vcan0 214#000000000000FC30
(1486050128.330410) vcan0 083#4020000008000000
(1486050128.331320) vcan0 216#58A911D400000000
(1486050128.331356) vcan0 217#228422A022682268
(1486050128.331383) vcan0 242#05B31FEECF000001
(1486050128.331404) vcan0 2A1#FFFFFFFF00000000
(1486050128.332300) vcan0 3A8#0100274000000000
(1486050128.332373) vcan0 415#2862DC6B081E081E
(1486050128.332401) vcan0 078#0168800000000000
(1486050128.332426) vcan0 091#7EAB7F56FFFCF000
(1486050128.333298) vcan0 092#700E6FCD73BC31FC
(1486050128.333332) vcan0 41D#8000000000000000
(1486050128.333360) vcan0 4B0#01008000300000FC
(1486050128.334297) vcan0 085#7C87800044207C3A
(1486050128.338316) vcan0 047#2000000000000000
(1486050128.339321) vcan0 217#228822A02268226C
(1486050128.339355) vcan0 05C#80F000EC201E0000
(1486050128.339384) vcan0 165#50C3460000000000
(1486050128.339406) vcan0 167#72806A10001AB100
(1486050128.340406) vcan0 200#00007FEE80700000
(1486050128.340443) vcan0 202#046D780060852858
(1486050128.340470) vcan0 204#C1137D04E9000000
(1486050128.340495) vcan0 230#600600009C000000
(1486050128.341779) vcan0 091#7EBC7F68DBFDF000
(1486050128.342905) vcan0 092#70386FC873C304FD
(1486050128.343815) vcan0 082#A20814488A804000
(1486050128.344819) vcan0 085#7C80800047307C3D
(1486050128.345837) vcan0 186#143F012C00850400
(1486050128.345872) vcan0 187#E01408C800300300
(1486050128.348334) vcan0 167#72806A10001AB100
(1486050128.349407) vcan0 076#3EC6C0800FFF0000
(1486050128.349447) vcan0 077#282F081D7FF85E07
(1486050128.349474) vcan0 07D#0000FB40002137E9
(1486050128.349499) vcan0 202#047B000060852859
(1486050128.350411) vcan0 204#C1137D04E9000000
(1486050128.350449) vcan0 213#FFFF000400020540
(1486050128.350473) vcan0 214#000000000000FB40
(1486050128.350499) vcan0 216#7ACD35F600000000
(1486050128.351407) vcan0 217#229422A822602270
(1486050128.351446) vcan0 33B#0000000000000000
(1486050128.351470) vcan0 3A8#0100274300000000
(1486050128.351534) vcan0 3CA#6E83F99C00000000
(1486050128.352324) vcan0 415#2866E06608250825
(1486050128.352359) vcan0 416#5800F60001000000
(1486050128.352385) vcan0 078#0168800000000000
(1486050128.352409) vcan0 091#7E987F84E2FEF000
(1486050128.353299) vcan0 092#702E6FCD73BA11FE
(1486050128.353333) vcan0 41D#8000000000000000
(1486050128.353359) vcan0 42F#7D04002E664404EB
(1486050128.353384) vcan0 4B0#01008000400000FB
(1486050128.354298) vcan0 085#7C8A80003A407C3F
(1486050128.354332) vcan0 3CC#3000000000000000
(1486050128.357839) vcan0 42C#8C20000008C00000
(1486050128.358819) vcan0 047#2000000000000000
(1486050128.358852) vcan0 217#229022A822582274
(1486050128.358880) vcan0 165#50C3460000000000
(1486050128.359911) vcan0 167#72806A10001AB000
(1486050128.359951) vcan0 178#000001FD0E78CE78
(1486050128.360915) vcan0 200#00007FEE80700000
(1486050128.360974) vcan0 202#047808006085285B
(1486050128.361031) vcan0 204#C1137D04E6000000
(1486050128.361763) vcan0 230#600600009C000000
(1486050128.361791) vcan0 261#0000000000000000
(1486050128.362755) vcan0 091#7E627F9803FFF000
(1486050128.362783) vcan0 092#6FFA6FDF73BD30FF
(1486050128.362808) vcan0 05D#83578F5E3C000000
(1486050128.363748) vcan0 169#0081C00000000000
(1486050128.363775) vcan0 082#820814F88A804000
(1486050128.364812) vcan0 085#7C9580002F507C3E
(1486050128.365786) vcan0 186#143D012C00850400
(1486050128.365838) vcan0 187#DF1408C800400300
(1486050128.368559) vcan0 167#72806A10001AB000
(1486050128.369656) vcan0 076#3EB4C0800FFF0000
(1486050128.369695) vcan0 077#2831082B7FF88208
(1486050128.369723) vcan0 07D#0000FA50002127E3
(1486050128.369748) vcan0 202#047610006085285C
(1486050128.370578) vcan0 204#C1137C04E6000000
(1486050128.370613) vcan0 213#FFFF000400020540
(1486050128.370636) vcan0 214#000000000000FA50
(1486050128.370660) vcan0 216#9EF1571A00000000
(1486050128.371557) vcan0 217#228822B022582278
(1486050128.371611) vcan0 242#05B31FF1CF000001
(1486050128.371655) vcan0 3A8#0100275500000000
(1486050128.371756) vcan0 415#2872E459082A082A
(1486050128.372540) vcan0 41D#8000000000000000
(1486050128.372586) vcan0 078#0469000000000000
(1486050128.372629) vcan0 4B0#01008000500000FA
(1486050128.372670) vcan0 091#7E2F7F9B3200F000
(1486050128.372740) vcan0 092#6FE66FEC73BE3500
(1486050128.373819) vcan0 085#7C90800037607C3A
(1486050128.378310) vcan0 047#2000000000000000
(1486050128.379314) vcan0 217#228822A82260227C
(1486050128.379347) vcan0 165#50C3460000000000
(1486050128.379371) vcan0 167#72806A10001AB000
(1486050128.379394) vcan0 200#00007FEE80700000
(1486050128.380411) vcan0 202#047218006085285F
(1486050128.380451) vcan0 204#C1137C04E6000000
(1486050128.380474) vcan0 230#600600009C000000
(1486050128.381404) vcan0 42F#7D04002E664404E6
(1486050128.381444) vcan0 3CA#FE8247EF00000000
(1486050128.382412) vcan0 091#7E0E7F935A01F000
(1486050128.382452) vcan0 092#6FFE6FEA73994301
(1486050128.383813) vcan0 082#C20817A48A804000
(1486050128.384821) vcan0 085#7C81800045707C3A
(1486050128.384856) vcan0 3CC#3000000000000000
(1486050128.385842) vcan0 186#143C012C00850400
(1486050128.385877) vcan0 187#DF1408C800400300
(1486050128.386810) vcan0 18A#0020180214000000
(1486050128.387934) vcan0 3A7#0E401A045F700000
(1486050128.388941) vcan0 167#72806910001AAF00
(1486050128.388975) vcan0 202#046E200060852862
(1486050128.389004) vcan0 076#3EC9C0800FFF0000
(1486050128.389028) vcan0 077#283308327FF82E10
(1486050128.390067) vcan0 07D#0000F960002137C3
(1486050128.390101) vcan0 204#C1127C04E4000000
(1486050128.390129) vcan0 213#FFFF000400020640
(1486050128.390153) vcan0 214#000000000000F960
(1486050128.391051) vcan0 216#C2137B3E00000000
(1486050128.391110) vcan0 217#228C22A022682278
(1486050128.391162) vcan0 3A8#0100274300000000
(1486050128.391262) vcan0 415#2868E86208300830
(1486050128.392076) vcan0 41D#8000000000000000
(1486050128.392129) vcan0 4B0#01008000600000F9
(1486050128.392160) vcan0 078#0168800000000000
(1486050128.392186) vcan0 422#000000953802FE02
(1486050128.393059) vcan0 091#7E227F8E4A02F000
(1486050128.393092) vcan0 092#70226FE473645802
(1486050128.393118) vcan0 423#92E0000000000000
(1486050128.393141) vcan0 430#37000CF7C88C7700
(1486050128.394063) vcan0 431#057B00C609800002
(1486050128.394096) vcan0 085#7C7B800047807C3D
(1486050128.398310) vcan0 047#2000000000000000
(1486050128.399315) vcan0 217#2298229422682278
(1486050128.399349) vcan0 05A#00000045EE610000
(1486050128.399377) vcan0 165#50C3460000000000
(1486050128.399401) vcan0 167#72806910001AAF00
(1486050128.400407) vcan0 200#00007FEF806E0000
(1486050128.400446) vcan0 202#046C280060852863
(1486050128.400472) vcan0 204#C1107C04E1000000
(1486050128.400511) vcan0 230#600600009C000000
(1486050128.402016) vcan0 04A#0200000000000000
(1486050128.403141) vcan0 04B#00C0D8D8D8D8C000
(1486050128.403176) vcan0 04C#105FFFC000000000
(1486050128.403208) vcan0 091#7E8D7F8FDD03F000
(1486050128.403243) vcan0 092#702E6FDC73605703
(1486050128.404121) vcan0 082#6D0814F08B804000
(1486050128.404155) vcan0 085#7C88800036907C40
(1486050128.405169) vcan0 186#1438012C00850400
(1486050128.406186) vcan0 187#DF1408C800400300
(1486050128.408398) vcan0 167#72806910001AAF00
(1486050128.409407) vcan0 076#3EB5C0800FFF0000
(1486050128.409447) vcan0 077#2837082E7FF8720E
(1486050128.409476) vcan0 07D#0000F870001FA7BE
(1486050128.409500) vcan0 188#4000000000000000
(1486050128.410406) vcan0 202#046B300060852863
(1486050128.410446) vcan0 204#C1107C04E1000000
(1486050128.410469) vcan0 213#FFFF000400020640
(1486050128.410492) vcan0 214#000000000000F870
(1486050128.411320) vcan0 216#E5379F6000000000
(1486050128.411356) vcan0 217#229022A022642278
(1486050128.411384) vcan0 242#05B31FF3CF000001
(1486050128.411408) vcan0 261#0000000000000000
(1486050128.412319) vcan0 33B#0000000000000000
(1486050128.412352) vcan0 3A8#0100275800000000
(1486050128.412417) vcan0 3CA#FE8247EF00000000
(1486050128.412441) vcan0 078#0168800000000000
(1486050128.413299) vcan0 091#7F367F922F04F000
(1486050128.413334) vcan0 092#70196FD673973A04
(1486050128.413359) vcan0 40A#C104014107F670C1
(1486050128.413384) vcan0 415#2865EC6408340834
(1486050128.413408) vcan0 41D#8000000000000000
(1486050128.414423) vcan0 42C#8C20000008C00000
(1486050128.414457) vcan0 085#7C8F800031A07C3D
(1486050128.414484) vcan0 3CC#3000000000000000
(1486050128.414508) vcan0 42F#7D04002E664404E6
(1486050128.415420) vcan0 455#A000000000000000
(1486050128.415452) vcan0 4B0#01008000700000F8
(1486050128.418297) vcan0 047#2000000000000000
(1486050128.419288) vcan0 217#228822B82260226C
(1486050128.419338) vcan0 165#50C3460000000000
(1486050128.419365) vcan0 167#72806910001AAF00
(1486050128.419384) vcan0 200#00007FEF806D0000
(1486050128.420319) vcan0 202#046A380060852863
(1486050128.420353) vcan0 204#C10C7C04DF000000
(1486050128.420380) vcan0 230#600600009C000000
(1486050128.421315) vcan0 3A6#0E401A045F700000
(1486050128.422319) vcan0 091#7FCB7F979405F000
(1486050128.422353) vcan0 092#70196FD373E8EB05
(1486050128.423819) vcan0 082#A308147C8B804000
(1486050128.424819) vcan0 085#7C88800039B07C3B
(1486050128.425841) vcan0 186#1438012C00850400
(1486050128.425874) vcan0 187#DF1408C800400300
(1486050128.428311) vcan0 167#72806810001AAE00
(1486050128.429317) vcan0 202#0469400060852863
(1486050128.429352) vcan0 076#3EBCC0800FFF0000
(1486050128.429379) vcan0 077#283908307FF86A0A
(1486050128.429403) vcan0 07D#0000F78000208813
(1486050128.430315) vcan0 204#C1097C04E0000000
(1486050128.430349) vcan0 213#FFFF000400020640
(1486050128.430373) vcan0 214#000000000000F780
(1486050128.430399) vcan0 083#4020000008000000
(1486050128.431297) vcan0 216#095BC38400000000
(1486050128.431332) vcan0 217#228C22AC225C2264
(1486050128.431359) vcan0 2A1#FFFFFFFF00000000
(1486050128.431383) vcan0 3A8#0100274400000000
(1486050128.432296) vcan0 415#2876F05208370837
(1486050128.432331) vcan0 41D#8000000000000000
(1486050128.432357) vcan0 078#0068000000000000
(1486050128.432382) vcan0 091#7FFC7FA45506F000
(1486050128.433295) vcan0 092#701F6FD77425A206
(1486050128.433330) vcan0 4B0#01008000800000F7
(1486050128.434317) vcan0 085#7C7A800047C07C3A
(1486050128.438317) vcan0 217#229422982260225C
(1486050128.439314) vcan0 047#2000000000000000
(1486050128.439346) vcan0 05C#809000F2201E0000
(1486050128.439374) vcan0 165#50C3460000000000
(1486050128.439397) vcan0 167#72806810001AAE00
(1486050128.440319) vcan0 596#9600FFFFFFFFFFFF
(1486050128.440352) vcan0 200#00007FEF806D0000
(1486050128.440377) vcan0 202#0465480060852866
(1486050128.440402) vcan0 204#C1097C04E2000000
(1486050128.441295) vcan0 230#600600009C000000
(1486050128.441328) vcan0 3CA#FE8247EF00000000
(1486050128.441354) vcan0 42F#7D04002E664304DF
(1486050128.442421) vcan0 091#7FC57FB07F07F000
(1486050128.442455) vcan0 092#70076FD97431AB07
(1486050128.443902) vcan0 082#860814148B804000
(1486050128.444817) vcan0 085#7C78800044D07C3E
(1486050128.444851) vcan0 3CC#2000000000000000
(1486050128.444879) vcan0 186#1438012C00850400
(1486050128.445841) vcan0 187#DF1408C800400300
(1486050128.448311) vcan0 167#72806810001AAD00
(1486050128.449317) vcan0 202#0462500060852868
(1486050128.449353) vcan0 076#3EBCC0800FFF0000
(1486050128.449389) vcan0 077#283808357FF86E0A
(1486050128.449414) vcan0 07D#0000F69000231851
(1486050128.450317) vcan0 204#C1087C04DE000000
(1486050128.450353) vcan0 213#FFFF000400020540
(1486050128.450380) vcan0 214#000000000000F690
(1486050128.450404) vcan0 216#2D7FE5A800000000
(1486050128.451298) vcan0 217#2298229822642258
(1486050128.451332) vcan0 242#05B31FF5CF000001
(1486050128.451359) vcan0 3A8#0100274C00000000
(1486050128.451423) vcan0 415#2864F463083A083A
(1486050128.452321) vcan0 416#5900F50001000000
(1486050128.452355) vcan0 41D#8000000000000000
(1486050128.452380) vcan0 078#0168800000000000
(1486050128.452406) vcan0 091#7F687FAFDC08F000
(1486050128.453319) vcan0 092#6FD56FD47415FE08
(1486050128.453353) vcan0 41E#0000000000000000
(1486050128.453378) vcan0 4B0#01008000900000F6
(1486050128.454295) vcan0 085#7C7E80003DE07C3E
(1486050128.458317) vcan0 217#229022AC22702268
(1486050128.459400) vcan0 047#2000000000000000
(1486050128.459442) vcan0 165#50C3460000000000
(1486050128.460404) vcan0 167#72806710001AAC00
(1486050128.460444) vcan0 178#000001FD0E78CE78
(1486050128.460467) vcan0 200#00007FEF806C0000
(1486050128.461317) vcan0 202#0462580060852867
(1486050128.461351) vcan0 204#C1087C04E0000000
(1486050128.461378) vcan0 230#600600009C000000
(1486050128.462315) vcan0 261#0000000000000000
(1486050128.462348) vcan0 091#7F1E7FA03409F000
(1486050128.462378) vcan0 092#6FC06FCD73F23D09
(1486050128.463318) vcan0 42C#8C20000008C00000
(1486050128.463351) vcan0 05D#8357B75E32000000
(1486050128.464443) vcan0 082#8B0814208B804000
(1486050128.464477) vcan0 085#7C7F80003DF07C3C
(1486050128.465444) vcan0 186#1439012C00850400
(1486050128.465479) vcan0 187#DE1408C800500300
(1486050128.468309) vcan0 167#72806710001AAC00
(1486050128.469405) vcan0 076#3EACC0800FFF0000
(1486050128.469445) vcan0 077#283908397FF81A09
(1486050128.469473) vcan0 07D#0000F5A00022C823
(1486050128.469498) vcan0 202#0462600060852866
(1486050128.470451) vcan0 204#C1087C04E0000000
(1486050128.470484) vcan0 213#FFFF000400020540
(1486050128.470510) vcan0 214#000000000000F5A0
(1486050128.470535) vcan0 216#51A209CA00000000
(1486050128.471447) vcan0 217#228822AC22702290
(1486050128.471481) vcan0 33B#0000000000000000
(1486050128.471505) vcan0 3A8#0100274C00000000
(1486050128.471566) vcan0 3CA#FE8247EF00000000
(1486050128.472445) vcan0 415#2870F856083A083A
(1486050128.472478) vcan0 078#0569800000000000
(1486050128.472506) vcan0 41D#8000000000000000
(1486050128.472529) vcan0 091#7EFD7F985D0AF000
(1486050128.473444) vcan0 092#6FD36FC773D9480A
(1486050128.473480) vcan0 42F#7D04002E664304E2
(1486050128.473507) vcan0 4B0#01008000A00000F5
(1486050128.474421) vcan0 085#7C76800057007C3A
(1486050128.474455) vcan0 3CC#2000000000000000
(1486050128.478315) vcan0 047#2000000000000000
(1486050128.479405) vcan0 217#228C22A4227022B0
(1486050128.479445) vcan0 165#50C3460000000000
(1486050128.479468) vcan0 167#72806710001AA900
(1486050128.479493) vcan0 200#00007FEF806A0000
(1486050128.480316) vcan0 202#0460680060852867
(1486050128.480351) vcan0 204#C1087C04DF000000
(1486050128.480377) vcan0 230#600600009C000000
(1486050128.481684) vcan0 091#7EFD7FA64E0BF000
(1486050128.482695) vcan0 265#2001010410000000
(1486050128.482728) vcan0 092#6FF86FC973C2370B
(1486050128.482757) vcan0 453#3257364570646166
(1486050128.483818) vcan0 082#A30814188B804000
(1486050128.484821) vcan0 085#7C6B800060107C3B
(1486050128.484856) vcan0 186#1439012C00850400
(1486050128.485841) vcan0 187#DE1408C800500300
(1486050128.485874) vcan0 18A#0020180214000000
(1486050128.488311) vcan0 167#72806510001AA800
(1486050128.489315) vcan0 076#3EB3C0800FFF0000
(1486050128.489349) vcan0 077#283D08317FF81A06
(1486050128.489376) vcan0 07D#0000F4B00021B802
(1486050128.489400) vcan0 202#045E700060852868
(1486050128.490315) vcan0 204#C1087C04DC000000
(1486050128.490349) vcan0 213#FFFF000400020740
(1486050128.490376) vcan0 214#000000000000F4B0
(1486050128.490400) vcan0 216#73C52DEE00000000
(1486050128.491297) vcan0 217#229422A4226422B0
(1486050128.491333) vcan0 242#05B31FF6CF000001
(1486050128.491360) vcan0 3A8#0100273B00000000
(1486050128.491424) vcan0 415#286AFC5B083A083A
(1486050128.492320) vcan0 41D#8000000000000000
(1486050128.492353) vcan0 4B0#01008000B00000F4
(1486050128.492381) vcan0 078#0068000000000000
(1486050128.492406) vcan0 091#7F097FC2240CF000
(1486050128.493295) vcan0 092#70276FD173A61A0C
(1486050128.493330) vcan0 422#000000953802FE02
(1486050128.493355) vcan0 423#92E0000000000000
(1486050128.493378) vcan0 430#37000CF7C88C7700
(1486050128.494294) vcan0 085#7C6980005E207C3E
(1486050128.498315) vcan0 047#2000000000000000
(1486050128.499404) vcan0 217#229422A4226022A8
(1486050128.499444) vcan0 05A#00000045F4010000
(1486050128.499471) vcan0 165#50C3460000000000
(1486050128.499495) vcan0 167#72806510001AA800
(1486050128.500318) vcan0 200#00007FEF80690000
(1486050128.500353) vcan0 202#045D780060852868
(1486050128.500380) vcan0 204#C1087C04DB000000
(1486050128.501313) vcan0 230#600600009C000000
(1486050128.501346) vcan0 3CA#FE81D7F400000000
(1486050128.501374) vcan0 42F#7D04002E664204DF
(1486050128.502293) vcan0 04A#0200000000000000
(1486050128.502327) vcan0 04B#00C0D8D8D8D8C000
(1486050128.503296) vcan0 04C#105FFFC000000000
(1486050128.503328) vcan0 091#7F1F7FDDF20DF000
(1486050128.503355) vcan0 092#702A6FE073901D0D
(1486050128.504319) vcan0 082#890814208B804000
(1486050128.504354) vcan0 085#7C6A80005E307C3C
(1486050128.504381) vcan0 186#143C012C00850400
(1486050128.505440) vcan0 187#DE1408C800500300
(1486050128.505473) vcan0 3CC#2000000000000000
(1486050128.508315) vcan0 42C#8C20000008C00000
(1486050128.509409) vcan0 167#72806410001AA700
(1486050128.509449) vcan0 076#3E9FC0800FFF0000
(1486050128.509477) vcan0 077#2845083F7FF87A09
(1486050128.509501) vcan0 07D#0000F3C00020C805
(1486050128.510319) vcan0 202#046C000060852868
(1486050128.510353) vcan0 204#C1077C04D9000000
(1486050128.510380) vcan0 213#FFFF000400020840
(1486050128.510405) vcan0 214#000000000000F3C0
(1486050128.511321) vcan0 216#97E9501200000000
(1486050128.511355) vcan0 217#229022AC22642290
(1486050128.511381) vcan0 261#0000000000000000
(1486050128.511404) vcan0 3A8#0100274300000000
(1486050128.512297) vcan0 415#286FC06508380838
(1486050128.512331) vcan0 41D#8000000000000000
(1486050128.512357) vcan0 4B0#01008000C00000F3
(1486050128.512383) vcan0 078#0368800000000000
(1486050128.513297) vcan0 091#7F2D7FE9D70EF000
(1486050128.513332) vcan0 092#70086FF373A8130E
(1486050128.513359) vcan0 455#A000000000000000
(1486050128.514310) vcan0 085#7C6880005F407C3C
(1486050128.518308) vcan0 047#2000000000000000
(1486050128.519319) vcan0 217#229022B0226C2288
(1486050128.519354) vcan0 165#50C3460000000000
(1486050128.519377) vcan0 167#72806310001AA600
(1486050128.519402) vcan0 200#00007FEF80680000
(1486050128.520406) vcan0 202#046A080060852869
(1486050128.520446) vcan0 204#C1067C04D4000000
(1486050128.520474) vcan0 230#600600009C000000
(1486050128.521776) vcan0 091#7F2C7FE6DA0FF000
(1486050128.522817) vcan0 092#6FDA6FFC73E7F90F
(1486050128.523843) vcan0 082#940813F48B804000
(1486050128.524844) vcan0 085#7C61800066507C3B
(1486050128.524888) vcan0 186#143F012C00850400
(1486050128.524921) vcan0 187#DE1408C800500300
(1486050128.528330) vcan0 167#72806310001AA600
(1486050128.529316) vcan0 076#3E9EC0800FFF0000
(1486050128.529361) vcan0 077#2847084B7FF85612
(1486050128.529395) vcan0 07D#0000F2D00020D811
(1486050128.529428) vcan0 202#0469100060852869
(1486050128.530336) vcan0 204#C1067C04D4000000
(1486050128.530377) vcan0 213#FFFF000400020840
(1486050128.530409) vcan0 214#000000000000F2D0
(1486050128.530441) vcan0 083#4020000008000000
(1486050128.531319) vcan0 216#BB0C733400000000
(1486050128.531364) vcan0 217#229022B42274227C
(1486050128.531400) vcan0 242#05B31FF6CF000001
(1486050128.531430) vcan0 2A1#FFFFFFFF00000000
(1486050128.532338) vcan0 33B#0000000000000000
(1486050128.532381) vcan0 3A8#0100272E00000000
(1486050128.532465) vcan0 078#0168800000000000
(1486050128.532499) vcan0 091#7F217FDAF010F000
(1486050128.533341) vcan0 092#6FCD6FFA7421CC10
(1486050128.533386) vcan0 3CA#FE81D7F400000000
(1486050128.533419) vcan0 415#2872C46108340834
(1486050128.533452) vcan0 41D#8000000000000000
(1486050128.533481) vcan0 42F#7D04002E664104DB
(1486050128.534339) vcan0 454#3646200372204242
(1486050128.534381) vcan0 085#7C5C800069607C3C
(1486050128.534414) vcan0 3CC#2000000000000000
(1486050128.534445) vcan0 4B0#01008000D00000F2
(1486050128.538312) vcan0 047#2000000000000000
(1486050128.539319) vcan0 217#229422B0227C2280
(1486050128.539365) vcan0 05C#803000F8201E0000
(1486050128.539399) vcan0 165#50C3460000000000
(1486050128.539429) vcan0 167#72806210001AA600
(1486050128.540319) vcan0 200#00007FEF80670000
(1486050128.540364) vcan0 202#046718006085286A
(1486050128.540397) vcan0 204#C1047C04D1000000
(1486050128.540427) vcan0 230#600600009C000000
(1486050128.542047) vcan0 091#7F107FC81211F000
(1486050128.543067) vcan0 092#6FE76FF17433A811
(1486050128.544066) vcan0 082#920814008B804000
(1486050128.544102) vcan0 085#7C5780006D707C3C
(1486050128.545063) vcan0 186#143F012C00850400
(1486050128.545097) vcan0 187#DE1408C800500300
(1486050128.548435) vcan0 167#72806210001AA500
(1486050128.549446) vcan0 076#3E95C0800FFF0000
(1486050128.549480) vcan0 077#284C08467FF81214
(1486050128.549505) vcan0 07D#0000F1E00023080D
(1486050128.549529) vcan0 202#046520006085286B
(1486050128.550533) vcan0 204#C1037C04CF000000
(1486050128.550573) vcan0 213#FFFF000400020940
(1486050128.550601) vcan0 214#000000000000F1E0
(1486050128.550625) vcan0 216#DF30975800000000
(1486050128.551531) vcan0 217#229422AC227C2274
(1486050128.551569) vcan0 3A8#0100272E00000000
(1486050128.551632) vcan0 415#2877C85B08300830
(1486050128.551658) vcan0 416#5A00F40001000000
(1486050128.552424) vcan0 41D#8000000000000000
(1486050128.552456) vcan0 078#0068000000000000
(1486050128.552483) vcan0 4B0#01008000E00000F1
(1486050128.552508) vcan0 091#7F037FB53112F000
(1486050128.553441) vcan0 092#700F6FD97410B912
(1486050128.554435) vcan0 085#7C5480006F807C3C
(1486050128.557831) vcan0 42C#8C20000008C00000
(1486050128.558813) vcan0 047#2000000000000000
(1486050128.558846) vcan0 217#229822AC22742278
(1486050128.558872) vcan0 165#50C3460000000000
(1486050128.559904) vcan0 167#72806210001AA500
(1486050128.559941) vcan0 178#000001FA0E78CE78
(1486050128.560905) vcan0 200#00007FF080660000
(1486050128.560967) vcan0 202#046228006085286D
(1486050128.561008) vcan0 204#C1037C04D2000000
(1486050128.561827) vcan0 3CA#FE81D7F400000000
(1486050128.561873) vcan0 230#600600009C000000
(1486050128.561909) vcan0 261#0000000000000000
(1486050128.562814) vcan0 091#7EF87FA74A13F000
(1486050128.562861) vcan0 092#70296FC273EBDB13
(1486050128.562898) vcan0 05D#83579F5D39000000
(1486050128.562931) vcan0 42F#7D04002E664004D1
(1486050128.563768) vcan0 082#8C0814008B804000
(1486050128.564891) vcan0 085#7C51800071907C3C
(1486050128.564927) vcan0 186#143D012C00850400
(1486050128.564959) vcan0 187#DD1408C800600300
(1486050128.564991) vcan0 3CC#2000000000000000
(1486050128.568388) vcan0 167#72806110001AA400
(1486050128.569390) vcan0 076#3E8BC0800FFF0000
(1486050128.569424) vcan0 077#2850083B7FF85E0B
(1486050128.569455) vcan0 07D#0000F0F00022B804
(1486050128.569485) vcan0 202#046030006085286E
(1486050128.570375) vcan0 204#C1037D04D0000000
(1486050128.570410) vcan0 213#FFFF000400020940
(1486050128.570440) vcan0 214#000000000000F0F0
(1486050128.570470) vcan0 216#0254BA7C00000000
(1486050128.571374) vcan0 217#229822A82270227C
(1486050128.571408) vcan0 242#05B31FF6CF000001
(1486050128.571438) vcan0 3A8#0100272500000000
(1486050128.571505) vcan0 415#2875CC5C08290829
(1486050128.572419) vcan0 41D#8000000000000000
(1486050128.572458) vcan0 078#0569800000000000
(1486050128.572491) vcan0 4B0#01008000F00000F0
(1486050128.572524) vcan0 091#7EEE7F9B5F14F000
(1486050128.573405) vcan0 092#70296FB473D20114
(1486050128.574406) vcan0 085#7C4F800072A07C3C
(1486050128.578247) vcan0 217#229822AC22742284
(1486050128.579313) vcan0 047#2000000000000000
(1486050128.579357) vcan0 165#50C3460000000000
(1486050128.579392) vcan0 167#72806010001AA300
(1486050128.579427) vcan0 200#00007FF080650000
(1486050128.580284) vcan0 202#045E38006085286F
(1486050128.580320) vcan0 204#C1037D04D0000000
(1486050128.580351) vcan0 230#600600009C000000
(1486050128.582001) vcan0 091#7EE67F8A7715F000
(1486050128.582997) vcan0 092#70156FB773C61D15
(1486050128.584028) vcan0 082#860814008B804000
(1486050128.584063) vcan0 085#7C4D800073B07C3C
(1486050128.585161) vcan0 186#1442012C00850400
(1486050128.585196) vcan0 187#DD1408C800600300
(1486050128.585227) vcan0 18A#0020180214000000
(1486050128.588036) vcan0 3A7#0E401A045F700000
(1486050128.589030) vcan0 076#3E85C0800FFF0000
(1486050128.589066) vcan0 077#284F08327FF87A00
(1486050128.589099) vcan0 07D#0000FF00002197FE
(1486050128.590158) vcan0 167#72806010001AA300
(1486050128.590209) vcan0 213#FFFF000400020740
(1486050128.590247) vcan0 214#000000000000FF00
(1486050128.590281) vcan0 202#045D40006085286F
(1486050128.591022) vcan0 216#2676DE9F00000000
(1486050128.591057) vcan0 204#C1037D04D0000000
(1486050128.591087) vcan0 217#229422A422742290
(1486050128.591117) vcan0 33B#0000000000000000
(1486050128.592000) vcan0 3CA#FE8167F400000000
(1486050128.592036) vcan0 3A8#0100271A00000000
(1486050128.592103) vcan0 078#0168800000000000
(1486050128.592135) vcan0 415#2873D05D08220822
(1486050128.593013) vcan0 41D#8000000000000000
(1486050128.593045) vcan0 091#7EDB7F739816F000
(1486050128.593076) vcan0 092#6FFD6FC873CA2016
(1486050128.593106) vcan0 422#000000953802FE02
(1486050128.593135) vcan0 423#92E0000000000000
(1486050128.594001) vcan0 42F#7D04002E663F04D2
(1486050128.594035) vcan0 430#3F000CF7E88C7700
(1486050128.594067) vcan0 085#7C4A800075C07C3C
(1486050128.594097) vcan0 3CC#2000000000000000
(1486050128.595126) vcan0 4B0#01008000000000FF
(1486050128.598268) vcan0 047#2000000000000000
(1486050128.599264) vcan0 217#229422A8227C2294
(1486050128.599301) vcan0 05A#00000045EAA10000
(1486050128.599334) vcan0 165#50C3460000000000
(1486050128.599366) vcan0 167#72806010001AA200
(1486050128.600264) vcan0 200#00007FF080640000
(1486050128.600299) vcan0 202#045C48006085286F
(1486050128.600329) vcan0 204#C1037D04CE000000
(1486050128.600358) vcan0 230#600600009C000000
(1486050128.602130) vcan0 04A#0200000000000000
(1486050128.603121) vcan0 04B#00C0D8D8D8D8C000
(1486050128.603153) vcan0 04C#105FFFC000000000
(1486050128.603185) vcan0 091#7ECE7F5BBC17F000
(1486050128.603218) vcan0 092#6FFA6FDE73CB0B17
(1486050128.604117) vcan0 082#830814008B804000
(1486050128.604151) vcan0 085#7C48800075D07C3D
(1486050128.605167) vcan0 186#1445012C00850400
(1486050128.605215) vcan0 187#DD1408C800600300
(1486050128.608401) vcan0 242#05B31FF2CF000001
(1486050128.609405) vcan0 167#72805F10001AA000
(1486050128.609459) vcan0 076#3E81C0800FFF0000
(1486050128.609495) vcan0 077#284F08267FF84A06
(1486050128.609529) vcan0 07D#0000FE10002177F8
(1486050128.610404) vcan0 202#045A500060852870
(1486050128.610459) vcan0 204#C1037D04D0000000
(1486050128.610496) vcan0 213#FFFF000400020740
(1486050128.610529) vcan0 214#000000000000FE10
(1486050128.611272) vcan0 216#4A9A01C200000000
(1486050128.611307) vcan0 217#229822A4227C2294
(1486050128.611338) vcan0 261#0000000000000000
(1486050128.611368) vcan0 3A8#0100271400000000
(1486050128.612257) vcan0 40A#C110409060250000
(1486050128.612293) vcan0 415#286ED461081B081B
(1486050128.612324) vcan0 078#0068000000000000
(1486050128.612356) vcan0 091#7EBF7F45E018F000
(1486050128.613249) vcan0 092#70026FEE73BEFE18
(1486050128.613283) vcan0 41D#8000000000000000
(1486050128.613313) vcan0 42C#8C20000008C00000
(1486050128.613341) vcan0 455#A000000000000000
(1486050128.614248) vcan0 4B0#01008000100000FE
(1486050128.614283) vcan0 085#7C46800078E07C3B
(1486050128.618297) vcan0 047#2000000000000000
(1486050128.619312) vcan0 217#2298229C2278228C
(1486050128.619353) vcan0 165#50C3460000000000
(1486050128.619385) vcan0 167#72805F10001AA000
(1486050128.619404) vcan0 3A6#0E401A045F700000
(1486050128.620285) vcan0 200#00007FF080640000
(1486050128.620320) vcan0 202#045A58006085286F
(1486050128.620354) vcan0 204#C1037D04D0000000
(1486050128.620385) vcan0 230#600600009C000000
(1486050128.621248) vcan0 42F#7D04002E663E04CE
(1486050128.621282) vcan0 3CA#FE8167F400000000
(1486050128.622265) vcan0 091#7EB67F33FA19F000
(1486050128.622300) vcan0 092#70086FF073A60D19
(1486050128.623246) vcan0 186#144B012C00850400
(1486050128.624280) vcan0 187#DD1408C800600300
(1486050128.624314) vcan0 082#800814008B804000
(1486050128.624347) vcan0 085#7C45800077F07C3C
(1486050128.624380) vcan0 3CC#2000000000000000
(1486050128.628247) vcan0 167#72805E10001A9F00
(1486050128.629263) vcan0 076#3E7DC0800FFF0000
(1486050128.629298) vcan0 077#285108187FF84E11
(1486050128.629329) vcan0 07D#0000FD20002137F0
(1486050128.629359) vcan0 202#045A60006085286E
(1486050128.630249) vcan0 204#C1037C04CF000000
(1486050128.630284) vcan0 213#FFFF000400020740
(1486050128.630314) vcan0 214#000000000000FD20
(1486050128.630344) vcan0 083#4020000008000000
(1486050128.631373) vcan0 216#6CBE24E600000000
(1486050128.631407) vcan0 217#2298229C22782280
(1486050128.631438) vcan0 2A1#FFFFFFFF00000000
(1486050128.631468) vcan0 3A8#0100271000000000
(1486050128.632375) vcan0 415#286CD86208130813
(1486050128.632410) vcan0 078#0168800000000000
(1486050128.632441) vcan0 41D#8000000000000000
(1486050128.632470) vcan0 091#7EBE7F24001AF000
(1486050128.633371) vcan0 092#70056FE4738E331A
(1486050128.633405) vcan0 4B0#01008000200000FD
(1486050128.634371) vcan0 085#7C43800088007C3C
(1486050128.638246) vcan0 047#2000000000000000
(1486050128.639312) vcan0 217#229C22A022742280
(1486050128.639359) vcan0 05C#80D000EE201E0000
(1486050128.639397) vcan0 165#50C3460000000000
(1486050128.639430) vcan0 167#72805D10001A9F00
(1486050128.640402) vcan0 200#00007FF080630000
(1486050128.640456) vcan0 202#045A68006085286D
(1486050128.640501) vcan0 204#C1027C04CF000000
(1486050128.640536) vcan0 230#600600009C000000
(1486050128.642022) vcan0 091#7ED37F15F91BF000
(1486050128.643138) vcan0 092#6FF76FD573815D1B
(1486050128.644196) vcan0 186#144B012C00850400
(1486050128.644240) vcan0 187#DD1408C800600300
(1486050128.644276) vcan0 082#810814008B804000
(1486050128.644311) vcan0 085#7C4180008A107C3B
(1486050128.648159) vcan0 084#11000021290A0A00
(1486050128.649406) vcan0 167#72805D10001A9F00
(1486050128.649443) vcan0 076#3E7AC0800FFF0000
(1486050128.649485) vcan0 077#2851080D7FF8520E
(1486050128.649521) vcan0 07D#0000FC30002067EF
(1486050128.650304) vcan0 202#045970006085286D
(1486050128.650353) vcan0 204#C1027C04CC000000
(1486050128.650391) vcan0 213#FFFF000400020640
(1486050128.650426) vcan0 214#000000000000FC30
(1486050128.651299) vcan0 216#90E2480900000000
(1486050128.651349) vcan0 217#2298229C22782280
(1486050128.651386) vcan0 242#05B31FEDCF000001
(1486050128.651419) vcan0 33B#0000000000000000
(1486050128.652256) vcan0 3A8#0100270D00000000
(1486050128.652327) vcan0 3CA#FE8167F400000000
(1486050128.652352) vcan0 078#0168800000000000
(1486050128.652375) vcan0 415#286EDC5F080B080B
(1486050128.652409) vcan0 091#7EE77F01F81CF000
(1486050128.653254) vcan0 092#6FE46FC773807E1C
(1486050128.653291) vcan0 416#5B00F30001000000
(1486050128.653324) vcan0 41D#8000000000000000
(1486050128.653347) vcan0 42F#7D04002E663E04D0
(1486050128.654256) vcan0 4B0#01008000300000FC
(1486050128.654291) vcan0 085#7C40800089207C3C
(1486050128.654324) vcan0 3CC#2000000000000000
(1486050128.657751) vcan0 42C#8C20000008C00000
(1486050128.658767) vcan0 047#2000000000000000
(1486050128.658791) vcan0 217#229C229822802284
(1486050128.658826) vcan0 165#50C3460000000000
(1486050128.659825) vcan0 167#72805D10001A9F00
(1486050128.659861) vcan0 178#000001FD0E78CE78
(1486050128.660796) vcan0 200#00007FF080630000
(1486050128.660832) vcan0 202#045978006085286C
(1486050128.660867) vcan0 204#C1017C04CD000000
(1486050128.661781) vcan0 230#600600009C000000
(1486050128.661831) vcan0 3CD#0000000000000000
(1486050128.661864) vcan0 261#0000000000000000
(1486050128.661894) vcan0 3D8#0000000080C58030
(1486050128.662757) vcan0 091#7EE77EF0091DF000
(1486050128.662791) vcan0 092#6FDA6FBF73828D1D
(1486050128.662823) vcan0 05D#8357875F3D000000
(1486050128.663879) vcan0 186#1451012C00850400
(1486050128.663913) vcan0 187#DC1408C800700300
(1486050128.663945) vcan0 082#840814008B804000
(1486050128.664874) vcan0 085#7C3F800089307C3C
(1486050128.668372) vcan0 167#72805D10001A9F00
(1486050128.669554) vcan0 076#3E77C0800FFF0000
(1486050128.669614) vcan0 077#285208027FF82E06
(1486050128.669651) vcan0 07D#0000FB40002017FC
(1486050128.669686) vcan0 202#046800006085286C
(1486050128.670409) vcan0 204#C1007C04CC000000
(1486050128.670446) vcan0 213#FFFF000400020640
(1486050128.670476) vcan0 214#000000000000FB40
(1486050128.670509) vcan0 216#B4056C2D00000000
(1486050128.671508) vcan0 217#2298229C22882288
(1486050128.671543) vcan0 3A8#0100270A00000000
(1486050128.671611) vcan0 415#286BE06108040804
(1486050128.671642) vcan0 41D#8000000000000000
(1486050128.672521) vcan0 078#0469000000000000
(1486050128.672556) vcan0 091#7ECE7EE0311EF000
(1486050128.672587) vcan0 4B0#01008000400000FB
(1486050128.672617) vcan0 092#6FDA6FBD737E921E
(1486050128.673750) vcan0 085#7C3E800089407C3C
(1486050128.678248) vcan0 047#2000000000000000
(1486050128.679255) vcan0 217#22982298228C2284
(1486050128.679291) vcan0 165#50C3460000000000
(1486050128.679322) vcan0 167#72805D10001A9F00
(1486050128.679354) vcan0 200#00007FF080620000
(1486050128.680266) vcan0 202#046708006085286C
(1486050128.680301) vcan0 204#C1007C04CC000000
(1486050128.680330) vcan0 230#600600009C000000
(1486050128.681252) vcan0 42F#7D04002E663E04CD
(1486050128.681286) vcan0 3CA#FE8137EA00000000
(1486050128.682253) vcan0 091#7EAC7ED2601FF000
(1486050128.682287) vcan0 092#6FDB6FC07372991F
(1486050128.683376) vcan0 186#1455012C00850400
(1486050128.683411) vcan0 187#DC1408C800700300
(1486050128.684393) vcan0 18A#0020180214000000
(1486050128.684427) vcan0 082#850814008B804000
(1486050128.684467) vcan0 085#7C3E800088507C3C
(1486050128.684501) vcan0 3CC#2000000000000000
(1486050128.685372) vcan0 3E5#0000000080000000
(1486050128.688252) vcan0 242#05B31FF1CF000001
(1486050128.689429) vcan0 076#3E75C0800FFF0000
(1486050128.689491) vcan0 077#285207F97FF82203
(1486050128.689528) vcan0 07D#0000FA50002017F4
(1486050128.689563) vcan0 167#72805D10001A9E00
(1486050128.690303) vcan0 202#046710006085286B
(1486050128.690340) vcan0 213#FFFF000400020540
(1486050128.690373) vcan0 214#000000000000FA50
(1486050128.690405) vcan0 204#C0FE7C04C7000000
(1486050128.691258) vcan0 216#D8288E5000000000
(1486050128.691292) vcan0 217#2298229822842284
(1486050128.691324) vcan0 3A8#0100270700000000
(1486050128.691391) vcan0 415#2869E46207FE07FE
(1486050128.692270) vcan0 41D#8000400000000000
(1486050128.692304) vcan0 078#0168800000000000
(1486050128.692335) vcan0 422#000000953802FE02
(1486050128.692365) vcan0 091#7E987EC87D20F000
(1486050128.693269) vcan0 092#6FDD6FCA735CA220
(1486050128.693303) vcan0 423#92E0000000000000
(1486050128.693333) vcan0 430#37000CF7C88C7700
(1486050128.693363) vcan0 4B0#01008000500000FA
(1486050128.694252) vcan0 085#7C3E800087607C3C
(1486050128.698246) vcan0 047#2000000000000000
(1486050128.699270) vcan0 217#2294229422782284
(1486050128.699306) vcan0 05A#00000045F0410000
(1486050128.699339) vcan0 165#50C3460000000000
(1486050128.699370) vcan0 167#72805D10001A9F00
(1486050128.700269) vcan0 200#00007FF180620000
(1486050128.700304) vcan0 202#046718006085286A
(1486050128.700335) vcan0 204#C0FB7C04C7000000
(1486050128.700365) vcan0 230#600600009C000000
(1486050128.701996) vcan0 04A#0200000000000000
(1486050128.703007) vcan0 04B#00C0D8D8D8D8C000
(1486050128.703040) vcan0 04C#105FFFC000000000
(1486050128.703070) vcan0 091#7E987EC18321F000
(1486050128.703101) vcan0 092#6FDC6FD77341B021
(1486050128.704136) vcan0 186#1452012C00850400
(1486050128.704173) vcan0 187#DC1408C800700300
(1486050128.704203) vcan0 082#890814008B804000
(1486050128.704233) vcan0 085#7C3E800086707C3C
(1486050128.708247) vcan0 167#72805D10001A9F00
(1486050128.709256) vcan0 076#3E73C0800FFF0000
(1486050128.709291) vcan0 077#285107F27FF82606
(1486050128.709322) vcan0 07D#0000F960001F77E3
(1486050128.709352) vcan0 202#046620006085286A
(1486050128.710257) vcan0 204#C0FB7C04C9000000
(1486050128.710292) vcan0 213#FFFF000400020440
(1486050128.710323) vcan0 214#000000000000F960
(1486050128.710353) vcan0 216#FB4CB27300000000
(1486050128.711252) vcan0 217#2294229422742284
(1486050128.711286) vcan0 261#0000000000000000
(1486050128.711315) vcan0 33B#0000000000000000
(1486050128.711344) vcan0 3CA#FE8137EA00000000
(1486050128.712253) vcan0 415#2866E86407F807F8
(1486050128.712286) vcan0 078#0168800000000000
(1486050128.712315) vcan0 3A8#0100270600000000
(1486050128.712374) vcan0 091#7EA07EBB8022F000
(1486050128.713266) vcan0 092#6FD36FE67330BA22
(1486050128.713300) vcan0 41D#8000400000000000
(1486050128.713329) vcan0 4B0#01008000600000F9
(1486050128.713360) vcan0 42C#8C20000008C00000
(1486050128.714264) vcan0 42F#7D04002E663E04CC
(1486050128.714301) vcan0 085#7C3E800085807C3C
(1486050128.714332) vcan0 3CC#2000000000000000
(1486050128.714361) vcan0 455#A000000000000000
(1486050128.718248) vcan0 047#2000000000000000
(1486050128.719254) vcan0 217#2298229822782288
(1486050128.719289) vcan0 165#50C3460000000000
(1486050128.719318) vcan0 167#72805D10001A9D00
(1486050128.719349) vcan0 200#00007FF180610000
(1486050128.720254) vcan0 202#0466280060852869
(1486050128.720289) vcan0 204#C0F77C04C8000000
(1486050128.720319) vcan0 230#600600009C000000
(1486050128.722001) vcan0 091#7EA17EB68323F000
(1486050128.723001) vcan0 092#6FC86FF3732ABD23
(1486050128.723037) vcan0 186#1450012C00850400
(1486050128.723070) vcan0 187#DC1408C800700300
(1486050128.724002) vcan0 082#8B0814008B804000
(1486050128.724037) vcan0 085#7C3E800084907C3C
(1486050128.728266) vcan0 167#72805C10001A9C00
(1486050128.729319) vcan0 076#3E73C0800FFF0000
(1486050128.729362) vcan0 077#285207EE7FF81A0E
(1486050128.729400) vcan0 07D#0000F870001EB7E6
(1486050128.729435) vcan0 202#0466300060852868
(1486050128.730426) vcan0 204#C0F27C04C7000000
(1486050128.730463) vcan0 213#FFFF000400020440
(1486050128.730494) vcan0 214#000000000000F870
(1486050128.730525) vcan0 083#4020000008000000
(1486050128.731382) vcan0 216#1E6FD69700000000
(1486050128.731417) vcan0 217#229C22982280228C
(1486050128.731448) vcan0 242#05B31FF6CF000001
(1486050128.731478) vcan0 2A1#FFFFFFFF00000000
(1486050128.732380) vcan0 3A8#0100270400000000
(1486050128.732445) vcan0 078#0068000000000000
(1486050128.732478) vcan0 415#2867EC6207F307F3
(1486050128.732509) vcan0 091#7E9A7EB08F24F000
(1486050128.733391) vcan0 092#6FBD6FF67328C624
(1486050128.733425) vcan0 41D#8000400000000000
(1486050128.733455) vcan0 4B0#01008000700000F8
(1486050128.734375) vcan0 085#7C3E800084A07C3B
(1486050128.738245) vcan0 047#2000000000000000
(1486050128.739328) vcan0 217#229C22982288228C
(1486050128.739373) vcan0 05C#807000F4201E0000
(1486050128.739409) vcan0 165#50C3460000000000
(1486050128.739442) vcan0 167#72805C10001A9C00
(1486050128.740275) vcan0 200#00007FF180600000
(1486050128.740312) vcan0 202#0466380060852867
(1486050128.740343) vcan0 204#C0F27C04C3000000
(1486050128.741267) vcan0 230#600600009C000000
(1486050128.741299) vcan0 3CA#FE8137EA00000000
(1486050128.741329) vcan0 42F#7D04002E663D04C8
(1486050128.742253) vcan0 091#7E8E7EA9A125F000
(1486050128.742287) vcan0 092#6FB46FED7324DB25
(1486050128.743246) vcan0 186#1450012C00850400
(1486050128.743279) vcan0 187#DC1408C800700300
(1486050128.744377) vcan0 082#880814008B804000
(1486050128.744412) vcan0 085#7C3F800081B07C3C
(1486050128.744444) vcan0 3CC#2000000000000000
(1486050128.748251) vcan0 167#72805B10001A9700
