(1484869955.91) can1 091#7ef47ef424f1f000
(1484869955.91) can1 092#6f9f6fa0737322f1
(1484869955.91) can1 167#72804310001a0200
(1484869955.91) can1 200#0000804080400000
(1484869955.91) can1 202#04f3480060000000
(1484869955.91) can1 082#85085400a1804000
(1484869955.91) can1 085#84e580005d7084ae
(1484869955.91) can1 230#1006000097000000
(1484869955.91) can1 3cc#1000000000000000
(1484869955.91) can1 33b#0000000000000000
(1484869955.92) can1 05a#00000045e5f10000
(1484869955.92) can1 168#0000000000000000
(1484869955.92) can1 59e#9e00ffffffffffff
(1484869955.92) can1 078#0168800000000000
(1484869955.92) can1 422#000000963802fe02
(1484869955.92) can1 3ca#fe80080000000000
(1484869955.92) can0 3ca#fe80080000000000
(1484869955.92) can1 423#88e0000000000000
(1484869955.92) can1 167#72804110001a0300
(1484869955.92) can1 082#70085404a0804000
(1484869955.92) can1 085#83ef80004ed084ae
(1484869955.92) can1 05c#007000f5201e0000
(1484869955.92) can1 082#88081400a1804000
(1484869955.92) can1 085#84cb8000785084af
(1484869955.92) can1 200#00007f9080d00000
(1484869955.92) can1 202#04353800600003bd
(1484869955.93) can1 186#141c017b00180400
(1484869955.93) can1 187#de14082800500300
(1484869955.93) can1 230#1006000097000000
(1484869955.93) can1 42c#8c80000007f00000
(1484869955.93) can1 076#3eb9c0800fff0000
(1484869955.93) can1 077#03b708047ff80e0f
(1484869955.93) can1 07d#0000ff00001f9818
(1484869955.93) can1 091#7f487eff7540f000
(1484869955.93) can1 092#6fac6fe473639240
(1484869955.93) can1 213#ffff000400020440
(1484869955.93) can1 214#000000000000ff00
(1484869955.93) can1 216#57f91d2e00000000
(1484869955.93) can1 217#0348034803300330
(1484869955.93) can1 415#03d1d02408090809
(1484869955.93) can1 41d#8000600000000000
(1484869955.93) can1 42f#7d04002e66740282
(1484869955.93) can1 4b0#01008000000000ff
(1484869955.93) can1 3a8#0100274900000000
(1484869955.93) can1 083#0100000000600000
(1484869955.93) can1 2a1#ffffffff00000000
(1484869955.93) can1 167#7280d610001a3700
(1484869955.93) can1 3ca#fe7bd85500000000
(1484869955.93) can0 3ca#fe7bd85500000000
(1484869955.93) can1 202#04314000600003c0
(1484869955.93) can1 204#c07f7b02df000000
(1484869955.93) can1 242#0217202de1000001
(1484869955.93) can1 085#84ca8000796084ae
(1484869955.93) can1 217#034c035003300334
(1484869955.94) can1 091#7f487efa7941f000
(1484869955.94) can1 092#6fab6fed73658741
(1484869955.94) can1 078#0168800000000000
(1484869955.94) can1 165#50c0000000000000
(1484869955.94) can1 082#88081400a1804000
(1484869955.94) can1 085#84ca8000777084af
(1484869955.94) can1 167#7280d910001a3700
(1484869955.95) can1 178#0000021e0e6eca6f
(1484869955.95) can1 3cc#1000000000000000
(1484869955.95) can1 186#141d017b00180400
(1484869955.95) can1 187#de14082800500300
(1484869955.95) can1 18a#0020180114000000
(1484869955.95) can1 200#00007f9080c10000
(1484869955.95) can1 202#042d4800600003c3
(1484869955.95) can1 076#3eb9c0800fff0000
(1484869955.95) can1 077#03bd08027ff80e11
(1484869955.95) can1 07d#0000fe10001fb818
(1484869955.95) can1 091#7f467ef67e42f000
(1484869955.95) can1 092#6faa6ffa73657a42
(1484869955.95) can1 204#c0777b02df000000
(1484869955.95) can1 213#ffff000400020640
(1484869955.95) can1 214#000000000000fe10
(1484869955.95) can1 216#5afc203200000000
(1484869955.95) can1 217#0350035003340334
(1484869955.95) can1 230#1006000097000000
(1484869955.95) can1 261#0000000000000000
(1484869955.95) can1 41d#8000600000000000
(1484869955.95) can1 4b0#01008000100000fe
(1484869955.95) can1 3a8#0100274900000000
(1484869955.95) can1 33b#0000000000000000
(1484869955.95) can1 202#04275000600003c8
(1484869955.95) can1 204#c0777b02e9000000
(1484869955.95) can1 085#84c98000778084af
(1484869955.95) can1 42f#7d04002e6677029d
(1484869955.96) can1 217#0354035003380338
(1484869955.96) can1 04a#0200000000000000
(1484869955.96) can1 04b#00c0d8d8d8d8c000
(1484869955.96) can1 04c#105fffc000000000
(1484869955.96) can1 078#0569800000000000
(1484869955.96) can1 091#7f3f7ef48643f000
(1484869955.96) can1 092#6fa8700773636f43
(1484869955.96) can1 3ca#fe7bd85500000000
(1484869955.96) can0 3ca#fe7bd85500000000
(1484869955.96) can1 167#7280d910001a3500
(1484869955.96) can1 200#00007f9080bb0000
(1484869955.96) can1 082#89081400a1804000
(1484869955.96) can1 085#84c88000789084ae
(1484869955.96) can1 202#04225800600003cc
(1484869955.97) can1 204#c06a7b02e9000000
(1484869955.97) can1 187#de14082800500300
(1484869955.97) can1 230#1006000097000000
(1484869955.97) can1 076#3eb8c0800fff0000
(1484869955.97) can1 077#03c307ff7ff80a17
(1484869955.97) can1 07d#0000fd20001fc817
(1484869955.97) can1 091#7f307ef49444f000
(1484869955.97) can1 092#6fa67010735e6c44
(1484869955.97) can1 213#ffff000400020840
(1484869955.97) can1 214#000000000000fd20
(1484869955.97) can1 216#5dff253500000000
(1484869955.97) can1 217#03580354033c0338
(1484869955.97) can1 415#03e4d80f08090809
(1484869955.97) can1 41d#8000600000000000
(1484869955.97) can1 4b0#01008000200000fd
(1484869955.97) can1 3a7#0e4012040a700000
(1484869955.97) can1 3a8#0100274900000000
(1484869955.97) can1 167#7280d410001a3000
(1484869955.97) can1 202#041d6000600003d0
(1484869955.97) can1 204#c05d7a02ed000000
(1484869955.97) can1 242#0217202de1000001
(1484869955.97) can1 085#84c8800076a084af
(1484869955.97) can1 3cc#1000000000000000
(1484869955.97) can1 3eb#8d04140000200000
(1484869955.98) can1 40a#c1023130373639ff
(1484869955.98) can1 05d#8355975f3b000000
(1484869955.98) can1 42c#8c80000007f00000
(1484869955.98) can1 217#035803580340033c
(1484869955.98) can1 091#7f1a7ef4a945f000
(1484869955.98) can1 092#6fa47017735e6645
(1484869955.98) can1 078#0068000000000000
(1484869955.98) can1 422#000000963802fe02
(1484869955.98) can1 423#88e0000000000000
(1484869955.98) can1 430#37000a93c8887700
(1484869955.98) can1 05a#00000045e7d10000
(1484869955.98) can1 082#89081400a1804000
(1484869955.98) can1 085#84c8800075b084af
(1484869955.98) can1 200#00007f9580b50000
(1484869955.98) can1 202#04196800600003d3
(1484869955.99) can1 186#141e017b00180400
(1484869955.99) can1 187#de14082800500300
(1484869955.99) can1 230#1006000097000000
(1484869955.99) can1 42f#7d04002e666f02ad
(1484869955.99) can1 455#a000000000000000
(1484869955.99) can1 076#3eb6c0800fff0000
(1484869955.99) can1 077#03cc07ff7ff8061d
(1484869955.99) can1 07d#0000fc30001fa810
(1484869955.99) can1 091#7f017ef4c146f000
(1484869955.99) can1 092#6fa4701e73655746
(1484869955.99) can1 213#ffff000400020b40
(1484869955.99) can1 214#000000000000fc30
(1484869955.99) can1 216#6103283800000000
(1484869955.99) can1 217#035c035c03440340
(1484869955.99) can1 415#03ecdc0608090809
(1484869955.99) can1 416#5b00f30001000000
(1484869955.99) can1 41d#8000600000000000
(1484869955.99) can1 4b0#01008000300000fc
(1484869955.99) can1 456#8000000000000000
(1484869955.99) can1 3a8#0100274700000000
(1484869955.99) can1 167#7280c210001a2f00
(1484869955.99) can1 3ca#fe7bd85500000000
(1484869955.99) can0 3ca#fe7bd85500000000
(1484869955.99) can1 202#04147000600003d7
(1484869955.99) can1 204#c04e7a02ec000000
(1484869955.99) can1 261#0000000000000000
(1484869955.99) can1 085#84c7800076c084ae
(1484869955.99) can1 3a6#0e4012040a700000
(1484869956.0) can1 217#03600360034c0340
(1484869956.0) can1 091#7ee67ef4dc47f000
(1484869956.0) can1 092#6fa67027736c4447
(1484869956.0) can1 078#0168800000000000
(1484869956.0) can1 167#7280bf10001a2a00
(1484869956.0) can1 200#00007f9d80a90000
(1484869956.0) can1 082#88081400a1804000
(1484869956.0) can1 085#84c7800075d084ae
(1484869956.0) can1 202#040f7800600003db
(1484869956.0) can1 186#141e017a00180400
(1484869956.01) can1 187#de14082800500300
(1484869956.01) can1 204#c0417a02ec000000
(1484869956.01) can1 230#1006000097000000
(1484869956.01) can1 3cc#1000000000000000
(1484869956.01) can1 076#3eb6c0800fff0000
(1484869956.01) can1 077#03d607ff7ff80221
(1484869956.01) can1 07d#0000fb40001fc802
(1484869956.01) can1 091#7ecb7ef4f648f000
(1484869956.01) can1 092#6faa7030736e3448
(1484869956.01) can1 213#ffff000400020d40
(1484869956.01) can1 214#000000000000fb40
(1484869956.01) can1 216#64062a3c00000000
(1484869956.01) can1 217#03640364034c0348
(1484869956.01) can1 415#03f6e0fb08090809
(1484869956.01) can1 41d#8000600000000000
(1484869956.01) can1 4b0#01008000400000fb
(1484869956.01) can1 3a8#0100274600000000
(1484869956.01) can1 33b#0000000000000000
(1484869956.01) can1 202#041a0000600003df
(1484869956.01) can1 204#c0417a02e9000000
(1484869956.01) can1 085#84c6800075e084ae
(1484869956.01) can1 242#0217202de1000001
(1484869956.01) can1 42f#7d04002e666402b8
(1484869956.02) can1 217#036403680350034c
(1484869956.02) can1 091#7eb37ef40d49f000
(1484869956.02) can1 092#6fae7037736c2a49
(1484869956.02) can1 047#2000000000000000
(1484869956.02) can1 3ca#fe7d685200000000
(1484869956.02) can0 3ca#fe7d685200000000
(1484869956.02) can1 05c#001000fb201e0000
(1484869956.02) can1 167#7280ac10001a2800
(1484869956.02) can1 082#88081400a1804000
(1484869956.02) can1 085#84c5800075f084ae
(1484869956.02) can1 187#dd14082800600300
(1484869956.02) can1 200#00007fa380a30000
(1484869956.03) can1 202#04150800600003e3
(1484869956.03) can1 204#c0337a02e9000000
(1484869956.03) can1 230#1006000097000000
(1484869956.03) can1 42c#8c80000007f00000
(1484869956.03) can1 076#3eb5c0800fff0000
(1484869956.03) can1 077#03e107ff7ff80a26
(1484869956.03) can1 07d#0000fa50001fe7f2
(1484869956.03) can1 091#7e9b7ef4244af000
(1484869956.03) can1 092#6fb1703b7369254a
(1484869956.03) can1 213#ffff000400021040
(1484869956.03) can1 214#000000000000fa50
(1484869956.03) can1 216#680a2f3f00000000
(1484869956.03) can1 217#036c036c03540354
(1484869956.03) can1 415#03fde4f308090809
(1484869956.03) can1 41d#8000600000000000
(1484869956.03) can1 4b0#01008000500000fa
(1484869956.03) can1 083#0100000000600000
(1484869956.03) can1 2a1#ffffffff00000000
(1484869956.03) can1 3a8#0100274600000000
(1484869956.03) can1 167#7280a710001a2900
(1484869956.03) can1 202#04101000600003e7
(1484869956.03) can1 204#c0287a02e3000000
(1484869956.03) can1 085#84c48000850084ae
(1484869956.03) can1 3cc#1000000000000000
(1484869956.04) can1 217#037003700354035c
(1484869956.04) can1 091#7e867ef4384bf000
(1484869956.04) can1 092#6fb3703d7367224b
(1484869956.04) can1 078#0068000000000000
(1484869956.04) can1 082#88081400a1804000
(1484869956.04) can1 085#84c48000841084ae
(1484869956.04) can1 186#142b017900180400
(1484869956.04) can1 187#dd14082800600300
(1484869956.05) can1 178#000002000e6eca6f
(1484869956.05) can1 18a#0020180114000000
(1484869956.05) can1 200#00007fa5809e0000
(1484869956.05) can1 202#040b1800600003eb
(1484869956.05) can1 076#3eb3c0800fff0000
(1484869956.05) can1 077#03ee07ff7ff81229
(1484869956.05) can1 07d#0000f960001fd7e3
(1484869956.05) can1 091#7e777ef4464cf000
(1484869956.05) can1 092#6fb2704173671e4c
(1484869956.05) can1 213#ffff000400021440
(1484869956.05) can1 214#000000000000f960
(1484869956.05) can1 216#6b0d324300000000
(1484869956.05) can1 217#03700374035c0364
(1484869956.05) can1 230#1006000097000000
(1484869956.05) can1 261#0000000000000000
(1484869956.05) can1 415#0409e8e508090809
(1484869956.05) can1 41d#8000600000000000
(1484869956.05) can1 4b0#01008000600000f9
(1484869956.05) can1 42f#7d04002e665f02bf
(1484869956.05) can1 3a8#0100274400000000
(1484869956.05) can1 167#7280aa10001a2400
(1484869956.05) can1 3ca#fe7d685200000000
(1484869956.05) can0 3ca#fe7d685200000000
(1484869956.05) can1 202#04062000600003ef
(1484869956.05) can1 204#c01e7b02dd000000
(1484869956.05) can1 242#0217202ae1000001
(1484869956.05) can1 085#84c28000862084ad
(1484869956.05) can1 217#0370037403640368
(1484869956.06) can1 04a#0200000000000000
(1484869956.06) can1 04b#00c0d8d8d8d8c000
(1484869956.06) can1 04c#105fffc000000000
(1484869956.06) can1 078#0569800000000000
(1484869956.06) can1 091#7e6f7ef44d4df000
(1484869956.06) can1 092#6fb0704473681b4d
(1484869956.06) can1 165#10c0000000000000
(1484869956.06) can1 167#72809b10001a2600
(1484869956.06) can1 200#00007fab80960000
(1484869956.06) can1 082#87081400a1804000
(1484869956.06) can1 085#84c18000853084ae
(1484869956.07) can1 187#dd14082800600300
(1484869956.07) can1 202#04002800600003f4
(1484869956.07) can1 204#c0197c02dd000000
(1484869956.07) can1 230#1006000097000000
(1484869956.07) can1 3cc#1000000000000000
(1484869956.07) can1 076#3eb2c0800fff0000
(1484869956.07) can1 077#03fb07ff7ff8122b
(1484869956.07) can1 07d#0000f870001fc7d8
(1484869956.07) can1 091#7e6e7ef44d4ef000
(1484869956.07) can1 092#6fae7042736d194e
(1484869956.07) can1 213#ffff000400021740
(1484869956.07) can1 214#000000000000f870
(1484869956.07) can1 216#6f11364600000000
(1484869956.07) can1 217#0374037803680370
(1484869956.07) can1 415#040bece208090809
(1484869956.07) can1 41d#8000600000000000
(1484869956.07) can1 4b0#01008000700000f8
(1484869956.07) can1 3a8#0100274300000000
(1484869956.07) can1 33b#0000000000000000
(1484869956.07) can1 202#04fc3000600003f7
(1484869956.07) can1 204#c0197c02d8000000
(1484869956.07) can1 085#84c08000864084ad
(1484869956.07) can1 3b3#4488c20c10000002
(1484869956.07) can1 3c3#5cc0000000000000
(1484869956.08) can1 42c#8c80000007f00000
(1484869956.08) can1 42f#7d04002e665a02c3
(1484869956.08) can1 05d#8355bf5f31000000
(1484869956.08) can1 217#03740378036c0374
(1484869956.08) can1 091#7e6f7ef44b4ff000
(1484869956.08) can1 59e#9e00ffffffffffff
(1484869956.08) can1 092#6fad703c73721a4f
(1484869956.08) can1 078#0168800000000000
(1484869956.08) can1 422#000000963802fe02
(1484869956.08) can1 423#88e0000000000000
(1484869956.08) can1 430#37000a93c8887700
(1484869956.08) can1 43a#0000020000000000
(1484869956.08) can1 05a#00000045ed710000
(1484869956.08) can1 168#0000000000000000
(1484869956.08) can1 3ca#fe7d685200000000
(1484869956.08) can0 3ca#fe7d685200000000
(1484869956.08) can1 167#7280a010001a1f00
(1484869956.08) can1 200#00007fad80910000
(1484869956.08) can1 082#87081400a1804000
(1484869956.08) can1 085#84be8000875084ad
(1484869956.08) can1 186#143a017800180400
(1484869956.09) can1 187#dd14082800600300
(1484869956.09) can1 202#04f73800600003fb
(1484869956.09) can1 204#c0177c02d8000000
(1484869956.09) can1 230#1006000097000000
(1484869956.09) can1 3e2#0000000080000000
(1484869956.09) can1 455#a000000000000000
(1484869956.09) can1 076#3eb0c0800fff0000
(1484869956.09) can1 077#040907ff7ff80e2b
(1484869956.09) can1 07d#0000f780001fe7d5
(1484869956.09) can1 091#7e727ef44750f000
(1484869956.09) can1 092#6fab703673741f50
(1484869956.09) can1 213#ffff000400021a40
(1484869956.09) can1 214#000000000000f780
(1484869956.09) can1 216#7214394a00000000
(1484869956.09) can1 217#0374037c03700378
(1484869956.09) can1 415#040ef0de08090809
(1484869956.09) can1 416#5c00f20001000000
(1484869956.09) can1 41d#8000600000000000
(1484869956.09) can1 3a8#0100274100000000
(1484869956.09) can1 167#72808810001a2200
(1484869956.09) can1 202#04f34000600003fe
(1484869956.09) can1 204#c0167c02d3000000
(1484869956.09) can1 242#0217202be1000001
(1484869956.09) can1 085#84bd8000876084ad
(1484869956.09) can1 261#0000000000000000
(1484869956.09) can1 3cc#1000000000000000
(1484869956.1) can1 217#0378038003740380
(1484869956.1) can1 091#7e807ef43851f000
(1484869956.1) can1 092#6fa9703173772251
(1484869956.1) can1 078#0068000000000000
(1484869956.1) can1 186#144c017700180400
(1484869956.1) can1 082#86081400a1804000
(1484869956.1) can1 085#84bd8000857084ae
(1484869956.1) can1 187#dd14082800600300
(1484869956.11) can1 200#00007fae808d0000
(1484869956.11) can1 202#04ef480060000400
(1484869956.11) can1 230#1006000097000000
(1484869956.11) can1 42f#7d04002e665302c4
(1484869956.11) can1 076#3eacc0800fff0000
(1484869956.11) can1 077#041707ff7ff80a28
(1484869956.11) can1 07d#0000f690002007d6
(1484869956.11) can1 091#7e947ef72052f000
(1484869956.11) can1 092#6fa5702b737a2852
(1484869956.11) can1 213#ffff000400021c40
(1484869956.11) can1 214#000000000000f690
(1484869956.11) can1 216#77183d4d00000000
(1484869956.11) can1 217#037c038003780388
(1484869956.11) can1 415#0414f4d708080808
(1484869956.11) can1 41d#8000600000000000
(1484869956.11) can1 4b0#01008000900000f6
(1484869956.11) can1 3a8#0100274000000000
(1484869956.11) can1 167#72809210001a1f00
(1484869956.11) can1 3ca#fe7d685200000000
(1484869956.11) can0 3ca#fe7d685200000000
(1484869956.11) can1 202#04eb500060000403
(1484869956.11) can1 204#c0167c02cd000000
(1484869956.11) can1 085#84bb8000878084ad
(1484869956.12) can1 217#03800384037c038c
(1484869956.12) can1 091#7eaf7efb0053f000
(1484869956.12) can1 092#6fa07025737b3153
(1484869956.12) can1 078#0168800000000000
(1484869956.12) can1 05c#00b000f1201e0000
(1484869956.12) can1 186#145f017600180400
(1484869956.12) can1 082#84081400a1804000
(1484869956.12) can1 085#84bb8000859084ae
(1484869956.12) can1 167#72808710001a1e00
(1484869956.12) can1 187#dc14082800700300
(1484869956.13) can1 200#00007fbb80820000
(1484869956.13) can1 202#04e7580060000406
(1484869956.13) can1 230#1006000097000000
(1484869956.13) can1 3cc#1000000000000000
(1484869956.13) can1 42c#8c80000007f00000
(1484869956.13) can1 076#3eabc0800fff0000
(1484869956.13) can1 077#042407ff7ff80225
(1484869956.13) can1 07d#0000f5a0002027e1
(1484869956.13) can1 091#7ed27f01d554f000
(1484869956.13) can1 092#6f9c701e737b3b54
(1484869956.13) can1 213#ffff000400021e40
(1484869956.13) can1 214#000000000000f5a0
(1484869956.13) can1 216#791b405100000000
(1484869956.13) can1 217#038403880384038c
(1484869956.13) can1 415#041df8cd08080808
(1484869956.13) can1 41d#8000600000000000
(1484869956.13) can1 4b0#01008000a00000f5
(1484869956.13) can1 083#0100000000600000
(1484869956.13) can1 2a1#ffffffff00000000
(1484869956.13) can1 33b#0000000000000000
(1484869956.13) can1 3a8#0100273b00000000
(1484869956.13) can1 202#04e260006000040a
(1484869956.13) can1 204#c0167c02c8000000
(1484869956.13) can1 085#84ba800086a084ad
(1484869956.13) can1 242#0217202de1000001
(1484869956.13) can1 42f#7d04002e664e02c4
(1484869956.13) can1 217#0390038803880390
(1484869956.14) can1 091#7efa7f05a855f000
(1484869956.14) can1 092#6f977017737b4655
(1484869956.14) can1 186#1481017500180400
(1484869956.14) can1 187#dc14082800700300
(1484869956.14) can1 082#85081400a1804000
(1484869956.14) can1 085#84ba800085b084ad
(1484869956.14) can1 167#72808310001a1900
(1484869956.15) can1 178#000001f60e6eca6f
(1484869956.15) can1 18a#0020180114000000
(1484869956.15) can1 3ca#fe7d685300000000
(1484869956.15) can0 3ca#fe7d685300000000
(1484869956.15) can1 200#00007fc1807c0000
(1484869956.15) can1 202#04de68006000040d
(1484869956.15) can1 204#c0167d02c8000000
(1484869956.15) can1 230#1006000097000000
(1484869956.15) can1 261#0000000000000000
(1484869956.15) can1 076#3ea9c0800fff0000
(1484869956.15) can1 077#042f08037ff7fe21
(1484869956.15) can1 07d#0000f4b0002027f4
(1484869956.15) can1 091#7f1d7f088056f000
(1484869956.15) can1 092#6f907011737c5156
(1484869956.15) can1 213#ffff000400021f40
(1484869956.15) can1 214#000000000000f4b0
(1484869956.15) can1 216#7e20445400000000
(1484869956.15) can1 217#0398038c038c0390
(1484869956.15) can1 415#0428fcc108080808
(1484869956.15) can1 4b0#01008000b00000f4
(1484869956.15) can1 3a8#0100273a00000000
(1484869956.15) can1 167#72806f10001a1b00
(1484869956.15) can1 202#04d9700060000411
(1484869956.15) can1 085#84ba800084c084ad
(1484869956.15) can1 3cc#1000000000000000
(1484869956.16) can1 217#039c038c03900394
(1484869956.16) can1 04a#0200000000000000
(1484869956.16) can1 04b#00c0d8d8d8d8c000
(1484869956.16) can1 04c#105fffc000000000
(1484869956.16) can1 078#0469000000000000
(1484869956.16) can1 091#7f377f0c6157f000
(1484869956.16) can1 092#6f88700d737a5e57
(1484869956.16) can1 082#89081400a1804000
(1484869956.16) can1 085#84bb800081d084ae
(1484869956.16) can1 187#dc14082800700300
(1484869956.16) can1 200#00007fc580770000
(1484869956.16) can1 202#04d4780060000415
(1484869956.17) can1 204#c0167d02c4000000
(1484869956.17) can1 230#1006000097000000
(1484869956.17) can1 42f#7d04002e664602c4
(1484869956.17) can1 076#3ea8c0800fff0000
(1484869956.17) can1 077#043808057ff7f21e
(1484869956.17) can1 07d#0000f3c00020280a
(1484869956.17) can1 091#7f3f7f0e5658f000
(1484869956.17) can1 092#6f7e700e73736d58
(1484869956.17) can1 213#ffff000400021f40
(1484869956.17) can1 214#000000000000f3c0
(1484869956.17) can1 216#8122485800000000
(1484869956.17) can1 217#039c03900394039c
(1484869956.17) can1 415#0435c0c308080808
(1484869956.17) can1 41d#8000600000000000
(1484869956.17) can1 4b0#01008000c00000f3
(1484869956.17) can1 3a7#0e4012040a700000
(1484869956.17) can1 3a8#0100273800000000
(1484869956.17) can1 167#72807510001a1b00
(1484869956.17) can1 3ca#fe7d685300000000
(1484869956.17) can0 3ca#fe7d685300000000
(1484869956.17) can1 202#04de00006000041a
(1484869956.17) can1 085#84bb800081e084ad
(1484869956.17) can1 242#0217202de1000001
(1484869956.17) can1 40a#c104014107f670c1
(1484869956.18) can1 42c#8c80000007f00000
(1484869956.18) can1 05d#8355a75f37000000
(1484869956.18) can1 217#03940390039403a0
(1484869956.18) can1 41e#0000000000000000
(1484869956.18) can1 169#008cc00000000000
(1484869956.18) can1 091#7f387f0e5c59f000
(1484869956.18) can1 092#6f75700d73707959
(1484869956.18) can1 078#0168800000000000
(1484869956.18) can1 422#000000963802fe02
(1484869956.18) can1 423#88e0000000000000
(1484869956.18) can1 430#37000a93c888f700
(1484869956.18) can1 431#057b009509800002
(1484869956.18) can1 05a#00000045f3110000
(1484869956.18) can1 186#14a1017400180400
(1484869956.18) can1 167#72807710001a1a00
(1484869956.18) can1 082#84081400a1804000
(1484869956.18) can1 085#84bb800080f084ad
(1484869956.18) can1 187#dc14082800700300
(1484869956.18) can1 200#00007fcd807a0000
(1484869956.19) can1 202#04d808006000041f
(1484869956.19) can1 204#c0167d02c3000000
(1484869956.19) can1 230#1006000097000000
(1484869956.19) can1 3cc#1000000000000000
(1484869956.19) can1 455#a000000000000000
(1484869956.19) can1 076#3ea9c0800fff0000
(1484869956.19) can1 077#044108077ff7de1c
(1484869956.19) can1 07d#0000f2d000200815
(1484869956.19) can1 091#7f267f0e6d5af000
(1484869956.19) can1 092#6f7170027375825a
(1484869956.19) can1 213#ffff000400021f40
(1484869956.19) can1 214#000000000000f2d0
(1484869956.19) can1 216#85274b5b00000000
(1484869956.19) can1 217#03900398039803a4
(1484869956.19) can1 415#042ec4c908080808
(1484869956.19) can1 416#5d00f10001000000
(1484869956.19) can1 41d#8000600000000000
(1484869956.19) can1 4b0#01008000d00000f2
(1484869956.19) can1 33b#0000000000000000
(1484869956.19) can1 3a8#0100273700000000
(1484869956.19) can1 202#04d5100060000421
(1484869956.19) can1 085#84bb80008f0084ad
(1484869956.19) can1 261#0000000000000000
(1484869956.19) can1 42f#7d04002e664502c4
(1484869956.19) can1 3a6#0e4012040a700000
(1484869956.19) can1 217#0390039c03a003a4
(1484869956.2) can1 596#9600ffffffffffff
(1484869956.2) can1 091#7f0e7f0f835bf000
(1484869956.2) can1 092#6f746ff4737a885b
(1484869956.2) can1 186#14bf017300180400
(1484869956.2) can1 187#dc14082800700300
(1484869956.2) can1 167#72807110001a1c00
(1484869956.2) can1 082#83081400a1804000
(1484869956.2) can1 085#84bb80008d1084ae
(1484869956.2) can1 200#00007fd280840000
(1484869956.2) can1 202#04d2180060000423
(1484869956.21) can1 204#c0167d02be000000
(1484869956.21) can1 3ca#fe7d685300000000
(1484869956.21) can0 3ca#fe7d685300000000
(1484869956.21) can1 230#1006000097000000
(1484869956.21) can1 076#3ea9c0800fff0000
(1484869956.21) can1 077#044908077ff7ce19
(1484869956.21) can1 07d#0000f1e00020080d
(1484869956.21) can1 091#7ef37f129b5cf000
(1484869956.21) can1 092#6f806fec7379845c
(1484869956.21) can1 213#ffff000400021f40
(1484869956.21) can1 214#000000000000f1e0
(1484869956.21) can1 216#892b506000000000
(1484869956.21) can1 217#039803a403a403a0
(1484869956.21) can1 350#0000000000000000
(1484869956.21) can1 3e0#0000000080000000
(1484869956.21) can1 415#0435c8c108080808
(1484869956.21) can1 41d#8000600000000000
(1484869956.21) can1 4b0#01008000e00000f1
(1484869956.21) can1 3a8#0100273800000000
(1484869956.21) can1 167#72807910001a1b00
(1484869956.21) can1 202#04ce200060000426
(1484869956.21) can1 204#c0007902be000000
(1484869956.21) can1 242#0217202fe1000001
(1484869956.21) can1 085#84bb80008c2084ae
(1484869956.21) can1 3cc#1000000000000000
(1484869956.22) can1 217#03a003a803a403a0
(1484869956.22) can1 091#7ed97f15b15df000
(1484869956.22) can1 092#6f8c6feb737e735d
(1484869956.22) can1 078#0068000000000000
(1484869956.22) can1 186#14d9017300170400
(1484869956.22) can1 187#db14082800800300
(1484869956.22) can1 05c#005000f7201e0000
(1484869956.22) can1 082#83081400a1804000
(1484869956.23) can1 085#84bb80008c3084ad
(1484869956.23) can1 200#00007fd5807f0000
(1484869956.23) can1 202#04cb280060000428
(1484869956.23) can1 204#c0007902c1000000
(1484869956.23) can1 230#1006000097000000
(1484869956.23) can1 076#3ea9c0800fff0000
(1484869956.23) can1 077#044f08087ff7e213
(1484869956.23) can1 07d#0000f0f0002017fe
(1484869956.23) can1 091#7eca7f16be5ef000
(1484869956.23) can1 092#6f966fef738d555e
(1484869956.23) can1 213#ffff000400021e40
(1484869956.23) can1 214#000000000000f0f0
(1484869956.23) can1 216#8c2e526400000000
(1484869956.23) can1 217#03a803ac03a803a4
(1484869956.23) can1 415#0446ccaf08070807
(1484869956.23) can1 41d#8000600000000000
(1484869956.23) can1 42c#8c80000007f00000
(1484869956.23) can1 42f#7d04002e664602c4
(1484869956.23) can1 4b0#01008000f00000f0
(1484869956.23) can1 3a8#0100273800000000
(1484869956.23) can1 083#0100000000600000
(1484869956.23) can1 2a1#ffffffff00000000
(1484869956.23) can1 167#72807410001a1d00
(1484869956.23) can1 3ca#fe7d685300000000
(1484869956.23) can0 3ca#fe7d685300000000
(1484869956.23) can1 202#04c530006000042d
(1484869956.23) can1 204#c0007d02c1000000
(1484869956.23) can1 085#84bc8000894084ae
(1484869956.24) can1 217#03ac03b003a803a4
(1484869956.24) can1 091#7ec77f10c65ff000
(1484869956.24) can1 092#6fa06ff17395405f
(1484869956.24) can1 078#0368800000000000
(1484869956.24) can1 186#14f3017200170400
(1484869956.24) can1 187#db14082800800300
(1484869956.24) can1 18a#0020180114000000
(1484869956.24) can1 082#85081400a1804000
(1484869956.24) can1 085#84bc8000885084ae
(1484869956.24) can1 167#72807910001a1e00
(1484869956.24) can1 178#000001fe0e6eca6f
(1484869956.24) can1 3cc#1000000000000000
(1484869956.25) can1 200#00007fdd80880000
(1484869956.25) can1 202#04c0380060000431
(1484869956.25) can1 204#c0007d02c2000000
(1484869956.25) can1 230#1006000097000000
(1484869956.25) can1 261#0000000000000000
(1484869956.25) can1 076#3ea9c0800fff0000
(1484869956.25) can1 077#045408097ff7fa14
(1484869956.25) can1 07d#0000ff00002077f2
(1484869956.25) can1 091#7eca7f09c960f000
(1484869956.25) can1 092#6fac6fef73903a60
(1484869956.25) can1 213#ffff000400021c40
(1484869956.25) can1 214#000000000000ff00
(1484869956.25) can1 216#9032576700000000
(1484869956.25) can1 217#03b403b403ac03a4
(1484869956.25) can1 415#0453d0a108070807
(1484869956.25) can1 41d#8000600000000000
(1484869956.25) can1 4b0#01008000000000ff
(1484869956.25) can1 33b#0000000000000000
(1484869956.25) can1 3a8#0100273800000000
(1484869956.25) can1 202#04b9400060000437
(1484869956.25) can1 085#84bc8000886084ad
(1484869956.25) can1 242#0217202de1000001
(1484869956.25) can1 42f#7d04002e664a02c4
(1484869956.26) can1 217#03b403b403ac03a8
(1484869956.26) can1 04a#0200000000000000
(1484869956.26) can1 04b#00c0d8d8d8d8c000
(1484869956.26) can1 04c#105fffc000000000
(1484869956.26) can1 078#0569800000000000
(1484869956.26) can1 091#7ecc7f01ce61f000
(1484869956.26) can1 092#6fb86fec73883861
(1484869956.26) can1 187#db14082800800300
(1484869956.26) can1 3ca#fe7ee85200000000
(1484869956.26) can0 3ca#fe7ee85200000000
(1484869956.26) can1 167#72807e10001a1900
(1484869956.26) can1 082#87081400a1804000
(1484869956.26) can1 085#84bd8000857084ae
(1484869956.26) can1 200#0000806080700000
(1484869956.26) can1 202#04b448006000043b
(1484869956.27) can1 204#c0007d02c7000000
(1484869956.27) can1 230#1006000097000000
(1484869956.27) can1 076#3eaac0800fff0000
(1484869956.27) can1 077#045908057ff80e14
(1484869956.27) can1 07d#0000fe10002087f2
(1484869956.27) can1 091#7ed17ef7d362f000
(1484869956.27) can1 092#6fc26feb737f3762
(1484869956.27) can1 213#ffff000400021c40
(1484869956.27) can1 214#000000000000fe10
(1484869956.27) can1 216#95365b6b00000000
(1484869956.27) can1 217#03b403b403b403b0
(1484869956.27) can1 415#0458d49b08070807
(1484869956.27) can1 41d#8000600000000000
(1484869956.27) can1 4b0#01008000100000fe
(1484869956.27) can1 3a8#0100273800000000
(1484869956.27) can1 167#72806d10001a1700
(1484869956.27) can1 202#04ae500060000440
(1484869956.27) can1 42c#8c80000007f00000
(1484869956.27) can1 085#84bd8000848084ae
(1484869956.27) can1 3cc#1000000000000000
(1484869956.27) can1 05d#83558f5f3d000000
(1484869956.28) can1 217#03b003b403b803b4
(1484869956.28) can1 091#7ed57eefd663f000
(1484869956.28) can1 092#6fc66fec73773963
(1484869956.28) can1 078#0068000000000000
(1484869956.28) can1 422#000000963802fe02
(1484869956.28) can1 423#88e0000000000000
(1484869956.28) can1 430#3f000a93e8887700
(1484869956.28) can1 05a#00000045e9b10000
(1484869956.28) can1 186#1504017100170400
(1484869956.28) can1 187#db14082800800300
(1484869956.28) can1 082#87081400a1804000
(1484869956.28) can1 085#84bd8000839084ae
(1484869956.28) can1 200#0000804b805f0000
(1484869956.28) can1 202#04a9580060000444
(1484869956.28) can1 204#c0007d02cd000000
(1484869956.29) can1 230#1006000097000000
(1484869956.29) can1 42f#7d04002e663f02c4
(1484869956.29) can1 455#a000000000000000
(1484869956.29) can1 076#3eabc0800fff0000
(1484869956.29) can1 077#045e07ff7ff82613
(1484869956.29) can1 07d#0000fd20002037f4
(1484869956.29) can1 091#7ed97eedd364f000
(1484869956.29) can1 092#6fc56fea73714164
(1484869956.29) can1 213#ffff000400021b40
(1484869956.29) can1 214#000000000000fd20
(1484869956.29) can1 216#97395e6f00000000
(1484869956.29) can1 217#03b003b403bc03b4
(1484869956.29) can1 415#0451d8a108070807
(1484869956.29) can1 416#5e00f00001000000
(1484869956.29) can1 41d#8000600000000000
(1484869956.29) can1 454#3646200372204242
(1484869956.29) can1 4b0#01008000200000fd
(1484869956.29) can1 3a8#0100273a00000000
(1484869956.29) can1 167#72806510001a1000
(1484869956.29) can1 3ca#fe7ee85200000000
(1484869956.29) can0 3ca#fe7ee85200000000
(1484869956.29) can1 202#04a6600060000446
(1484869956.29) can1 085#84bd800082a084ae
(1484869956.29) can1 242#0217202ee1000001
(1484869956.29) can1 261#0000000000000000
(1484869956.3) can1 217#03b403b803c003b8
(1484869956.3) can1 091#7ed97eecd365f000
(1484869956.3) can1 092#6fbf6fe6736f4c65
(1484869956.3) can1 078#0168800000000000
(1484869956.3) can1 186#150f017000170400
(1484869956.3) can1 187#db14082800800300
(1484869956.3) can1 167#72804c10001a1000
(1484869956.3) can1 200#0000801080460000
(1484869956.3) can1 082#86081400a1804000
(1484869956.3) can1 085#84bd800081b084ae
(1484869956.3) can1 202#04a3680060000448
(1484869956.31) can1 204#c0007d02ce000000
(1484869956.31) can1 230#1006000097000000
(1484869956.31) can1 3cc#1000000000000000
(1484869956.31) can1 076#3eabc0800fff0000
(1484869956.31) can1 077#046407fe7ff82a12
(1484869956.31) can1 07d#0000fc30001ff7f6
(1484869956.31) can1 091#7ed37eeada66f000
(1484869956.31) can1 092#6fb56fe4736f5766
(1484869956.31) can1 213#ffff000400021a40
(1484869956.31) can1 214#000000000000fc30
(1484869956.31) can1 216#9c3e627200000000
(1484869956.31) can1 217#03b803b803c003b8
(1484869956.31) can1 415#0457dc9a08070807
(1484869956.31) can1 41d#8000600000000000
(1484869956.31) can1 4b0#01008000300000fc
(1484869956.31) can1 3a8#0100273a00000000
(1484869956.31) can1 33b#0000000000000000
(1484869956.31) can1 202#04a070006000044a
(1484869956.31) can1 085#84bd800080c084ae
(1484869956.31) can1 42f#7d04002e663202c4
(1484869956.32) can1 217#03bc03bc03c403bc
(1484869956.32) can1 091#7ecb7ee7e467f000
(1484869956.32) can1 092#6fab6fe5736d6167
(1484869956.32) can1 186#1516017000170400
(1484869956.32) can1 187#da14082800900300
(1484869956.32) can1 3ca#fe7ee85200000000
(1484869956.32) can0 3ca#fe7ee85200000000
(1484869956.32) can1 05c#00f000ed201e0000
(1484869956.32) can1 082#86081400a1804000
(1484869956.32) can1 085#84bd80007fd084ae
(1484869956.32) can1 167#72804c10001a0900
(1484869956.33) can1 200#00008008802c0000
(1484869956.33) can1 202#049d78006000044c
(1484869956.33) can1 204#c0007d02cf000000
(1484869956.33) can1 230#1006000097000000
(1484869956.33) can1 42c#8c80000007f00000
(1484869956.33) can1 076#3eabc0800fff0000
(1484869956.33) can1 077#046a07fd7ff81611
(1484869956.33) can1 07d#0000fb40001ff7f5
(1484869956.33) can1 091#7ec27ee6ed68f000
(1484869956.33) can1 092#6fa46fe773656d68
(1484869956.33) can1 213#ffff000400021940
(1484869956.33) can1 214#000000000000fb40
(1484869956.33) can1 216#a042677700000000
(1484869956.33) can1 217#03c003c003c403c0
(1484869956.33) can1 415#0460e09008070807
(1484869956.33) can1 41d#8000600000000000
(1484869956.33) can1 4b0#01008000400000fb
(1484869956.33) can1 083#0100000000600000
(1484869956.33) can1 2a1#ffffffff00000000
(1484869956.33) can1 3a8#0100273a00000000
(1484869956.33) can1 167#72803210001a0300
(1484869956.33) can1 202#04a900006000044f
(1484869956.33) can1 242#0217202ee1000001
(1484869956.33) can1 085#84bd80007ee084ae
(1484869956.33) can1 3cc#1000000000000000
(1484869956.34) can1 217#03c403c003c403c4
(1484869956.34) can1 091#7eba7ee5f569f000
(1484869956.34) can1 078#0068000000000000
(1484869956.34) can1 092#6fa06fe9735a7969
(1484869956.34) can1 186#1511016f00170400
(1484869956.34) can1 187#da14082800900300
(1484869956.34) can1 18a#0020180114000000
(1484869956.34) can1 082#85081400a1804000
(1484869956.34) can1 085#84bd80007df084ae
(1484869956.34) can1 178#000002020e6eca6f
(1484869956.34) can1 200#00007ffb80150000
(1484869956.34) can1 202#04a5080060000452
(1484869956.35) can1 204#c0007d02ce000000
(1484869956.35) can1 230#1006000097000000
(1484869956.35) can1 076#3eabc0800fff0000
(1484869956.35) can1 077#046e07fb7ff80212
(1484869956.35) can1 07d#0000fa50001fc7ef
(1484869956.35) can1 091#7eb77ee6f66af000
(1484869956.35) can1 092#6f9d6feb7352816a
(1484869956.35) can1 213#ffff000400021940
(1484869956.35) can1 214#000000000000fa50
(1484869956.35) can1 216#a3456b7b00000000
(1484869956.35) can1 217#03c403c003c403cc
(1484869956.35) can1 261#0000000000000000
(1484869956.35) can1 415#0468e48708080808
(1484869956.35) can1 41d#8000600000000000
(1484869956.35) can1 42f#7d04002e661d02c5
(1484869956.35) can1 4b0#01008000500000fa
(1484869956.35) can1 3a8#0100273a00000000
(1484869956.35) can1 167#72801d100019f800
(1484869956.35) can1 3ca#fe7ee85200000000
(1484869956.35) can0 3ca#fe7ee85200000000
(1484869956.35) can1 202#04a1100060000455
(1484869956.35) can1 085#84bd80008c0084ae
(1484869956.35) can1 3a7#0e401a040a700000
(1484869956.36) can1 217#03c403c403c803d0
(1484869956.36) can1 04a#0200000000000000
(1484869956.36) can1 04b#00c0d8d8d8d8c000
(1484869956.36) can1 04c#105fffc000000000
(1484869956.36) can1 078#0569800000000000
(1484869956.36) can1 091#7ebe7ee9eb6bf000
(1484869956.36) can1 092#6f9b6feb734b896b
(1484869956.36) can1 3a6#0e401a040a700000
(1484869956.36) can1 187#da14082800900300
(1484869956.36) can1 167#727ff8100019f900
(1484869956.36) can1 200#00007fef7ffa0000
(1484869956.36) can1 082#85081400a1804000
(1484869956.36) can1 085#84bd80008b1084ae
(1484869956.36) can1 202#049d180060000458
(1484869956.37) can1 230#1006000097000000
(1484869956.37) can1 3cc#1000000000000000
(1484869956.37) can1 076#3eabc0800fff0000
(1484869956.37) can1 077#047407fb7ff7fe13
(1484869956.37) can1 07d#0000f960001f67ec
(1484869956.37) can1 091#7ecb7ef1d56cf000
(1484869956.37) can1 092#6f9b6fea73468e6c
(1484869956.37) can1 213#ffff000400021940
(1484869956.37) can1 214#000000000000f960
(1484869956.37) can1 216#a7496e7e00000000
(1484869956.37) can1 415#0468e88608080808
(1484869956.37) can1 41d#8000600000000000
(1484869956.37) can1 4b0#01008000600000f9
(1484869956.37) can1 33b#0000000000000000
(1484869956.37) can1 3a8#0100273a00000000
(1484869956.37) can1 202#049920006000045b
(1484869956.37) can1 204#c0007d02c5000000
(1484869956.37) can1 085#84bc80008c2084ad
(1484869956.37) can1 242#0217202de1000001
(1484869956.37) can1 40a#c110409060250000
(1484869956.37) can1 42c#8c80000007f00000
(1484869956.38) can1 42f#7d04002e660902c5
(1484869956.38) can1 05d#8356b75f32000000
(1484869956.38) can1 217#03c803cc03cc03d0
(1484869956.38) can1 091#7ed97ef8bf6df000
(1484869956.38) can1 092#6f9a6fe873478f6d
(1484869956.38) can1 078#0168800000000000
(1484869956.38) can1 422#000000963802fe02
(1484869956.38) can1 423#88e0000000000000
(1484869956.38) can1 430#37000a93c8887700
(1484869956.38) can1 3a7#0e401a040a700000
(1484869956.38) can1 05a#00000045ef510000
(1484869956.38) can1 186#150e016e00170400
(1484869956.38) can1 187#da14082800900300
(1484869956.38) can1 3d8#0000000080456030
(1484869956.38) can0 3d8#0000000080456030
(1484869956.38) can1 167#727ffb100019f400
(1484869956.38) can1 200#00007fed7fed0000
(1484869956.38) can1 082#84081400a1804000
(1484869956.38) can1 085#84bc80008b3084ad
(1484869956.38) can1 202#049628006000045d
(1484869956.38) can1 230#1006000097000000
(1484869956.39) can1 3ca#fe80085900000000
(1484869956.39) can0 3ca#fe80085900000000
(1484869956.39) can1 3cd#0000000000000000
(1484869956.39) can0 3cd#0000000000000000
(1484869956.39) can1 455#a000000000000000
(1484869956.39) can1 076#3eabc0800fff0000
(1484869956.39) can1 077#047a07ff7ff7fe12
(1484869956.39) can1 07d#0000f870001f37f2
(1484869956.39) can1 091#7ee97effa76ef000
(1484869956.39) can1 092#6f986fe5734c8e6e
(1484869956.39) can1 213#ffff000400021840
(1484869956.39) can1 214#000000000000f870
(1484869956.39) can1 216#ac4d728200000000
(1484869956.39) can1 217#03c803cc03d003cc
(1484869956.39) can1 415#046eec7f08080808
(1484869956.39) can1 416#5f00ef0001000000
(1484869956.39) can1 41d#8000600000000000
(1484869956.39) can1 4b0#01008000700000f8
(1484869956.39) can1 3a8#0100273a00000000
(1484869956.39) can1 167#727fe9100019f200
(1484869956.39) can1 202#0492300060000460
(1484869956.39) can1 3a6#0e401a040a700000
(1484869956.39) can1 204#c0007d02bc000000
(1484869956.39) can1 085#84bc80008a4084ad
(1484869956.39) can1 261#0000000000000000
(1484869956.39) can1 3cc#1000000000000000
(1484869956.39) can1 217#03cc03d003d403cc
(1484869956.4) can1 091#7ef77f05916ff000
(1484869956.4) can1 092#6f956fe37355896f
(1484869956.4) can1 078#0068000000000000
(1484869956.4) can1 186#1509016d00170400
(1484869956.4) can1 187#da14082800900300
(1484869956.4) can1 082#84081400a1804000
(1484869956.4) can1 085#84bc8000895084ad
(1484869956.4) can1 200#00007fee7fee0000
(1484869956.4) can1 202#048f380060000462
(1484869956.4) can1 230#1006000097000000
(1484869956.41) can1 42f#7d04002e65fe02c5
(1484869956.41) can1 3a7#0e423a040a700000
(1484869956.41) can1 076#3eaac0800fff0000
(1484869956.41) can1 077#047f08027ff7fe11
(1484869956.41) can1 07d#0000f780001f57fb
(1484869956.41) can1 091#7f007f098270f000
(1484869956.41) can1 092#6f906fdf735c8a70
(1484869956.41) can1 213#ffff000400021840
(1484869956.41) can1 214#000000000000f780
(1484869956.41) can1 216#b052768600000000
(1484869956.41) can1 217#03d003d003d803cc
(1484869956.41) can1 415#0474f07808080808
(1484869956.41) can1 41d#8000600000000000
(1484869956.41) can1 4b0#01008000800000f7
(1484869956.41) can1 3a8#0100273a00000000
(1484869956.41) can1 167#727fe4100019f400
(1484869956.41) can1 3ca#fe80085900000000
(1484869956.41) can0 3ca#fe80085900000000
(1484869956.41) can1 202#048b400060000465
(1484869956.41) can1 204#c0007d02ad000000
(1484869956.41) can1 085#84bc8000886084ad
(1484869956.41) can1 242#02172029e1000001
(1484869956.41) can1 217#03d003d403d803d0
(1484869956.42) can1 091#7f047f0b7b71f000
(1484869956.42) can1 078#0168800000000000
(1484869956.42) can1 092#6f8b6fd9735e9271
(1484869956.42) can1 186#1503016c00180400
(1484869956.42) can1 187#d914082800a00300
(1484869956.42) can1 05c#009000f3201e0000
(1484869956.42) can1 167#727fea100019f100
(1484869956.42) can1 082#82081400a1804000
(1484869956.42) can1 085#84bc8000877084ad
(1484869956.42) can1 200#00007fef7fef0000
(1484869956.43) can1 202#0488480060000467
(1484869956.43) can1 3cc#1000000000000000
(1484869956.43) can1 230#1006000097000000
(1484869956.43) can1 42c#8c80000007f00000
(1484869956.43) can1 076#3eaac0800fff0000
(1484869956.43) can1 077#048408057ff7f20f
(1484869956.43) can1 07d#0000f690001f9801
(1484869956.43) can1 091#7f087f0d7472f000
(1484869956.43) can1 092#6f866fd673589f72
(1484869956.43) can1 213#ffff000400021740
(1484869956.43) can1 214#000000000000f690
(1484869956.43) can1 216#b354798b00000000
(1484869956.43) can1 217#03d003d403dc03d4
(1484869956.43) can1 415#0479f47208080808
(1484869956.43) can1 41d#8000600000000000
(1484869956.43) can1 4b0#01008000900000f6
(1484869956.43) can1 3a8#0100273a00000000
(1484869956.43) can1 083#0100000000600000
(1484869956.43) can1 2a1#ffffffff00000000
(1484869956.43) can1 33b#0000000000000000
(1484869956.43) can1 202#048450006000046a
(1484869956.43) can1 204#c0007d029d000000
(1484869956.43) can1 085#84bc8000868084ad
(1484869956.43) can1 42f#7d04002e65fc02c4
(1484869956.43) can1 217#03d003d003e003dc
(1484869956.44) can1 091#7f0b7f0f6e73f000
(1484869956.44) can1 092#6f886fd8734ea473
(1484869956.44) can1 186#14fc016c00180400
(1484869956.44) can1 187#d914082800a00300
(1484869956.44) can1 18a#0020180114000000
(1484869956.44) can1 3ca#fe80085900000000
(1484869956.44) can0 3ca#fe80085900000000
(1484869956.44) can1 082#80081400a0804000
(1484869956.44) can1 085#84bc8000849084ae
(1484869956.44) can1 167#727fe0100019f300
(1484869956.44) can1 178#000001ec0e6eca6f
(1484869956.44) can1 200#00007ff57ff50000
(1484869956.45) can1 202#048158006000046c
(1484869956.45) can1 230#1006000097000000
(1484869956.45) can1 261#0000000000000000
(1484869956.45) can1 076#3eaac0800fff0000
(1484869956.45) can1 077#048a08067ff7e60d
(1484869956.45) can1 07d#0000f5a0001f8803
(1484869956.45) can1 091#7f0e7f0f6a74f000
(1484869956.45) can1 092#6f906fdc7343a274
(1484869956.45) can1 213#ffff000400021740
(1484869956.45) can1 214#000000000000f5a0
(1484869956.45) can1 216#b7597d8f00000000
(1484869956.45) can1 217#03d003cc03e003e0
(1484869956.45) can1 415#0476f87408080808
(1484869956.45) can1 41d#8000600000000000
(1484869956.45) can1 4b0#01008000a00000f5
(1484869956.45) can1 3a8#0100273a00000000
(1484869956.45) can1 167#727fe6100019f400
(1484869956.45) can1 202#047e60006000046e
(1484869956.45) can1 204#c0007d028f000000
(1484869956.45) can1 085#84bc800083a084ae
(1484869956.45) can1 242#0217202ae1000001
(1484869956.45) can1 3cc#1000000000000000
(1484869956.46) can1 217#03d003d003e003e4
(1484869956.46) can1 04a#0200000000000000
(1484869956.46) can1 04b#00c0d8d8d8d8c000
(1484869956.46) can1 04c#105fffc000000000
(1484869956.46) can1 078#0469000000000000
(1484869956.46) can1 091#7f0f7f0e6975f000
(1484869956.46) can1 092#6f956fdb733ba575
(1484869956.46) can1 187#d914082800a00300
(1484869956.46) can1 082#83081400a0804000
(1484869956.46) can1 085#84bc800083b084ad
(1484869956.46) can1 200#00007ffa7ffa0000
(1484869956.46) can1 202#047c68006000046f
(1484869956.46) can1 230#1006000097000000
(1484869956.47) can1 42f#7d04002e660002bf
(1484869956.47) can1 076#3eaac0800fff0000
(1484869956.47) can1 077#048f08077ff7f20e
(1484869956.47) can1 07d#0000f4b0001f2805
(1484869956.47) can1 091#7f0e7f0b6c76f000
(1484869956.47) can1 092#6f966fd1733aae76
(1484869956.47) can1 213#ffff000400021640
(1484869956.47) can1 214#000000000000f4b0
(1484869956.47) can1 216#bb5d829200000000
(1484869956.47) can1 217#03d003d003e003e0
(1484869956.47) can1 415#0473fc7608080808
(1484869956.47) can1 41d#8000600000000000
(1484869956.47) can1 4b0#01008000b00000f4
(1484869956.47) can1 3a8#0100273a00000000
(1484869956.47) can1 167#727fec100019f300
(1484869956.47) can1 3ca#fe81d85a00000000
(1484869956.47) can0 3ca#fe81d85a00000000
(1484869956.47) can1 202#047a700060000470
(1484869956.47) can1 085#84bd800080c084ae
(1484869956.47) can1 42c#8c80000007f00000
(1484869956.47) can1 05d#83569f5f38000000
(1484869956.48) can1 217#03d003d403dc03dc
(1484869956.48) can1 091#7f097f087377f000
(1484869956.48) can1 078#0168800000000000
(1484869956.48) can1 092#6f956fc07342b777
(1484869956.48) can1 422#000000963802fe02
(1484869956.48) can1 423#88e0000000000000
(1484869956.48) can1 430#37000a93c8887700
(1484869956.48) can1 05a#00000045e5f10000
(1484869956.48) can1 186#14f7016b00180400
(1484869956.48) can1 187#d914082800a00300
(1484869956.48) can1 167#727fe8100019f900
(1484869956.48) can1 200#00007fff7fff0000
(1484869956.48) can1 082#81081400a1804000
(1484869956.48) can1 085#84bd80007fd084ae
(1484869956.48) can1 202#0479780060000470
(1484869956.49) can1 204#c0007d0288000000
(1484869956.49) can1 230#1006000097000000
(1484869956.49) can1 3cc#1000000000000000
(1484869956.49) can1 455#a000000000000000
(1484869956.49) can1 076#3eaac0800fff0000
(1484869956.49) can1 077#049308067ff7fa0b
(1484869956.49) can1 07d#0000f3c0001ef805
(1484869956.49) can1 091#7f037f057b78f000
(1484869956.49) can1 092#6f976fb07350b678
(1484869956.49) can1 213#ffff000400021540
(1484869956.49) can1 214#000000000000f3c0
(1484869956.49) can1 216#c061869600000000
(1484869956.49) can1 217#03d003d803dc03d8
(1484869956.49) can1 415#047ac07e08080808
(1484869956.49) can1 416#5000fe0001000000
(1484869956.49) can1 41d#8000600000000000
(1484869956.49) can1 4b0#01008000c00000f3
(1484869956.49) can1 33b#0000000000000000
(1484869956.49) can1 3a8#0100273a00000000
(1484869956.49) can1 202#0486000060000472
(1484869956.49) can1 085#84bd80007ee084ae
(1484869956.49) can1 242#02172027e0000001
(1484869956.49) can1 261#0000000000000000
(1484869956.49) can1 42f#7d04002e660702b8
(1484869956.5) can1 217#03d003dc03dc03dc
(1484869956.5) can1 091#7efe7eff8779f000
(1484869956.5) can1 092#6f9e6fa4735dad79
(1484869956.5) can1 186#14f0016a00180400
(1484869956.5) can1 187#d914082800a00300
(1484869956.5) can1 3ca#fe81d85a00000000
(1484869956.5) can0 3ca#fe81d85a00000000
(1484869956.5) can1 167#727ffd100019f900
(1484869956.5) can1 082#80081400a1804000
(1484869956.5) can1 085#84bd80007df084ae
(1484869956.5) can1 200#0000800180010000
(1484869956.51) can1 202#0484080060000473
(1484869956.51) can1 204#c0007d0283000000
(1484869956.51) can1 230#1006000097000000
(1484869956.51) can1 076#3eabc0800fff0000
(1484869956.51) can1 077#049408047ff7fa02
(1484869956.51) can1 07d#0000f2d0001f6802
(1484869956.51) can1 091#7efd7ef98d7af000
(1484869956.51) can1 092#6fa66f9e7367a07a
(1484869956.51) can1 213#ffff000400021340
(1484869956.51) can1 214#000000000000f2d0
(1484869956.51) can1 216#c2648a9a00000000
(1484869956.51) can1 217#03d003d803d803d8
(1484869956.51) can1 415#047dc47a08080808
(1484869956.51) can1 41d#8000600000000000
(1484869956.51) can1 4b0#01008000d00000f2
(1484869956.51) can1 3a8#0100273a00000000
(1484869956.51) can1 167#727ffc100019f800
(1484869956.51) can1 202#0482100060000474
(1484869956.51) can1 085#84bd80008c0084ae
(1484869956.51) can1 3cc#1000000000000000
(1484869956.52) can1 217#03d403d803dc03dc
(1484869956.52) can1 078#0068000000000000
(1484869956.52) can1 091#7f047ef4897bf000
(1484869956.52) can1 092#6fab6f9a736f967b
(1484869956.52) can1 186#14ec016a00180400
(1484869956.52) can1 187#d814082800b00300
(1484869956.52) can1 05c#003000f9201e0000
(1484869956.52) can1 082#81081400a1804000
(1484869956.52) can1 085#84bd80008b1084ae
(1484869956.52) can1 200#0000800080000000
(1484869956.52) can1 202#047f180060000476
(1484869956.52) can1 204#c0007d0280000000
(1484869956.53) can1 230#1006000097000000
(1484869956.53) can1 42c#8c80000007f00000
(1484869956.53) can1 42f#7d04002e660802b1
(1484869956.53) can1 076#3eabc0800fff0000
(1484869956.53) can1 077#049408007ff805fe
(1484869956.53) can1 07d#0000f1e0001fc800
(1484869956.53) can1 091#7f147ef27a7cf000
(1484869956.53) can1 092#6fad6f997372917c
(1484869956.53) can1 213#ffff000400021040
(1484869956.53) can1 214#000000000000f1e0
(1484869956.53) can1 216#c7698d9f00000000
(1484869956.53) can1 217#03d803d803dc03dc
(1484869956.53) can1 415#047cc87a08080808
(1484869956.53) can1 41d#8000600000000000
(1484869956.53) can1 4b0#01008000e00000f1
(1484869956.53) can1 081#0000000000000000
(1484869956.53) can1 083#0100000000600000
(1484869956.53) can1 2a1#ffffffff00000000
(1484869956.53) can1 3e6#0001040880000000
(1484869956.53) can1 3a8#0100273a00000000
(1484869956.53) can1 167#727ff8100019fd00
(1484869956.53) can1 3ca#fe81d85a00000000
(1484869956.53) can0 3ca#fe81d85a00000000
(1484869956.53) can1 202#047d200060000477
(1484869956.53) can1 085#84bd80008a2084ae
(1484869956.53) can1 242#0217202ce1000001
(1484869956.54) can1 217#03dc03dc03dc03dc
(1484869956.54) can1 091#7f267eef6a7df000
(1484869956.54) can1 078#0168800000000000
(1484869956.54) can1 092#6fa96f9e73778a7d
(1484869956.54) can1 186#14e7016900180400
(1484869956.54) can1 187#d814082800b00300
(1484869956.54) can1 18a#0020180114000000
(1484869956.54) can1 3e5#0000000080000000
(1484869956.54) can1 082#82081400a1804000
(1484869956.54) can1 085#84bd8000893084ae
(1484869956.54) can1 167#72800a100019fc00
(1484869956.54) can1 178#000001f30e6eca6f
(1484869956.54) can1 3cc#1000000000000000
(1484869956.55) can1 200#0000800280020000
(1484869956.55) can1 202#047c280060000477
(1484869956.55) can1 230#1006000097000000
(1484869956.55) can1 261#0000000000000000
(1484869956.55) can1 076#3eabc0800fff0000
(1484869956.55) can1 077#049307ff7ff80dfd
(1484869956.55) can1 07d#0000f0f0001ff807
(1484869956.55) can1 091#7f367eee5a7ef000
(1484869956.55) can1 092#6fa26fa4737d847e
(1484869956.55) can1 213#ffff000400020e40
(1484869956.55) can1 214#000000000000f0f0
(1484869956.55) can1 216#cb6d91a200000000
(1484869956.55) can1 217#03e003dc03dc03d8
(1484869956.55) can1 415#0483cc7208080808
(1484869956.55) can1 41d#8000600000000000
(1484869956.55) can1 4b0#01008000f00000f0
(1484869956.55) can1 3a8#0100273a00000000
(1484869956.55) can1 33b#0000000000000000
(1484869956.55) can1 202#0479300060000479
(1484869956.55) can1 204#c0007d0283000000
(1484869956.55) can1 085#84bd8000884084ae
(1484869956.55) can1 42f#7d04002e660f02aa
(1484869956.56) can1 217#03e403dc03d803d4
(1484869956.56) can1 078#0569800000000000
(1484869956.56) can1 04a#0200000000000000
(1484869956.56) can1 04b#00c0d8d8d8d8c000
(1484869956.56) can1 04c#105fffc000000000
(1484869956.56) can1 091#7f3c7eeb567ff000
(1484869956.56) can1 092#6f9d6fa9737f817f
(1484869956.56) can1 187#d814082800b00300
(1484869956.56) can1 3ca#fe81d85a00000000
(1484869956.56) can0 3ca#fe81d85a00000000
(1484869956.56) can1 167#728008100019fc00
(1484869956.56) can1 082#84081400a1804000
(1484869956.56) can1 085#84bd8000885084ad
(1484869956.56) can1 202#047638006000047b
(1484869956.57) can1 230#1006000097000000
(1484869956.57) can1 076#3eabc0800fff0000
(1484869956.57) can1 077#049107fe7ff801ff
(1484869956.57) can1 07d#0000ff0000203812
(1484869956.57) can1 091#7f377ee75e80f000
(1484869956.57) can1 092#6f986fa8737e8780
(1484869956.57) can1 213#ffff000400020d40
(1484869956.57) can1 214#000000000000ff00
(1484869956.57) can1 216#cf7196a600000000
(1484869956.57) can1 217#03e403e003d803d4
(1484869956.57) can1 415#048cd06808080808
(1484869956.57) can1 41d#8000600000000000
(1484869956.57) can1 4b0#01008000000000ff
(1484869956.57) can1 3a7#0e423a040a700000
(1484869956.57) can1 3a8#0100273a00000000
(1484869956.57) can1 167#728005100019fc00
(1484869956.57) can1 202#047340006000047d
(1484869956.57) can1 242#0217202de1000001
(1484869956.57) can1 085#84be8000856084ae
(1484869956.57) can1 3b3#4488c20c10000002
(1484869956.57) can1 3cc#1000000000000000
(1484869956.57) can1 40a#c00000068cb7d100
(1484869956.58) can1 42c#8c80000007f00000
(1484869956.58) can1 05d#8355875f3f000000
(1484869956.58) can1 217#03e003e003d803d0
(1484869956.58) can1 091#7f277ee66e81f000
(1484869956.58) can1 092#6f946fa3737e8f81
(1484869956.58) can1 078#0068000000000000
(1484869956.58) can1 422#000000963802fe02
(1484869956.58) can1 423#88e0000000000000
(1484869956.58) can1 430#37000a93c8887700
(1484869956.58) can1 05a#00000045eb910000
(1484869956.58) can1 186#14e0016900180400
(1484869956.58) can1 187#d814082800b00300
(1484869956.58) can1 082#85081400a1804000
(1484869956.58) can1 085#84be8000847084ae
(1484869956.58) can1 202#046f480060000480
(1484869956.58) can1 230#1006000097000000
(1484869956.58) can1 42f#7d04002e660e02a5
(1484869956.59) can1 455#a000000000000000
(1484869956.59) can1 076#3eabc0800fff0000
(1484869956.59) can1 077#049007fc7ff7fdff
(1484869956.59) can1 07d#0000fe1000203812
(1484869956.59) can1 091#7f0f7ee58682f000
(1484869956.59) can1 092#6f926f9f737f9382
(1484869956.59) can1 213#ffff000400020b40
(1484869956.59) can1 214#000000000000fe10
(1484869956.59) can1 216#d4749aaa00000000
(1484869956.59) can1 217#03e003e003d803d4
(1484869956.59) can1 415#048ad46908080808
(1484869956.59) can1 416#5100fd0001000000
(1484869956.59) can1 41d#8000600000000000
(1484869956.59) can1 4b0#01008000100000fe
(1484869956.59) can1 3a8#0100273a00000000
(1484869956.59) can1 167#728006100019fd00
(1484869956.59) can1 3ca#fe82b85800000000
(1484869956.59) can0 3ca#fe82b85800000000
(1484869956.59) can1 202#046d500060000481
(1484869956.59) can1 204#c0007d0288000000
(1484869956.59) can1 085#84be8000838084ae
(1484869956.59) can1 261#0000000000000000
(1484869956.59) can1 3a6#0e401a040a700000
(1484869956.6) can1 217#03dc03dc03d803d8
(1484869956.6) can1 091#7ef27ee7a183f000
(1484869956.6) can1 092#6f966f9b737f9283
(1484869956.6) can1 078#0168800000000000
(1484869956.6) can1 186#14d8016900180400
(1484869956.6) can1 187#d814082800b00300
(1484869956.6) can1 167#728009100019fb00
(1484869956.6) can1 200#00007ffd7ffd0000
(1484869956.6) can1 082#83081400a1804000
(1484869956.6) can1 085#84be8000829084ae
(1484869956.6) can1 202#046a580060000483
(1484869956.61) can1 230#1006000097000000
(1484869956.61) can1 3cc#1000000000000000
(1484869956.61) can1 076#3eacc0800fff0000
(1484869956.61) can1 077#048f07fb7ff7f5fe
(1484869956.61) can1 07d#0000fd2000203806
(1484869956.61) can1 091#7ed37eedb984f000
(1484869956.61) can1 092#6f9f6f99737e8b84
(1484869956.61) can1 213#ffff000400020940
(1484869956.61) can1 214#000000000000fd20
(1484869956.61) can1 216#d6789dae00000000
(1484869956.61) can1 217#03d803e003d803d8
(1484869956.61) can1 415#0482d87008080808
(1484869956.61) can1 41d#8000600000000000
(1484869956.61) can1 4b0#01008000200000fd
(1484869956.61) can1 3a8#0100273a00000000
(1484869956.61) can1 33b#0000000000000000
(1484869956.61) can1 202#046a600060000482
(1484869956.61) can1 085#84be800081a084ae
(1484869956.61) can1 242#0217202de1000001
(1484869956.61) can1 42f#7d04002e660d02a2
(1484869956.62) can1 217#03d803dc03dc03dc
(1484869956.62) can1 091#7eb87ef0d085f000
(1484869956.62) can1 092#6fa46f9a737e8485
(1484869956.62) can1 186#14cd016900180400
(1484869956.62) can1 187#d714082800c00300
(1484869956.62) can1 3ca#fe82b85800000000
(1484869956.62) can0 3ca#fe82b85800000000
(1484869956.62) can1 05c#00d000ef201e0000
(1484869956.62) can1 082#84081400a1804000
(1484869956.62) can1 085#84be800080b084ae
(1484869956.62) can1 167#728002100019fa00
(1484869956.62) can1 200#00007ffa7ffa0000
(1484869956.62) can1 202#0469680060000482
(1484869956.63) can1 204#c0007d0289000000
(1484869956.63) can1 230#1006000097000000
(1484869956.63) can1 42c#8c80000007f00000
(1484869956.63) can1 076#3eacc0800fff0000
(1484869956.63) can1 077#048e07fe7ff801fd
(1484869956.63) can1 07d#0000fc30002037f5
(1484869956.63) can1 091#7ea27ef3e286f000
(1484869956.63) can1 092#6fa56f9f737e7d86
(1484869956.63) can1 213#ffff000400020840
(1484869956.63) can1 214#000000000000fc30
(1484869956.63) can1 216#db7da1b300000000
(1484869956.63) can1 217#03d803dc03d803dc
(1484869956.63) can1 415#0481dc7008080808
(1484869956.63) can1 41d#8000600000000000
(1484869956.63) can1 4b0#01008000300000fc
(1484869956.63) can1 3a8#0100273b00000000
(1484869956.63) can1 083#0100000000600000
(1484869956.63) can1 2a1#ffffffff00000000
(1484869956.63) can1 167#728001100019fa00
(1484869956.63) can1 202#0468700060000482
(1484869956.63) can1 085#84be80007fc084ae
(1484869956.63) can1 3cc#1000000000000000
(1484869956.64) can1 217#03d803e003d803dc
(1484869956.64) can1 078#0068000000000000
(1484869956.64) can1 091#7e8d7ef4f587f000
(1484869956.64) can1 092#6fa66fa2737d7987
(1484869956.64) can1 186#14b6016800180400
(1484869956.64) can1 187#d714082800c00300
(1484869956.64) can1 18a#0020180114000000
(1484869956.64) can1 082#84081400a1804000
(1484869956.64) can1 085#84bd800080d084ad
(1484869956.64) can1 178#000002030e6eca6f
(1484869956.64) can1 200#00007ff97ff90000
(1484869956.64) can1 202#0467780060000482
(1484869956.65) can1 204#c0007d028d000000
(1484869956.65) can1 230#1006000097000000
(1484869956.65) can1 261#0000000000000000
(1484869956.65) can1 076#3eacc0800fff0000
(1484869956.65) can1 077#048d07ff7ff805fe
(1484869956.65) can1 07d#0000fb40002037e5
(1484869956.65) can1 091#7e7d7ef40488f000
(1484869956.65) can1 092#6fa76fa2737b7988
(1484869956.65) can1 213#ffff000400020640
(1484869956.65) can1 214#000000000000fb40
(1484869956.65) can1 216#df81a6b600000000
(1484869956.65) can1 217#03d803e403d803e0
(1484869956.65) can1 415#0482e06e08080808
(1484869956.65) can1 41d#8000600000000000
(1484869956.65) can1 42f#7d04002e660b02a0
(1484869956.65) can1 4b0#01008000400000fb
(1484869956.65) can1 3a8#0100273b00000000
(1484869956.65) can1 167#728000100019f800
(1484869956.65) can1 3ca#fe82b85800000000
(1484869956.65) can0 3ca#fe82b85800000000
(1484869956.65) can1 202#0476000060000482
(1484869956.65) can1 085#84bd80007ee084ae
(1484869956.65) can1 242#0217202ae1000001
(1484869956.66) can1 217#03dc03e003d803e0
(1484869956.66) can1 078#0569800000000000
(1484869956.66) can1 04a#0200000000000000
(1484869956.66) can1 04b#00c0d8d8d8d8c000
(1484869956.66) can1 04c#105fffc000000000
(1484869956.66) can1 091#7e747ef40c89f000
(1484869956.66) can1 092#6fac6fa0737b7589
(1484869956.66) can1 187#d714082800c00300
(1484869956.66) can1 167#727ff8100019f800
(1484869956.66) can1 200#00007ff67ff60000
(1484869956.66) can1 082#82081400a1804000
(1484869956.66) can1 085#84bd80007df084ae
(1484869956.66) can1 202#0475080060000482
(1484869956.66) can1 204#c0007d0292000000
(1484869956.67) can1 230#1006000097000000
(1484869956.67) can1 3cc#1000000000000000
(1484869956.67) can1 076#3eabc0800fff0000
(1484869956.67) can1 077#048d07ff7ff805ff
(1484869956.67) can1 07d#0000fa50002027da
(1484869956.67) can1 091#7e767ef7068af000
(1484869956.67) can1 092#6fb46fa0737b6c8a
(1484869956.67) can1 213#ffff000400020640
(1484869956.67) can1 214#000000000000fa50
(1484869956.67) can1 216#e384aaba00000000
(1484869956.67) can1 217#03dc03dc03d803e4
(1484869956.67) can1 415#0488e46708080808
(1484869956.67) can1 41d#8000600000000000
(1484869956.67) can1 4b0#01008000500000fa
(1484869956.67) can1 3a8#0100273b00000000
(1484869956.67) can1 33b#0000000000000000
(1484869956.67) can1 202#0474100060000482
(1484869956.67) can1 085#84bc80008d0084ae
(1484869956.67) can1 42c#8c80000007f00000
(1484869956.67) can1 42f#7d04002e660702a0
(1484869956.67) can1 05d#8355af5f35000000
(1484869956.68) can1 217#03dc03dc03d803e8
(1484869956.68) can1 078#0168800000000000
(1484869956.68) can1 091#7e877efbf08bf000
(1484869956.68) can1 092#6fbb6fa3737d5f8b
(1484869956.68) can1 422#000000963802fe02
(1484869956.68) can1 423#88e0000000000000
(1484869956.68) can1 430#37000a93c8887700
(1484869956.68) can1 186#14a4016800180400
(1484869956.68) can1 187#d714082800c00300
(1484869956.68) can1 05a#00000045f1310000
(1484869956.68) can1 3ca#fe82b85800000000
(1484869956.68) can0 3ca#fe82b85800000000
(1484869956.68) can1 167#727ff7100019f700
(1484869956.68) can1 082#83081400a1804000
(1484869956.68) can1 085#84bb80008e1084ad
(1484869956.68) can1 202#0472180060000483
(1484869956.69) can1 230#1006000097000000
(1484869956.69) can1 455#a000000000000000
(1484869956.69) can1 076#3eabc0800fff0000
(1484869956.69) can1 077#048e07ff7ff815fe
(1484869956.69) can1 07d#0000f960002027d7
(1484869956.69) can1 091#7ea27f01cd8cf000
(1484869956.69) can1 092#6fbe6fa27381588c
(1484869956.69) can1 213#ffff000400020640
(1484869956.69) can1 214#000000000000f960
(1484869956.69) can1 216#e688aebe00000000
(1484869956.69) can1 217#03dc03d803d803ec
(1484869956.69) can1 415#0481e86d08080808
(1484869956.69) can1 416#5200fc0001000000
(1484869956.69) can1 41d#8000600000000000
(1484869956.69) can1 4b0#01008000600000f9
(1484869956.69) can1 3a8#0100273a00000000
(1484869956.69) can1 167#727ff7100019f600
(1484869956.69) can1 202#0471200060000483
(1484869956.69) can1 204#c0007d0298000000
(1484869956.69) can1 242#02172028e1000001
(1484869956.69) can1 085#84ba80008e2084ad
(1484869956.69) can1 261#0000000000000000
(1484869956.69) can1 3cc#1000000000000000
(1484869956.7) can1 217#03d803e003dc03ec
(1484869956.7) can1 078#0068000000000000
(1484869956.7) can1 091#7ec37f07a58df000
(1484869956.7) can1 092#6fb86f9e737d658d
(1484869956.7) can1 186#1492016700180400
(1484869956.7) can1 187#d714082800c00300
(1484869956.7) can1 5b3#b300ffffffffffff
(1484869956.7) can1 082#82081400a1804000
(1484869956.7) can1 085#84ba80008d3084ad
(1484869956.7) can1 200#00007ff37ff30000
(1484869956.7) can1 202#0471280060000482
(1484869956.71) can1 230#1006000097000000
(1484869956.71) can1 42f#7d04002e6605029f
(1484869956.71) can1 076#3ea9c0800fff0000
(1484869956.71) can1 077#049008037ff821ff
(1484869956.71) can1 07d#0000f870002047e5
(1484869956.71) can1 091#7ee77f0c7b8ef000
(1484869956.71) can1 092#6fab6f9b73777a8e
(1484869956.71) can1 213#ffff000400020640
(1484869956.71) can1 214#000000000000f870
(1484869956.71) can1 216#eb8cb1c200000000
(1484869956.71) can1 217#03d803e003dc03e8
(1484869956.71) can1 415#0483ec6a08080808
(1484869956.71) can1 41d#8000600000000000
(1484869956.71) can1 4b0#01008000700000f8
(1484869956.71) can1 3a8#0100273a00000000
(1484869956.71) can1 084#1100001333261200
(1484869956.71) can1 3ca#fe84c85900000000
(1484869956.71) can0 3ca#fe84c85900000000
(1484869956.71) can1 167#727ff2100019f600
(1484869956.71) can1 202#0470300060000482
(1484869956.71) can1 085#84ba80008b4084ae
(1484869956.71) can1 204#c0007d029b000000
(1484869956.72) can1 217#03dc03e403dc03e4
(1484869956.72) can1 078#0168800000000000
(1484869956.72) can1 091#7f027f0f5b8ff000
(1484869956.72) can1 092#6f9d6f9c7377868f
(1484869956.72) can1 186#147c016700180400
(1484869956.72) can1 187#d614082800d00300
(1484869956.72) can1 05c#007000f5201e0000
(1484869956.72) can1 167#727ff1100019f500
(1484869956.72) can1 082#7f081400a1804000
(1484869956.72) can1 085#84b980008c5084ad
(1484869956.72) can1 200#00007fef7fef0000
(1484869956.72) can1 202#046f380060000482
(1484869956.73) can1 3cc#1000000000000000
(1484869956.73) can1 230#1006000097000000
(1484869956.73) can1 42c#8c80000007f00000
(1484869956.73) can1 076#3ea8c0800fff0000
(1484869956.73) can1 077#049108067ff809fd
(1484869956.73) can1 07d#0000f780002017fa
(1484869956.73) can1 091#7f177f124290f000
(1484869956.73) can1 092#6f926f9f737d8790
(1484869956.73) can1 213#ffff000400020540
(1484869956.73) can1 214#000000000000f780
(1484869956.73) can1 216#ef91b5c500000000
(1484869956.73) can1 217#03dc03e003dc03e4
(1484869956.73) can1 415#0486f06608080808
(1484869956.73) can1 41d#8000600000000000
(1484869956.73) can1 4b0#01008000800000f7
(1484869956.73) can1 083#0100000000600000
(1484869956.73) can1 2a1#ffffffff00000000
(1484869956.73) can1 33b#0000000000000000
(1484869956.73) can1 3a8#0100273800000000
(1484869956.73) can1 202#046d400060000483
(1484869956.73) can1 204#c0007d029e000000
(1484869956.73) can1 085#84b980008b6084ad
(1484869956.73) can1 242#0217202ce1000001
(1484869956.73) can1 42f#7d04002e6603029f
(1484869956.74) can1 217#03dc03e003dc03e0
(1484869956.74) can1 091#7f277f152e91f000
(1484869956.74) can1 092#6f8a6fa073848691
(1484869956.74) can1 186#1468016700180400
(1484869956.74) can1 187#d614082800d00300
(1484869956.74) can1 18a#0020180114000000
(1484869956.74) can1 3ca#fe84c85900000000
(1484869956.74) can0 3ca#fe84c85900000000
(1484869956.74) can1 082#7f081400a1804000
(1484869956.74) can1 085#84ba8000887084ae
(1484869956.74) can1 167#727ff0100019f500
(1484869956.74) can1 178#000002060e6eca6f
(1484869956.75) can1 200#00007ff37ff30000
(1484869956.75) can1 202#046c480060000483
(1484869956.75) can1 230#1006000097000000
(1484869956.75) can1 261#0000000000000000
(1484869956.75) can1 076#3ea7c0800fff0000
(1484869956.75) can1 077#049008087ff7f5fe
(1484869956.75) can1 07d#0000f69000203808
(1484869956.75) can1 091#7f337f191d92f000
(1484869956.75) can1 092#6f856f9f73868992
(1484869956.75) can1 213#ffff000400020440
(1484869956.75) can1 214#000000000000f690
(1484869956.75) can1 216#f395baca00000000
(1484869956.75) can1 217#03e003e003dc03e0
(1484869956.75) can1 415#0486f46508080808
(1484869956.75) can1 41d#8000600000000000
(1484869956.75) can1 4b0#01008000900000f6
(1484869956.75) can1 3a8#0100273700000000
(1484869956.75) can1 167#727fee100019f500
(1484869956.75) can1 202#046a500060000484
(1484869956.75) can1 085#84ba8000878084ae
(1484869956.75) can1 3cc#1000000000000000
(1484869956.76) can1 217#03e003e003dc03e4
(1484869956.76) can1 078#0469000000000000
(1484869956.76) can1 04a#0200000000000000
(1484869956.76) can1 04b#00c0d8d8d8d8c000
(1484869956.76) can1 04c#105fffc000000000
(1484869956.76) can1 091#7f3d7f1d0e93f000
(1484869956.76) can1 092#6f836f9d73858d93
(1484869956.76) can1 187#d614082800d00300
(1484869956.76) can1 082#7f081400a1804000
(1484869956.76) can1 085#84ba8000879084ad
(1484869956.76) can1 200#00007fef7fef0000
(1484869956.76) can1 202#0469580060000484
(1484869956.76) can1 230#1006000097000000
(1484869956.77) can1 42f#7d04002e6602029f
(1484869956.77) can1 076#3ea8c0800fff0000
(1484869956.77) can1 077#048f080a7ff7e5fe
(1484869956.77) can1 07d#0000f5a000205811
(1484869956.77) can1 091#7f417f220494f000
(1484869956.77) can1 092#6f826f9f73848c94
(1484869956.77) can1 213#ffff000400020340
(1484869956.77) can1 214#000000000000f5a0
(1484869956.77) can1 216#f798bece00000000
(1484869956.77) can1 415#048bf85f08080808
(1484869956.77) can1 188#4000000000000000
(1484869956.77) can1 41d#8000600000000000
(1484869956.77) can1 4b0#01008000a00000f5
(1484869956.77) can1 3a7#0e423a040a700000
(1484869956.77) can1 3a8#0100273700000000
(1484869956.77) can1 167#727fed100019f400
(1484869956.77) can1 3ca#fe84c85900000000
(1484869956.77) can0 3ca#fe84c85900000000
(1484869956.77) can1 202#0467600060000485
(1484869956.77) can1 085#84bb800084a084ae
(1484869956.77) can1 242#0217202de1000001
(1484869956.77) can1 40a#c100334641365030
(1484869956.77) can1 42c#8c80000007f00000
(1484869956.77) can1 05d#8356975f3a000000
(1484869956.78) can1 217#03e003dc03e003e8
(1484869956.78) can1 091#7f417f210495f000
(1484869956.78) can1 078#0168800000000000
(1484869956.78) can1 092#6f816fa073838c95
(1484869956.78) can1 422#000000963802fe02
(1484869956.78) can1 423#88e0000000000000
(1484869956.78) can1 430#37000a93c8887700
(1484869956.78) can1 186#145b016700180400
(1484869956.78) can1 187#d614082800d00300
(1484869956.78) can1 05a#00000045e7d10000
(1484869956.78) can1 167#727fec100019f400
(1484869956.78) can1 082#7e081400a1804000
(1484869956.78) can1 085#84bb800084b084ad
(1484869956.78) can1 202#0465680060000486
(1484869956.78) can1 204#c0007d029f000000
(1484869956.79) can1 230#1006000097000000
(1484869956.79) can1 3cc#1000000000000000
(1484869956.79) can1 455#a000000000000000
(1484869956.79) can1 076#3ea8c0800fff0000
(1484869956.79) can1 077#0490080d7ff7e1fe
(1484869956.79) can1 07d#0000f4b000204815
(1484869956.79) can1 091#7f407f1d0896f000
(1484869956.79) can1 092#6f816f9f73808f96
(1484869956.79) can1 213#ffff000400020340
(1484869956.79) can1 214#000000000000f4b0
(1484869956.79) can1 216#fa9cc2d200000000
(1484869956.79) can1 217#03e003dc03e403e8
(1484869956.79) can1 415#0485fc6408080808
(1484869956.79) can1 416#5300fb0001000000
(1484869956.79) can1 41d#8000600000000000
(1484869956.79) can1 4b0#01008000b00000f4
(1484869956.79) can1 33b#0000000000000000
(1484869956.79) can1 3a8#0100273700000000
(1484869956.79) can1 202#0464700060000486
(1484869956.79) can1 085#84bc800081c084ae
(1484869956.79) can1 261#0000000000000000
(1484869956.79) can1 42f#7d04002e6601029f
(1484869956.79) can1 3a6#0e401a040a700000
(1484869956.8) can1 217#03e003e003e403e8
(1484869956.8) can1 091#7f3b7f171297f000
(1484869956.8) can1 092#6f7f6f9d737c9697
(1484869956.8) can1 186#1453016700180400
(1484869956.8) can1 187#d614082800d00300
(1484869956.8) can1 3ca#fe84c85900000000
(1484869956.8) can0 3ca#fe84c85900000000
(1484869956.8) can1 082#7d081400a1804000
(1484869956.8) can1 085#84bd80007fd084ae
(1484869956.8) can1 200#00007fee7fee0000
(1484869956.8) can1 202#0464780060000485
(1484869956.81) can1 204#c0007d02a0000000
(1484869956.81) can1 230#1006000097000000
(1484869956.81) can1 076#3ea9c0800fff0000
(1484869956.81) can1 077#0490080b7ff7e1fe
(1484869956.81) can1 07d#0000f3c000203815
(1484869956.81) can1 091#7f2e7f0e2798f000
(1484869956.81) can1 092#6f7e6f9c737a9998
(1484869956.81) can1 213#ffff000400020340
(1484869956.81) can1 214#000000000000f3c0
(1484869956.81) can1 216#ffa0c5d600000000
(1484869956.81) can1 217#03e403e003e803e4
(1484869956.81) can1 415#0488c07008080808
(1484869956.81) can1 41d#8000600000000000
(1484869956.81) can1 4b0#01008000c00000f3
(1484869956.81) can1 3a8#0100273700000000
(1484869956.81) can1 202#0472000060000486
(1484869956.81) can1 242#0217202ae1000001
(1484869956.81) can1 085#84bd80007ee084ae
(1484869956.81) can1 3cc#1000000000000000
(1484869956.82) can1 217#03e403e403e803e4
(1484869956.82) can1 078#0068000000000000
(1484869956.82) can1 091#7f1a7f044499f000
(1484869956.82) can1 092#6f7f6f9c73799899
(1484869956.82) can1 186#144a016700180400
(1484869956.82) can1 187#d514082800e00300
(1484869956.82) can1 05c#001000fb201e0000
(1484869956.82) can1 082#7c081400a1804000
(1484869956.82) can1 085#84bd80007df084ae
(1484869956.82) can1 202#0471080060000486
(1484869956.82) can1 204#c0007d02a3000000
(1484869956.83) can1 230#1006000097000000
(1484869956.83) can1 42c#8c80000007f00000
(1484869956.83) can1 42f#7d04002e6600029f
(1484869956.83) can1 076#3eabc0800fff0000
(1484869956.83) can1 077#049008077ff7ddfe
(1484869956.83) can1 07d#0000f2d00020280f
(1484869956.83) can1 091#7f027efd639af000
(1484869956.83) can1 092#6f866f9d7377919a
(1484869956.83) can1 213#ffff000400020240
(1484869956.83) can1 214#000000000000f2d0
(1484869956.83) can1 216#03a5c9d900000000
(1484869956.83) can1 217#03e003e403e803e4
(1484869956.83) can1 415#048ec46908080808
(1484869956.83) can1 41d#8000600000000000
(1484869956.83) can1 4b0#01008000d00000f2
(1484869956.83) can1 3a8#0100273800000000
(1484869956.83) can1 083#0100000000600000
(1484869956.83) can1 2a1#ffffffff00000000
(1484869956.83) can1 167#727fe9100019f400
(1484869956.83) can1 3ca#fe87486100000000
(1484869956.83) can0 3ca#fe87486100000000
(1484869956.83) can1 202#046f100060000487
(1484869956.83) can1 085#84bd80008c0084ae
(1484869956.84) can1 217#03e003e803e803e4
(1484869956.84) can1 078#0168800000000000
(1484869956.84) can1 091#7eec7ef77f9bf000
(1484869956.84) can1 092#6f916f9d7376869b
(1484869956.84) can1 187#d514082800e00300
(1484869956.84) can1 18a#0020180114000000
(1484869956.84) can1 265#2001010410000000
(1484869956.84) can1 453#3257364570646166
(1484869956.84) can1 082#7b081400a1804000
(1484869956.84) can1 085#84bd80008b1084ae
(1484869956.84) can1 167#727fe5100019f400
(1484869956.84) can1 178#000002030e6eca6f
(1484869956.84) can1 3cc#1000000000000000
(1484869956.85) can1 202#046d180060000488
(1484869956.85) can1 204#c0007d02a6000000
(1484869956.85) can1 230#2106000097000000
(1484869956.85) can1 261#0000000000000000
(1484869956.85) can1 076#3eabc0800fff0000
(1484869956.85) can1 077#049008017ff7e5fe
(1484869956.85) can1 07d#0000f1e000201802
(1484869956.85) can1 091#7eda7ef3949cf000
(1484869956.85) can1 092#6f9c6f9c73767b9c
(1484869956.85) can1 213#ffff000400020240
(1484869956.85) can1 214#000000000000f1e0
(1484869956.85) can1 216#07a9cede00000000
(1484869956.85) can1 217#03e403e803e803e4
(1484869956.85) can1 415#048dc86908080808
(1484869956.85) can1 41d#8000600000000000
(1484869956.85) can1 4b0#01008000e00000f1
(1484869956.85) can1 3a8#0100273a00000000
(1484869956.85) can1 33b#0000000000000000
(1484869956.85) can1 202#046b200060000489
(1484869956.85) can1 085#84bd80008a2084ae
(1484869956.85) can1 242#02172029e1000001
(1484869956.85) can1 42f#7d04002e6601029f
(1484869956.86) can1 217#03e803ec03ec03e4
(1484869956.86) can1 078#0569800000000000
(1484869956.86) can1 04a#0200000000000000
(1484869956.86) can1 04b#00c0d8d8d8d8c000
(1484869956.86) can1 04c#105fffc000000000
(1484869956.86) can1 091#7ece7ef1a19df000
(1484869956.86) can1 092#6fa46f9c7375739d
(1484869956.86) can1 186#1441016700180400
(1484869956.86) can1 187#d514082800e00300
(1484869956.86) can1 3ca#fe87486100000000
(1484869956.86) can0 3ca#fe87486100000000
(1484869956.86) can1 167#727fe4100019f400
(1484869956.86) can1 082#7b081400a1804000
(1484869956.86) can1 085#84bd8000893084ae
(1484869956.86) can1 200#00007fea7fea0000
(1484869956.87) can1 202#046a280060000489
(1484869956.87) can1 204#c0007d02a9000000
(1484869956.87) can1 230#2106000097000000
(1484869956.87) can1 076#3eabc0800fff0000
(1484869956.87) can1 077#049107ff7ff7fdfe
(1484869956.87) can1 07d#0000f0f0002017f7
(1484869956.87) can1 091#7ec47eefac9ef000
(1484869956.87) can1 092#6faa6fa37371699e
(1484869956.87) can1 213#ffff000400020240
(1484869956.87) can1 214#000000000000f0f0
(1484869956.87) can1 216#0bacd2e200000000
(1484869956.87) can1 217#03ec03f003f003e4
(1484869956.87) can1 415#0497cc5e08080808
(1484869956.87) can1 41d#8000600000000000
(1484869956.87) can1 4b0#01008000f00000f0
(1484869956.87) can1 3a8#0100273a00000000
(1484869956.87) can1 42c#8c80000007f00000
(1484869956.87) can1 202#046630006000048c
(1484869956.87) can1 085#84bd8000884084ae
(1484869956.87) can1 3cc#1000000000000000
(1484869956.87) can1 05d#8356bf5f30000000
(1484869956.88) can1 217#03e803f003f003e8
(1484869956.88) can1 078#0068000000000000
(1484869956.88) can1 422#000000963802fe02
(1484869956.88) can1 091#7ebe7eebb59ff000
(1484869956.88) can1 092#6faf6fb0736b5c9f
(1484869956.88) can1 186#1438016700180400
(1484869956.88) can1 187#d514082800e00300
(1484869956.88) can1 423#88e0000000000000
(1484869956.88) can1 430#37000a93c8887700
(1484869956.88) can1 05a#00000045ed710000
(1484869956.88) can1 082#7c081400a1804000
(1484869956.88) can1 085#84bd8000875084ae
(1484869956.88) can1 200#00007fe67fe60000
(1484869956.88) can1 202#046438006000048d
(1484869956.89) can1 230#2106000097000000
(1484869956.89) can1 42f#7d04002e65fd029f
(1484869956.89) can1 455#a000000000000000
(1484869956.89) can1 076#3eabc0800fff0000
(1484869956.89) can1 077#049207fe7ff809ff
(1484869956.89) can1 07d#0000ff00001ff7f0
(1484869956.89) can1 091#7eb97ee6bea0f000
(1484869956.89) can1 092#6fb46fba736453a0
(1484869956.89) can1 213#ffff000400020240
(1484869956.89) can1 214#000000000000ff00
(1484869956.89) can1 216#0eb0d6e600000000
(1484869956.89) can1 415#0499d05b08080808
(1484869956.89) can1 416#5400fa0001000000
(1484869956.89) can1 41d#8000600000000000
(1484869956.89) can1 4b0#01008000000000ff
(1484869956.89) can1 3a8#0100273a00000000
(1484869956.89) can1 167#727fe3100019f300
(1484869956.89) can1 3ca#fe87486100000000
(1484869956.89) can0 3ca#fe87486100000000
(1484869956.89) can1 202#046140006000048f
(1484869956.89) can1 204#c0007d02aa000000
(1484869956.89) can1 085#84bd8000866084ae
(1484869956.89) can1 242#0217202be1000001
(1484869956.89) can1 261#0000000000000000
(1484869956.9) can1 217#03e403ec03f003e8
(1484869956.9) can1 078#0168800000000000
(1484869956.9) can1 091#7eba7ee1c1a1f000
(1484869956.9) can1 092#6fba6fb8735e54a1
(1484869956.9) can1 186#1432016700180400
(1484869956.9) can1 187#d514082800e00300
(1484869956.9) can1 167#727fe0100019f200
(1484869956.9) can1 200#00007fdf7fdf0000
(1484869956.9) can1 082#7c081400a1804000
(1484869956.9) can1 085#84bd8000857084ae
(1484869956.9) can1 202#045e480060000491
(1484869956.91) can1 230#2106000097000000
(1484869956.91) can1 3cc#1000000000000000
(1484869956.91) can1 076#3eabc0800fff0000
(1484869956.91) can1 077#049407fb7ff81605
(1484869956.91) can1 07d#0000fe10001fc7ec
(1484869956.91) can1 091#7ec57ee0b6a2f000
(1484869956.91) can1 092#6fbe6fac735c5da2
(1484869956.91) can1 213#ffff000400020340
(1484869956.91) can1 214#000000000000fe10
(1484869956.91) can1 216#13b4d9eb00000000
(1484869956.91) can1 217#03e803ec03f003e8
(1484869956.91) can1 415#0492d46108080808
(1484869956.91) can1 41d#8000600000000000
(1484869956.91) can1 4b0#01008000100000fe
(1484869956.91) can1 3a8#0100273a00000000
(1484869956.91) can1 33b#0000000000000000
(1484869956.91) can1 167#727fe0100019f200
(1484869956.91) can1 202#045d500060000491
(1484869956.91) can1 085#84bd8000848084ae
(1484869956.91) can1 42f#7d04002e65fb02a0
(1484869956.92) can1 091#7ed27ee0a8a3f000
(1484869956.92) can1 092#6fc16f9e735e65a3
(1484869956.92) can1 186#142c016700180400
(1484869956.92) can1 187#d414082800f00300
(1484869956.92) can1 3ca#fe87486100000000
(1484869956.92) can0 3ca#fe87486100000000
(1484869956.92) can1 05c#00b000f1201e0000
(1484869956.92) can1 082#7e081400a1804000
(1484869956.92) can1 085#84bd8000839084ae
(1484869956.92) can1 167#727fdf100019f200
(1484869956.92) can1 200#00007fdc7fdc0000
(1484869956.93) can1 202#045c580060000491
(1484869956.93) can1 230#2106000097000000
(1484869956.93) can1 42c#8c80000007f00000
(1484869956.93) can1 076#3eabc0800fff0000
(1484869956.93) can1 077#049707fa7ff82200
(1484869956.93) can1 07d#0000fd20001f97f0
(1484869956.93) can1 091#7ee07ee297a4f000
(1484869956.93) can1 092#6fbf6f9773606ba4
(1484869956.93) can1 213#ffff000400020340
(1484869956.93) can1 214#000000000000fd20
(1484869956.93) can1 216#17b9dded00000000
(1484869956.93) can1 415#0495d85d08080808
(1484869956.93) can1 41d#8000600000000000
(1484869956.93) can1 4b0#01008000200000fd
(1484869956.93) can1 083#0100000000600000
(1484869956.93) can1 2a1#ffffffff00000000
(1484869956.93) can1 3a8#0100273a00000000
(1484869956.93) can1 167#727fdc100019f100
(1484869956.93) can1 202#045b600060000491
(1484869956.93) can1 085#84bd800082a084ae
(1484869956.93) can1 242#0217202ce1000001
(1484869956.93) can1 3cc#1000000000000000
(1484869956.94) can1 217#03ec03e803f003e8
(1484869956.94) can1 078#0068000000000000
(1484869956.94) can1 091#7eef7ee683a5f000
(1484869956.94) can1 092#6fb76f9a73616ea5
(1484869956.94) can1 186#1427016700180400
(1484869956.94) can1 187#d414082800f00300
(1484869956.94) can1 18a#0020180114000000
(1484869956.94) can1 165#10c0000000000000
(1484869956.94) can1 082#7d081400a1804000
(1484869956.94) can1 085#84bd800081b084ae
(1484869956.94) can1 178#000002010e6eca6f
(1484869956.95) can1 200#00007fd87fd80000
(1484869956.95) can1 202#0459680060000492
(1484869956.95) can1 230#2106000097000000
(1484869956.95) can1 261#0000000000000000
(1484869956.95) can1 076#3eabc0800fff0000
(1484869956.95) can1 077#049807fa7ff821fc
(1484869956.95) can1 07d#0000fc30001fa7f9
(1484869956.95) can1 091#7efa7eeb72a6f000
(1484869956.95) can1 092#6fab6fa0736173a6
(1484869956.95) can1 213#ffff000400020340
(1484869956.95) can1 214#000000000000fc30
(1484869956.95) can1 216#1bbde2f200000000
(1484869956.95) can1 217#03ec03e803f003ec
(1484869956.95) can1 415#0494dc5d08080808
(1484869956.95) can1 41d#8000600000000000
(1484869956.95) can1 42f#7d04002e65f802a0
(1484869956.95) can1 4b0#01008000300000fc
(1484869956.95) can1 3a8#0100273a00000000
(1484869956.95) can1 167#727fd9100019f000
(1484869956.95) can1 3ca#fe89785400000000
(1484869956.95) can0 3ca#fe89785400000000
(1484869956.95) can1 202#0458700060000492
(1484869956.95) can1 204#c0007d02ab000000
(1484869956.95) can1 085#84bc800082c084ad
(1484869956.96) can1 217#03ec03e403ec03ec
(1484869956.96) can1 078#0569800000000000
(1484869956.96) can1 04a#0200000000000000
(1484869956.96) can1 04b#00c0d8d8d8d8c000
(1484869956.96) can1 04c#105fffc000000000
(1484869956.96) can1 091#7f017ef262a7f000
(1484869956.96) can1 092#6fa06fa073617da7
(1484869956.96) can1 187#d414082800f00300
(1484869956.96) can1 167#727fd8100019ef00
(1484869956.96) can1 200#00007fd47fd40000
(1484869956.96) can1 082#7c081400a1804000
(1484869956.96) can1 085#84bc800080d084ae
(1484869956.97) can1 202#0457780060000492
(1484869956.97) can1 230#2106000097000000
(1484869956.97) can1 3cc#1000000000000000
(1484869956.97) can1 076#3eabc0800fff0000
(1484869956.97) can1 077#049807fd7ff809fe
(1484869956.97) can1 07d#0000fb40001fb7ff
(1484869956.97) can1 091#7f017ef85ba8f000
(1484869956.97) can1 092#6f976f9a736686a8
(1484869956.97) can1 213#ffff000400020340
(1484869956.97) can1 214#000000000000fb40
(1484869956.97) can1 216#20c0e6f600000000
(1484869956.97) can1 217#03f003e403ec03ec
(1484869956.97) can1 415#0492e05e08080808
(1484869956.97) can1 41d#8000600000000000
(1484869956.97) can1 4b0#01008000400000fb
(1484869956.97) can1 3a7#0e423a040a700000
(1484869956.97) can1 3a8#0100273a00000000
(1484869956.97) can1 33b#0000000000000000
(1484869956.97) can1 202#0466000060000492
(1484869956.97) can1 204#c0007d02aa000000
(1484869956.97) can1 085#84bb800081e084ad
(1484869956.97) can1 242#0217202ee1000001
(1484869956.97) can1 3eb#8d04140000200000
(1484869956.97) can1 05d#8356a75f36000000
(1484869956.98) can1 40a#c1014b3931485232
(1484869956.98) can1 217#03f003e803e803ec
(1484869956.98) can1 091#7efc7eff59a9f000
(1484869956.98) can1 186#1424016600180400
(1484869956.98) can1 078#0168800000000000
(1484869956.98) can1 092#6f906f90737389a9
(1484869956.98) can1 187#d414082800f00300
(1484869956.98) can1 422#000000963802fe02
(1484869956.98) can1 42c#8c80000007f00000
(1484869956.98) can1 423#88e0000000000000
(1484869956.98) can1 42f#7d04002e65f602a1
(1484869956.98) can1 430#37000a93c8887700
(1484869956.98) can1 05a#00000045f3110000
(1484869956.98) can1 3ca#fe89785400000000
(1484869956.98) can0 3ca#fe89785400000000
(1484869956.98) can1 082#7f081400a1804000
(1484869956.98) can1 085#84bb800080f084ad
(1484869956.98) can1 167#727fd4100019ee00
(1484869956.98) can1 200#00007fd17fd30000
(1484869956.98) can1 202#0465080060000492
(1484869956.98) can1 230#2106000097000000
(1484869956.99) can1 455#a000000000000000
(1484869956.99) can1 076#3eaac0800fff0000
(1484869956.99) can1 077#049807ff7ff7f9fd
(1484869956.99) can1 07d#0000fa50001fc802
(1484869956.99) can1 091#7ef67f0557aaf000
(1484869956.99) can1 092#6f8d6f88738185aa
(1484869956.99) can1 213#ffff000400020240
(1484869956.99) can1 214#000000000000fa50
(1484869956.99) can1 216#24c4eafa00000000
(1484869956.99) can1 217#03f003f003e803ec
(1484869956.99) can1 415#0497e45808080808
(1484869956.99) can1 416#5500f90001000000
(1484869956.99) can1 41d#8000600000000000
(1484869956.99) can1 4b0#01008000500000fa
(1484869956.99) can1 456#8000000000000000
(1484869956.99) can1 3a8#0100273a00000000
(1484869956.99) can1 167#727fd1100019ee00
(1484869956.99) can1 202#0463100060000493
(1484869956.99) can1 3a6#0e401a040a700000
(1484869956.99) can1 085#84bb80008e0084ae
(1484869956.99) can1 261#0000000000000000
(1484869956.99) can1 3cc#1000000000000000
(1484869957.0) can1 217#03ec03f403e403ec
(1484869957.0) can1 078#0068000000000000
(1484869957.0) can1 186#1425016600180400
(1484869957.0) can1 091#7eee7f0c57abf000
(1484869957.0) can1 092#6f8b6f87738c7cab
(1484869957.0) can1 187#d414082800f00300
(1484869957.0) can1 082#7b081404a1804000
(1484869957.0) can1 085#84ba80008f1084ad
(1484869957.0) can1 200#00007fcf7fd10000
(1484869957.0) can1 202#0462180060000493
(1484869957.0) can1 204#c0007d02a9000000
(1484869957.01) can1 230#2106000097000000
(1484869957.01) can1 42f#7d04002e65f402a1
(1484869957.01) can1 076#3ea9c0800fff0000
(1484869957.01) can1 077#049808037ff7f1f8
(1484869957.01) can1 07d#0000f960002047ff
(1484869957.01) can1 091#7ee97f1354acf000
(1484869957.01) can1 092#6f8a6f8d739171ac
(1484869957.01) can1 213#ffff000400020140
(1484869957.01) can1 214#000000000000f960
(1484869957.01) can1 216#27c8efff00000000
(1484869957.01) can1 217#03ec03f803e803ec
(1484869957.01) can1 415#049ee85008080808
(1484869957.01) can1 41d#8000600000000000
(1484869957.01) can1 4b0#01008000600000f9
(1484869957.01) can1 3a8#0100273a00000000
(1484869957.01) can1 167#727fd1100019ec00
(1484869957.01) can1 3ca#fe89785400000000
(1484869957.01) can0 3ca#fe89785400000000
(1484869957.01) can1 202#045f200060000495
(1484869957.01) can1 085#84b980008f2084ad
(1484869957.01) can1 242#0217202be1000001
(1484869957.02) can1 186#1426016600180400
(1484869957.02) can1 187#e314082800000300
(1484869957.02) can1 078#0168800000000000
(1484869957.02) can1 217#03ec03f803ec03ec
(1484869957.02) can1 091#7ee77f1a4eadf000
(1484869957.02) can1 092#6f8e6f96739163ad
(1484869957.02) can1 047#2000000000000000
(1484869957.02) can1 05c#005000f7201e0000
(1484869957.02) can1 167#727fca100019eb00
(1484869957.02) can1 082#79081400a1804000
(1484869957.02) can1 085#84b980008d3084ae
(1484869957.02) can1 200#00007fcb7fce0000
(1484869957.02) can1 202#045d280060000496
(1484869957.02) can1 204#c0007d02a8000000
(1484869957.03) can1 3cc#1000000000000000
(1484869957.03) can1 230#2106000097000000
(1484869957.03) can1 42c#8c80000007f00000
(1484869957.03) can1 076#3ea8c0800fff0000
(1484869957.03) can1 077#049708087ff7edf9
(1484869957.03) can1 07d#0000f870002087fb
(1484869957.03) can1 091#7ee77f2146aef000
(1484869957.03) can1 092#6f926f9d738a5eae
(1484869957.03) can1 213#ffff000400020140
(1484869957.03) can1 214#000000000000f870
(1484869957.03) can1 216#2bcdf10300000000
(1484869957.03) can1 217#03f003f803f403ec
(1484869957.03) can1 415#049fec4e08080808
(1484869957.03) can1 41d#8000600000000000
(1484869957.03) can1 4b0#01008000700000f8
(1484869957.03) can1 3a8#0100273800000000
(1484869957.03) can1 083#0100000000600000
(1484869957.03) can1 2a1#ffffffff00000000
(1484869957.03) can1 33b#0000000000000000
(1484869957.03) can1 202#045a300060000498
(1484869957.03) can1 085#84b780008f4084ad
(1484869957.03) can1 42f#7d04002e65f002a1
(1484869957.04) can1 187#e314082800000300
(1484869957.04) can1 18a#0020180114000000
(1484869957.04) can1 091#7ee57f2543aff000
(1484869957.04) can1 092#6f926fa4737e62af
(1484869957.04) can1 217#03f003f803f403e8
(1484869957.04) can1 3ca#fe89785400000000
(1484869957.04) can0 3ca#fe89785400000000
(1484869957.04) can1 082#7a081400a1804000
(1484869957.04) can1 085#84b780008e5084ad
(1484869957.04) can1 167#727fc8100019ec00
(1484869957.04) can1 178#000001fe0e6eca6f
(1484869957.04) can1 200#00007fca7fcb0000
(1484869957.05) can1 202#0458380060000499
(1484869957.05) can1 204#c0007d02a6000000
(1484869957.05) can1 230#2106000097000000
(1484869957.05) can1 261#0000000000000000
(1484869957.05) can1 076#3ea7c0800fff0000
(1484869957.05) can1 077#0497080c7ff7f5fe
(1484869957.05) can1 07d#0000f780002067fb
(1484869957.05) can1 091#7ee07f2646b0f000
(1484869957.05) can1 092#6f916fad737463b0
(1484869957.05) can1 213#ffff000400020140
(1484869957.05) can1 214#000000000000f780
(1484869957.05) can1 216#2fd1f60600000000
(1484869957.05) can1 217#03ec03f403f003e8
(1484869957.05) can1 415#04a1f04b08080808
(1484869957.05) can1 41d#8000600000000000
(1484869957.05) can1 4b0#01008000800000f7
(1484869957.05) can1 3a8#0100273700000000
(1484869957.05) can1 167#727fc8100019e900
(1484869957.05) can1 202#045640006000049a
(1484869957.05) can1 242#0217202be1000001
(1484869957.05) can1 085#84b780008d6084ad
(1484869957.05) can1 3cc#1000000000000000
(1484869957.05) can1 186#1427016600180400
(1484869957.06) can1 187#e314082800000300
(1484869957.06) can1 217#03ec03f003f003e4
(1484869957.06) can1 078#0469000000000000
(1484869957.06) can1 04a#0200000000000000
(1484869957.06) can1 04b#00c0d8d8d8d8c000
(1484869957.06) can1 04c#105fffc000000000
(1484869957.06) can1 091#7ede7f234ab1f000
(1484869957.06) can1 092#6f936fb273705fb1
(1484869957.06) can1 082#7a081400a1804000
(1484869957.06) can1 085#84b780008c7084ad
(1484869957.06) can1 200#00007fc77fc90000
(1484869957.06) can1 202#045448006000049b
(1484869957.07) can1 204#c0007d02a4000000
(1484869957.07) can1 230#2106000097000000
(1484869957.07) can1 42f#7d04002e65ed02a1
(1484869957.07) can1 076#3ea6c0800fff0000
(1484869957.07) can1 077#0499080e7ff7f601
(1484869957.07) can1 07d#0000f690002007f9
(1484869957.07) can1 091#7eda7f1b55b2f000
(1484869957.07) can1 092#6f9c6fab73715bb2
(1484869957.07) can1 213#ffff000400020140
(1484869957.07) can1 214#000000000000f690
(1484869957.07) can1 216#34d5fa0a00000000
(1484869957.07) can1 217#03ec03f003e803e4
(1484869957.07) can1 415#0499f45208080808
(1484869957.07) can1 41d#8000600000000000
(1484869957.07) can1 4b0#01008000900000f6
(1484869957.07) can1 3a8#0100273700000000
(1484869957.07) can1 167#727fc0100019ea00
(1484869957.07) can1 3ca#fe8a184c00000000
(1484869957.07) can0 3ca#fe8a184c00000000
(1484869957.07) can1 202#045350006000049b
(1484869957.07) can1 085#84b88000898084ae
(1484869957.07) can1 3b3#4488c20c10000002
(1484869957.07) can1 3c3#5cc0000000000000
(1484869957.07) can1 42c#8c80000007f00000
(1484869957.08) can1 05d#83558f5f3d000000
(1484869957.08) can1 187#e314082800000300
(1484869957.08) can1 217#03ec03ec03e403e4
(1484869957.08) can1 59e#9e00ffffffffffff
(1484869957.08) can1 078#0168800000000000
(1484869957.08) can1 091#7ed77f1062b3f000
(1484869957.08) can1 092#6fa56f9a73785bb3
(1484869957.08) can1 422#000000963802fe02
(1484869957.08) can1 423#88e0000000000000
(1484869957.08) can1 430#37000a93c8887700
(1484869957.08) can1 43a#0000020000000000
(1484869957.08) can1 05a#00000045e9b10000
(1484869957.08) can1 168#0000000000000000
(1484869957.08) can1 167#727fc1100019ea00
(1484869957.08) can1 082#7a081400a1804000
(1484869957.08) can1 085#84b88000899084ad
(1484869957.08) can1 200#00007fc47fc40000
(1484869957.09) can1 202#045358006000049a
(1484869957.09) can1 204#c0007d02a1000000
(1484869957.09) can1 3cc#1000000000000000
(1484869957.09) can1 230#2106000097000000
(1484869957.09) can1 3e2#0000000080000000
(1484869957.09) can1 455#a000000000000000
(1484869957.09) can1 076#3ea6c0800fff0000
(1484869957.09) can1 077#0499080a7ff7fe00
(1484869957.09) can1 07d#0000f5a0001ff7f7
(1484869957.09) can1 091#7edc7f0666b4f000
(1484869957.09) can1 092#6fab6f85738a57b4
(1484869957.09) can1 213#ffff000400020140
(1484869957.09) can1 214#000000000000f5a0
(1484869957.09) can1 216#38d8fe0e00000000
(1484869957.09) can1 217#03ec03e803e003e8
(1484869957.09) can1 415#0496f85408080808
(1484869957.09) can1 416#5600f80001000000
(1484869957.09) can1 41d#8000600000000000
(1484869957.09) can1 4b0#01008000a00000f5
(1484869957.09) can1 33b#0000000000000000
(1484869957.09) can1 3a8#0100273500000000
(1484869957.09) can1 202#0453600060000499
(1484869957.09) can1 085#84b9800086a084ae
(1484869957.09) can1 242#0217202be1000001
(1484869957.09) can1 261#0000000000000000
(1484869957.09) can1 42f#7d04002e65ec02a1
(1484869957.09) can1 186#1421016600180400
(1484869957.1) can1 187#e314082800000300
(1484869957.1) can1 217#03f003ec03e403ec
(1484869957.1) can1 091#7eeb7efa63b5f000
(1484869957.1) can1 092#6fb06f77739851b5
(1484869957.1) can1 3ca#fe8a184c00000000
(1484869957.1) can0 3ca#fe8a184c00000000
(1484869957.1) can1 167#727fc2100019e900
(1484869957.1) can1 082#7b081400a1804000
(1484869957.1) can1 085#84b9800085b084ae
(1484869957.1) can1 200#00007fc37fc30000
(1484869957.1) can1 202#0452680060000499
(1484869957.11) can1 230#2106000097000000
(1484869957.11) can1 076#3ea6c0800fff0000
(1484869957.11) can1 077#049808047ff809f7
(1484869957.11) can1 07d#0000f4b0002067f7
(1484869957.11) can1 091#7efa7ef05db6f000
(1484869957.11) can1 092#6fad6f78739852b6
(1484869957.11) can1 213#ffff000400020040
(1484869957.11) can1 214#000000000000f4b0
(1484869957.11) can1 216#3cdd031300000000
(1484869957.11) can1 217#03ec03e803ec03ec
(1484869957.11) can1 415#0497fc5208080808
(1484869957.11) can1 41d#8000600000000000
(1484869957.11) can1 4b0#01008000b00000f4
(1484869957.11) can1 3a8#0100273500000000
(1484869957.11) can1 167#727fbe100019e900
(1484869957.11) can1 202#0452700060000498
(1484869957.11) can1 204#c0007d029d000000
(1484869957.11) can1 085#84b9800084c084ae
(1484869957.11) can1 3cc#1000000000000000
(1484869957.11) can1 186#1421016600180400
(1484869957.12) can1 187#e314082800000300
(1484869957.12) can1 217#03ec03e803f003ec
(1484869957.12) can1 078#0068000000000000
(1484869957.12) can1 091#7f047eea57b7f000
(1484869957.12) can1 092#6fa36f89739052b7
(1484869957.12) can1 05c#00f000ed201e0000
(1484869957.12) can1 082#7b081400a1804000
(1484869957.12) can1 085#84b9800083d084ae
(1484869957.12) can1 200#00007fc27fc20000
(1484869957.12) can1 202#0451780060000498
(1484869957.13) can1 230#2106000097000000
(1484869957.13) can1 42c#8c80000007f00000
(1484869957.13) can1 42f#7d04002e65eb02a1
(1484869957.13) can1 076#3ea7c0800fff0000
(1484869957.13) can1 077#049607ff7ff80df3
(1484869957.13) can1 07d#0000f3c00020a7ff
(1484869957.13) can1 091#7f097ee556b8f000
(1484869957.13) can1 092#6f9c6f9f73834fb8
(1484869957.13) can1 213#ffff000400020040
(1484869957.13) can1 214#000000000000f3c0
(1484869957.13) can1 216#3fe1051700000000
(1484869957.13) can1 217#03ec03e803f803f0
(1484869957.13) can1 415#0495c06308080808
(1484869957.13) can1 41d#8000600000000000
(1484869957.13) can1 4b0#01008000c00000f3
(1484869957.13) can1 083#0100000000600000
(1484869957.13) can1 2a1#ffffffff00000000
(1484869957.13) can1 3a8#0100273500000000
(1484869957.13) can1 167#727fbf100019e900
(1484869957.13) can1 3ca#fe8a184c00000000
(1484869957.13) can0 3ca#fe8a184c00000000
(1484869957.13) can1 202#0461000060000497
(1484869957.13) can1 204#c0007d029a000000
(1484869957.13) can1 085#84b9800083e084ad
(1484869957.13) can1 242#0217202de1000001
(1484869957.13) can1 186#141d016500170400
(1484869957.14) can1 187#e214082800100300
(1484869957.14) can1 18a#0020180114000000
(1484869957.14) can1 217#03ec03ec03f803ec
(1484869957.14) can1 091#7f097ede5cb9f000
(1484869957.14) can1 078#0168800000000000
(1484869957.14) can1 092#6f976fae737255b9
(1484869957.14) can1 082#7b081400a1804000
(1484869957.14) can1 085#84b9800082f084ad
(1484869957.14) can1 167#727fc0100019e900
(1484869957.14) can1 178#000001fa0e6eca6f
(1484869957.15) can1 3cc#1000000000000000
(1484869957.15) can1 200#00007fc17fc10000
(1484869957.15) can1 202#0460080060000497
(1484869957.15) can1 230#2106000097000000
(1484869957.15) can1 076#3ea7c0800fff0000
(1484869957.15) can1 077#049607fb7ff7fdfe
(1484869957.15) can1 07d#0000f2d000204804
(1484869957.15) can1 091#7f027ed967baf000
(1484869957.15) can1 092#6f966fb373675bba
(1484869957.15) can1 213#ffff00040001ff40
(1484869957.15) can1 214#000000000000f2d0
(1484869957.15) can1 216#43e50a1a00000000
(1484869957.15) can1 217#03f003f003f803ec
(1484869957.15) can1 261#0000000000000000
(1484869957.15) can1 415#0498c45f08080808
(1484869957.15) can1 41d#8000600000000000
(1484869957.15) can1 4b0#01008000d00000f2
(1484869957.15) can1 3a8#0100273700000000
(1484869957.15) can1 33b#0000000000000000
(1484869957.15) can1 202#045f100060000497
(1484869957.15) can1 085#84b98000910084ad
(1484869957.15) can1 204#c0007d0298000000
(1484869957.15) can1 186#141b016500170400
(1484869957.15) can1 187#e214082800100300
(1484869957.16) can1 078#0569800000000000
(1484869957.16) can1 217#03f003f003f403ec
(1484869957.16) can1 04a#0200000000000000
(1484869957.16) can1 04b#00c0d8d8d8d8c000
(1484869957.16) can1 04c#105fffc000000000
(1484869957.16) can1 091#7ef87ed674bbf000
(1484869957.16) can1 092#6f9a6fad73645fbb
(1484869957.16) can1 3ca#fe8a284800000000
(1484869957.16) can0 3ca#fe8a284800000000
(1484869957.16) can1 082#7b081400a1804000
(1484869957.16) can1 085#84b98000901084ad
(1484869957.16) can1 202#045e180060000497
(1484869957.16) can1 230#2106000097000000
(1484869957.17) can1 076#3ea7c0800fff0000
(1484869957.17) can1 077#049707f77ff7fa02
(1484869957.17) can1 07d#0000f1e0001fc802
(1484869957.17) can1 091#7ef27ed57abcf000
(1484869957.17) can1 092#6f9c6fa073636abc
(1484869957.17) can1 213#ffff000400020040
(1484869957.17) can1 214#000000000000f1e0
(1484869957.17) can1 216#48e90e1e00000000
(1484869957.17) can1 217#03f003f003f003ec
(1484869957.17) can1 415#049cc85a08080808
(1484869957.17) can1 41d#8000600000000000
(1484869957.17) can1 4b0#01008000e00000f1
(1484869957.17) can1 3a7#0e423a040a700000
(1484869957.17) can1 3a8#0100273700000000
(1484869957.17) can1 242#0217202fe1000001
(1484869957.17) can1 202#045c200060000498
(1484869957.17) can1 085#84b980008f2084ad
(1484869957.17) can1 204#c0007d0294000000
(1484869957.17) can1 3cc#1000000000000000
(1484869957.17) can1 40a#c1023130373639ff
(1484869957.18) can1 42c#8c80000007f00000
(1484869957.18) can1 186#1419016500170400
(1484869957.18) can1 187#e214082800100300
(1484869957.18) can1 05d#8356b75f32000000
(1484869957.18) can1 217#03f003f003f003f0
(1484869957.18) can1 41e#0000000000000000
(1484869957.18) can1 078#0068000000000000
(1484869957.18) can1 091#7eee7ed57dbdf000
(1484869957.18) can1 092#6f9a6f93736378bd
(1484869957.18) can1 169#008dc00000000000
(1484869957.18) can1 422#000000963802fe02
(1484869957.18) can1 423#88e0000000000000
(1484869957.18) can1 430#37000a93c888f700
(1484869957.18) can1 431#057b009509800002
(1484869957.18) can1 05a#00000045ef510000
(1484869957.18) can1 082#7b081400a0804000
(1484869957.18) can1 085#84b980008e3084ad
(1484869957.18) can1 202#045b280060000498
(1484869957.18) can1 230#2106000097000000
(1484869957.19) can1 455#a000000000000000
(1484869957.19) can1 076#3ea7c0800fff0000
(1484869957.19) can1 077#049907f67ff7fdfe
(1484869957.19) can1 07d#0000f0f0001fb7fe
(1484869957.19) can1 091#7eee7ed57cbef000
(1484869957.19) can1 092#6f966f8d736282be
(1484869957.19) can1 213#ffff000400020040
(1484869957.19) can1 214#000000000000f0f0
(1484869957.19) can1 216#4cec122200000000
(1484869957.19) can1 415#0499cc5c08080808
(1484869957.19) can1 416#5700f70001000000
(1484869957.19) can1 41d#8000600000000000
(1484869957.19) can1 4b0#01008000f00000f0
(1484869957.19) can1 3a8#0100273700000000
(1484869957.19) can1 167#727fc1100019e900
(1484869957.19) can1 3ca#fe8a284800000000
(1484869957.19) can0 3ca#fe8a284800000000
(1484869957.19) can1 202#045a300060000498
(1484869957.19) can1 085#84b980008d4084ad
(1484869957.19) can1 261#0000000000000000
(1484869957.19) can1 186#1415016500170400
(1484869957.2) can1 187#e214082800100300
(1484869957.2) can1 3a6#0e401a040a700000
(1484869957.2) can1 217#03ec03f003f003f4
(1484869957.2) can1 078#0168800000000000
(1484869957.2) can1 596#9600ffffffffffff
(1484869957.2) can1 091#7eee7ed977bff000
(1484869957.2) can1 092#6f906f91736085bf
(1484869957.2) can1 200#00007fc07fc00000
(1484869957.2) can1 082#7b081400a0804000
(1484869957.2) can1 085#84b980008c5084ad
(1484869957.2) can1 202#0459380060000498
(1484869957.21) can1 204#c0007d0290000000
(1484869957.21) can1 230#2106000097000000
(1484869957.21) can1 3cc#1000000000000000
(1484869957.21) can1 350#0000000000000000
(1484869957.21) can1 076#3ea7c0800fff0000
(1484869957.21) can1 077#049907f67ff7f9f9
(1484869957.21) can1 07d#0000ff00001fb7fd
(1484869957.21) can1 091#7eec7ede73c0f000
(1484869957.21) can1 092#6f8c6f9c735f7ec0
(1484869957.21) can1 213#ffff000400020040
(1484869957.21) can1 214#000000000000ff00
(1484869957.21) can1 216#50f1172700000000
(1484869957.21) can1 217#03f003f003f403f0
(1484869957.21) can1 3e0#0000000080000000
(1484869957.21) can1 415#049ad05a08080808
(1484869957.21) can1 41d#8000600000000000
(1484869957.21) can1 4b0#01008000000000ff
(1484869957.21) can1 33b#0000000000000000
(1484869957.21) can1 3a8#0100273700000000
(1484869957.21) can1 202#0458400060000498
(1484869957.21) can1 085#84b980008b6084ad
(1484869957.21) can1 242#0217202ae1000001
(1484869957.21) can1 42f#7d04002e65eb02a0
(1484869957.21) can1 187#e214082800100300
(1484869957.22) can1 091#7eea7ee270c1f000
(1484869957.22) can1 092#6f8d6fa9735f6fc1
(1484869957.22) can1 3ca#fe8a284800000000
(1484869957.22) can0 3ca#fe8a284800000000
(1484869957.22) can1 05c#009000f3201e0000
(1484869957.22) can1 082#7c081400a1804000
(1484869957.22) can1 085#84b980008a7084ad
(1484869957.22) can1 167#727fc0100019e900
(1484869957.22) can1 202#0456480060000499
(1484869957.23) can1 204#c0007d028d000000
(1484869957.23) can1 230#2106000097000000
(1484869957.23) can1 42c#8c80000007f00000
(1484869957.23) can1 076#3ea7c0800fff0000
(1484869957.23) can1 077#049907f97ff7edfe
(1484869957.23) can1 07d#0000fe10001fa7fc
(1484869957.23) can1 091#7eee7ee766c2f000
(1484869957.23) can1 092#6f926fb2735d62c2
(1484869957.23) can1 213#ffff000400020040
(1484869957.23) can1 214#000000000000fe10
(1484869957.23) can1 216#54f51b2b00000000
(1484869957.23) can1 217#03f003f403f003f0
(1484869957.23) can1 415#049cd45708070807
(1484869957.23) can1 41d#8000600000000000
(1484869957.23) can1 4b0#01008000100000fe
(1484869957.23) can1 3a8#0100273700000000
(1484869957.23) can1 083#0100000000600000
(1484869957.23) can1 2a1#ffffffff00000000
(1484869957.23) can1 167#727fc0100019e800
(1484869957.23) can1 202#0455500060000499
(1484869957.23) can1 085#84b98000898084ad
